Time [s],Packet ID,MOSI,MISO
9.083156833333334,0,0x6013,0xFFFF
9.083194708333334,0,0x0000,0xFFFF
9.083268250000000,0,0x7013,0xFFFF
9.083302666666667,0,0x0101,0xFFFF
10.585508083333334,0,0x6000,0xFFFF
10.585540833333333,0,0x0202,0xCBCB
10.585558958333333,0,0x200E,0xFFFF
10.585574416666667,0,0x5A5A,0xFFFF
10.585593875000001,0,0x600E,0xFFFF
10.585609708333333,0,0x0303,0x5A5A
10.585624624999999,0,0x7000,0xFFFF
10.585638625000000,0,0x0404,0xCBCB
10.585652708333333,0,0x300E,0xFFFF
10.585666124999999,0,0x5A5A,0xFFFF
10.585679583333333,0,0x700E,0xFFFF
10.585693291666667,0,0x0505,0x5A5A
10.585749041666666,0,0x6000,0xFFFF
10.585763750000000,0,0x0606,0xCBCB
10.585777916666666,0,0x602F,0xFFFF
10.585791583333334,0,0x0707,0x1010
10.585805499999999,0,0x200D,0xFFFF
10.585818791666666,0,0x1313,0xFFFF
10.590851625000001,0,0x600D,0xFFFF
10.590868083333334,0,0x0808,0x1313
10.590896041666667,0,0x7000,0xFFFF
10.590911625000000,0,0x0909,0xCBCB
10.590925750000000,0,0x702F,0xFFFF
10.590939541666666,0,0x0A0A,0x1010
10.590953375000000,0,0x300D,0xFFFF
10.590966750000000,0,0x1313,0xFFFF
10.595997041666667,0,0x700D,0xFFFF
10.596012833333333,0,0x0B0B,0x1313
10.596038416666667,0,0x2003,0xFFFF
10.596055041666666,0,0xFFFF,0xFFFF
10.596069125000000,0,0x6003,0xFFFF
10.596082958333334,0,0x0C0C,0x1F1F
10.596096833333334,0,0x200D,0xFFFF
10.596110208333334,0,0x1313,0xFFFF
10.601141708333333,0,0x600D,0xFFFF
10.601158000000000,0,0x0D0D,0x1313
10.601173875000001,0,0x6004,0xFFFF
10.601188916666667,0,0x0E0E,0x0000
10.601202916666667,0,0x2005,0xFFFF
10.601216458333333,0,0x2020,0xFFFF
10.601229916666666,0,0x2006,0xFFFF
10.601243541666667,0,0xC0C0,0xFFFF
10.601257958333333,0,0x2007,0xFFFF
10.601271875000000,0,0xB3B3,0xFFFF
10.601285375000000,0,0x2008,0xFFFF
10.601298666666667,0,0xA2A2,0xFFFF
10.601312041666667,0,0x2009,0xFFFF
10.601325416666667,0,0x9191,0xFFFF
10.601338708333333,0,0x200A,0xFFFF
10.601352000000000,0,0xC1C1,0xFFFF
10.601365250000001,0,0x6004,0xFFFF
10.601378750000000,0,0x0F0F,0x0000
10.601392458333333,0,0x6004,0xFFFF
10.601406125000000,0,0x1010,0x0000
10.601426750000000,0,0x2005,0xFFFF
10.601440458333334,0,0x2020,0xFFFF
10.601454000000000,0,0x200A,0xFFFF
10.601467291666667,0,0xC1C1,0xFFFF
10.601480541666668,0,0x6004,0xFFFF
10.601494166666667,0,0x1111,0x0000
10.601507916666666,0,0x6009,0xFFFF
10.601521541666667,0,0x1212,0x9191
10.601535250000000,0,0x6008,0xFFFF
10.601548875000001,0,0x1313,0xA2A2
10.601562458333333,0,0x6007,0xFFFF
10.601576083333333,0,0x1414,0xB3B3
10.601589750000000,0,0x6006,0xFFFF
10.601603458333333,0,0x1515,0xC0C0
10.601617333333333,0,0x3003,0xFFFF
10.601630583333334,0,0xFFFF,0xFFFF
10.601643833333334,0,0x7003,0xFFFF
10.601657500000000,0,0x1616,0x1F1F
10.601671791666666,0,0x300D,0xFFFF
10.601687291666666,0,0x1313,0xFFFF
10.606718250000000,0,0x700D,0xFFFF
10.606734124999999,0,0x1717,0x1313
10.606749458333333,0,0x7004,0xFFFF
10.606764125000000,0,0x1818,0x0000
10.606778166666667,0,0x3005,0xFFFF
10.606791541666666,0,0x2020,0xFFFF
10.606804791666667,0,0x3006,0xFFFF
10.606818083333334,0,0xC0C0,0xFFFF
10.606831333333334,0,0x3007,0xFFFF
10.606844541666666,0,0xB3B3,0xFFFF
10.606857750000000,0,0x3008,0xFFFF
10.606871083333333,0,0xA2A2,0xFFFF
10.606884458333333,0,0x3009,0xFFFF
10.606897875000000,0,0x9191,0xFFFF
10.606911166666666,0,0x300A,0xFFFF
10.606924291666667,0,0xC1C1,0xFFFF
10.606937541666667,0,0x7004,0xFFFF
10.606951125000000,0,0x1919,0x0000
10.606964583333333,0,0x7004,0xFFFF
10.606978166666666,0,0x1A1A,0x0000
10.606991666666667,0,0x3005,0xFFFF
10.607004791666666,0,0x2020,0xFFFF
10.607018083333333,0,0x300A,0xFFFF
10.607031291666667,0,0xC1C1,0xFFFF
10.607044416666668,0,0x7004,0xFFFF
10.607058000000000,0,0x1B1B,0x0000
10.607071625000000,0,0x7009,0xFFFF
10.607085208333332,0,0x1C1C,0x9191
10.607098666666667,0,0x7008,0xFFFF
10.607112333333333,0,0x1D1D,0xA2A2
10.607125916666666,0,0x7007,0xFFFF
10.607139333333333,0,0x1E1E,0xB3B3
10.607152749999999,0,0x7006,0xFFFF
10.607166250000001,0,0x1F1F,0xC0C0
10.607192041666666,0,0x607E,0xFFFF
10.607206000000000,0,0x2020,0x0202
10.607219833333334,0,0x207E,0xFFFF
10.607233166666667,0,0x0202,0xFFFF
10.607246416666667,0,0x207E,0xFFFF
10.607259624999999,0,0x0808,0xFFFF
10.607272916666666,0,0x207E,0xFFFF
10.607286166666666,0,0x0E0E,0xFFFF
10.607299333333334,0,0x207E,0xFFFF
10.607312541666667,0,0x0000,0xFFFF
10.607325666666666,0,0x2051,0xFFFF
10.607338958333333,0,0x0000,0xFFFF
10.607368416666667,0,0x2052,0xFFFF
10.607382375000000,0,0x0000,0xFFFF
10.607395708333334,0,0x2053,0xFFFF
10.607408875000001,0,0x0000,0xFFFF
10.607422250000001,0,0x2054,0xFFFF
10.607435416666666,0,0x0000,0xFFFF
10.607448541666667,0,0x2055,0xFFFF
10.607461666666667,0,0x0000,0xFFFF
10.607474833333333,0,0x2056,0xFFFF
10.607488083333333,0,0x0000,0xFFFF
10.607501333333333,0,0x2057,0xFFFF
10.607514541666667,0,0x0000,0xFFFF
10.607527749999999,0,0x2058,0xFFFF
10.607540958333333,0,0x0000,0xFFFF
10.607554250000000,0,0x2059,0xFFFF
10.607567583333333,0,0x0000,0xFFFF
10.607580833333333,0,0x205A,0xFFFF
10.607594000000001,0,0x0000,0xFFFF
10.607607291666667,0,0x205B,0xFFFF
10.607620499999999,0,0x0000,0xFFFF
10.607633666666667,0,0x205C,0xFFFF
10.607646916666667,0,0x0000,0xFFFF
10.607660125000001,0,0x205D,0xFFFF
10.607673333333333,0,0x0000,0xFFFF
10.607686541666666,0,0x205E,0xFFFF
10.607699666666667,0,0x0000,0xFFFF
10.607712875000001,0,0x205F,0xFFFF
10.607726000000000,0,0x0000,0xFFFF
10.607739125000000,0,0x2060,0xFFFF
10.607752333333334,0,0x0000,0xFFFF
10.607765541666666,0,0x2061,0xFFFF
10.607778750000000,0,0x0000,0xFFFF
10.607792125000000,0,0x6004,0xFFFF
10.607805708333334,0,0x2121,0x0000
10.607819375000000,0,0x2005,0xFFFF
10.607832666666667,0,0xC0C0,0xFFFF
10.607845749999999,0,0x2006,0xFFFF
10.607858875000000,0,0x0000,0xFFFF
10.607872000000000,0,0x2007,0xFFFF
10.607885166666666,0,0x0000,0xFFFF
10.607898375000000,0,0x2008,0xFFFF
10.607911500000000,0,0x0000,0xFFFF
10.607924666666667,0,0x2009,0xFFFF
10.607937874999999,0,0x0000,0xFFFF
10.607951083333333,0,0x200A,0xFFFF
10.607964041666667,0,0x3D3D,0xFFFF
10.607977249999999,0,0x6004,0xFFFF
10.607990708333332,0,0x2222,0x0000
10.608004458333333,0,0x6004,0xFFFF
10.608018083333333,0,0x2323,0x0000
10.608031583333334,0,0x2005,0xFFFF
10.608044791666666,0,0xC0C0,0xFFFF
10.608057958333333,0,0x2006,0xFFFF
10.608071583333333,0,0x0000,0xFFFF
10.608096666666667,0,0x2007,0xFFFF
10.608110458333334,0,0x0000,0xFFFF
10.608123833333334,0,0x2008,0xFFFF
10.608137083333334,0,0x0000,0xFFFF
10.608150374999999,0,0x2009,0xFFFF
10.608163583333333,0,0x0000,0xFFFF
10.608176750000000,0,0x200A,0xFFFF
10.608190000000000,0,0x3E3E,0xFFFF
10.608203250000001,0,0x6004,0xFFFF
10.608216791666667,0,0x2424,0x0000
10.608230333333333,0,0x6004,0xFFFF
10.608243916666666,0,0x2525,0x0000
10.608257541666667,0,0x2005,0xFFFF
10.608270708333333,0,0xC0C0,0xFFFF
10.608283916666666,0,0x2006,0xFFFF
10.608297000000000,0,0x0000,0xFFFF
10.608310250000001,0,0x2007,0xFFFF
10.608323583333334,0,0x0000,0xFFFF
10.608336666666666,0,0x2008,0xFFFF
10.608349791666667,0,0x0000,0xFFFF
10.608362874999999,0,0x2009,0xFFFF
10.608376041666666,0,0x0000,0xFFFF
10.608389333333333,0,0x200A,0xFFFF
10.608402583333334,0,0x3F3F,0xFFFF
10.608415833333334,0,0x6004,0xFFFF
10.608429541666666,0,0x2626,0x0000
10.608443083333333,0,0x6004,0xFFFF
10.608456666666667,0,0x2727,0x0000
10.608470125000000,0,0x2005,0xFFFF
10.608483291666667,0,0xC0C0,0xFFFF
10.608496458333333,0,0x2006,0xFFFF
10.608509625000000,0,0x0000,0xFFFF
10.608522791666667,0,0x2007,0xFFFF
10.608535916666666,0,0x0000,0xFFFF
10.608549083333333,0,0x2008,0xFFFF
10.608562375000000,0,0x0000,0xFFFF
10.608575583333334,0,0x2009,0xFFFF
10.608588875000001,0,0x0000,0xFFFF
10.608601999999999,0,0x200A,0xFFFF
10.608615125000000,0,0x4040,0xFFFF
10.608628250000001,0,0x6004,0xFFFF
10.608641666666667,0,0x2828,0x0000
10.608655250000000,0,0x6004,0xFFFF
10.608668750000000,0,0x2929,0x0000
10.608686791666667,0,0x2005,0xFFFF
10.608700375000000,0,0xC0C0,0xFFFF
10.608725458333334,0,0x2006,0xFFFF
10.608739000000000,0,0x0000,0xFFFF
10.608752333333333,0,0x2007,0xFFFF
10.608765500000001,0,0x0000,0xFFFF
10.608778791666667,0,0x2008,0xFFFF
10.608791958333333,0,0x0000,0xFFFF
10.608805083333333,0,0x2009,0xFFFF
10.608818250000001,0,0x0000,0xFFFF
10.608831541666667,0,0x200A,0xFFFF
10.608844749999999,0,0x4141,0xFFFF
10.608857958333333,0,0x6004,0xFFFF
10.608871416666666,0,0x2A2A,0x0000
10.608885000000001,0,0x6004,0xFFFF
10.608898375000001,0,0x2B2B,0x0000
10.608911833333334,0,0x2005,0xFFFF
10.608924875000000,0,0xC0C0,0xFFFF
10.608938083333333,0,0x2006,0xFFFF
10.608951125000001,0,0x0000,0xFFFF
10.608964291666666,0,0x2007,0xFFFF
10.608977458333333,0,0x0000,0xFFFF
10.608990708333334,0,0x2008,0xFFFF
10.609003833333333,0,0x0000,0xFFFF
10.609017000000000,0,0x2009,0xFFFF
10.609030083333334,0,0x0000,0xFFFF
10.609043166666666,0,0x200A,0xFFFF
10.609056416666666,0,0x4242,0xFFFF
10.609069750000000,0,0x6004,0xFFFF
10.609083375000001,0,0x2C2C,0x0000
10.609097000000000,0,0x6004,0xFFFF
10.609110541666666,0,0x2D2D,0x0000
10.609124041666666,0,0x2005,0xFFFF
10.609137166666667,0,0xC0C0,0xFFFF
10.609150250000001,0,0x2006,0xFFFF
10.609163375000000,0,0x0000,0xFFFF
10.609176583333333,0,0x2007,0xFFFF
10.609189750000001,0,0x0000,0xFFFF
10.609203041666667,0,0x2008,0xFFFF
10.609216208333333,0,0x0000,0xFFFF
10.609229208333334,0,0x2009,0xFFFF
10.609242291666666,0,0x0000,0xFFFF
10.609255458333333,0,0x200A,0xFFFF
10.609268625000000,0,0x4343,0xFFFF
10.609282000000000,0,0x6004,0xFFFF
10.609295625000000,0,0x2E2E,0x0000
10.609309166666666,0,0x6004,0xFFFF
10.609322750000000,0,0x2F2F,0x0000
10.609336458333333,0,0x2005,0xFFFF
10.609349874999999,0,0xC0C0,0xFFFF
10.609363208333333,0,0x2006,0xFFFF
10.609376333333334,0,0x0000,0xFFFF
10.609389583333334,0,0x2007,0xFFFF
10.609402791666668,0,0x0000,0xFFFF
10.609416083333333,0,0x2008,0xFFFF
10.609434458333334,0,0x0000,0xFFFF
10.609448333333333,0,0x2009,0xFFFF
10.609461749999999,0,0x0000,0xFFFF
10.609475000000000,0,0x200A,0xFFFF
10.609488166666667,0,0x4444,0xFFFF
10.609501375000001,0,0x6004,0xFFFF
10.609515000000000,0,0x3030,0x0000
10.609528791666667,0,0x6004,0xFFFF
10.609542333333334,0,0x3131,0x0000
10.609555958333333,0,0x2005,0xFFFF
10.609569166666667,0,0xA0A0,0xFFFF
10.609582333333334,0,0x2006,0xFFFF
10.609595458333333,0,0x0000,0xFFFF
10.609608750000000,0,0x2007,0xFFFF
10.609621958333333,0,0x0000,0xFFFF
10.609635250000000,0,0x2008,0xFFFF
10.609648375000001,0,0x0000,0xFFFF
10.609661583333333,0,0x2009,0xFFFF
10.609674708333333,0,0x0000,0xFFFF
10.609687916666667,0,0x200A,0xFFFF
10.609701083333333,0,0x4E4E,0xFFFF
10.609714291666666,0,0x6004,0xFFFF
10.609727833333332,0,0x3232,0x0000
10.609741541666667,0,0x6004,0xFFFF
10.609755125000000,0,0x3333,0x0000
10.609768624999999,0,0x2005,0xFFFF
10.609781916666666,0,0xA0A0,0xFFFF
10.609795125000000,0,0x2006,0xFFFF
10.609808291666667,0,0x0000,0xFFFF
10.609821541666667,0,0x2007,0xFFFF
10.609834625000000,0,0x5050,0xFFFF
10.609847791666667,0,0x2008,0xFFFF
10.609860916666667,0,0x8E8E,0xFFFF
10.609874124999999,0,0x2009,0xFFFF
10.609887291666666,0,0x2222,0xFFFF
10.609900416666667,0,0x200A,0xFFFF
10.609913458333333,0,0x4F4F,0xFFFF
10.609926541666667,0,0x6004,0xFFFF
10.609940083333333,0,0x3434,0x0000
10.609953624999999,0,0x6004,0xFFFF
10.609967166666667,0,0x3535,0x0000
10.609980708333334,0,0x2005,0xFFFF
10.609993875000001,0,0xA0A0,0xFFFF
10.610007166666668,0,0x2006,0xFFFF
10.610020375000000,0,0x0000,0xFFFF
10.610033541666667,0,0x2007,0xFFFF
10.610046708333334,0,0x3030,0xFFFF
10.610059958333334,0,0x2008,0xFFFF
10.610073125000000,0,0x0C0C,0xFFFF
10.610086333333333,0,0x2009,0xFFFF
10.610099500000000,0,0x8484,0xFFFF
10.610112875000000,0,0x200A,0xFFFF
10.610126250000000,0,0x4F4F,0xFFFF
10.610139500000001,0,0x6004,0xFFFF
10.610153125000000,0,0x3636,0x0000
10.610166666666666,0,0x6004,0xFFFF
10.610180166666666,0,0x3737,0x0000
10.610193666666667,0,0x2005,0xFFFF
10.610206916666666,0,0xA0A0,0xFFFF
10.610220208333333,0,0x2006,0xFFFF
10.610233291666667,0,0x0000,0xFFFF
10.610246416666667,0,0x2007,0xFFFF
10.610259583333333,0,0x5050,0xFFFF
10.610273375000000,0,0x2008,0xFFFF
10.610298500000001,0,0x8E8E,0xFFFF
10.610312125000000,0,0x2009,0xFFFF
10.610325458333334,0,0x2222,0xFFFF
10.610338583333334,0,0x200A,0xFFFF
10.610351666666666,0,0x4F4F,0xFFFF
10.610364875000000,0,0x6004,0xFFFF
10.610378375000000,0,0x3838,0x0000
10.610391874999999,0,0x6004,0xFFFF
10.610405374999999,0,0x3939,0x0000
10.610418958333334,0,0x2005,0xFFFF
10.610432250000001,0,0xA0A0,0xFFFF
10.610445458333333,0,0x2006,0xFFFF
10.610458583333333,0,0x0000,0xFFFF
10.610475375000000,0,0x2007,0xFFFF
10.610488750000000,0,0x3030,0xFFFF
10.610502000000000,0,0x2008,0xFFFF
10.610515166666667,0,0xACAC,0xFFFF
10.610528291666666,0,0x2009,0xFFFF
10.610541500000000,0,0x8484,0xFFFF
10.610554625000001,0,0x200A,0xFFFF
10.610567750000000,0,0x4F4F,0xFFFF
10.610580916666667,0,0x6004,0xFFFF
10.610594458333333,0,0x3A3A,0x0000
10.610608083333334,0,0x6004,0xFFFF
10.610621541666667,0,0x3B3B,0x0000
10.610635208333333,0,0x2005,0xFFFF
10.610651833333334,0,0xA0A0,0xFFFF
10.610666583333334,0,0x2006,0xFFFF
10.610680750000000,0,0x0000,0xFFFF
10.610695041666666,0,0x2007,0xFFFF
10.610708666666667,0,0x5050,0xFFFF
10.610721833333333,0,0x2008,0xFFFF
10.610735083333333,0,0x8E8E,0xFFFF
10.610748333333333,0,0x2009,0xFFFF
10.610761458333334,0,0x2222,0xFFFF
10.610774624999999,0,0x200A,0xFFFF
10.610788083333333,0,0x4F4F,0xFFFF
10.610813000000000,0,0x6004,0xFFFF
10.610827125000000,0,0x3C3C,0x0000
10.610840916666668,0,0x6004,0xFFFF
10.610854500000000,0,0x3D3D,0x0000
10.610868416666667,0,0x2005,0xFFFF
10.610881708333334,0,0xA0A0,0xFFFF
10.610894916666666,0,0x2006,0xFFFF
10.610907958333334,0,0x0000,0xFFFF
10.610921208333334,0,0x2007,0xFFFF
10.610934374999999,0,0x3030,0xFFFF
10.610947541666667,0,0x2008,0xFFFF
10.610960708333334,0,0x2C2C,0xFFFF
10.610973958333334,0,0x2009,0xFFFF
10.610987250000001,0,0x8787,0xFFFF
10.611000916666667,0,0x200A,0xFFFF
10.611026041666667,0,0x4F4F,0xFFFF
10.611039666666667,0,0x6004,0xFFFF
10.611053291666666,0,0x3E3E,0x0000
10.611066875000001,0,0x6004,0xFFFF
10.611080500000000,0,0x3F3F,0x0000
10.611093958333333,0,0x2005,0xFFFF
10.611107208333333,0,0xA0A0,0xFFFF
10.611120500000000,0,0x2006,0xFFFF
10.611133666666667,0,0x0000,0xFFFF
10.611146874999999,0,0x2007,0xFFFF
10.611159958333333,0,0x5050,0xFFFF
10.611173000000001,0,0x2008,0xFFFF
10.611186208333333,0,0x8E8E,0xFFFF
10.611199416666667,0,0x2009,0xFFFF
10.611212583333334,0,0x2222,0xFFFF
10.611225791666667,0,0x200A,0xFFFF
10.611238916666666,0,0x4F4F,0xFFFF
10.611252041666667,0,0x6004,0xFFFF
10.611265500000000,0,0x4040,0x0000
10.611279083333333,0,0x6004,0xFFFF
10.611292499999999,0,0x4141,0x0000
10.611306125000000,0,0x2005,0xFFFF
10.611319166666666,0,0xA0A0,0xFFFF
10.611332416666666,0,0x2006,0xFFFF
10.611345583333334,0,0x0000,0xFFFF
10.611358791666667,0,0x2007,0xFFFF
10.611371916666666,0,0x3030,0xFFFF
10.611385000000000,0,0x2008,0xFFFF
10.611398291666667,0,0x6C6C,0xFFFF
10.611411541666667,0,0x2009,0xFFFF
10.611424666666666,0,0x8989,0xFFFF
10.611437916666667,0,0x200A,0xFFFF
10.611451000000001,0,0x4F4F,0xFFFF
10.611464208333333,0,0x6004,0xFFFF
10.611477750000001,0,0x4242,0x0000
10.611491458333333,0,0x6004,0xFFFF
10.611504958333333,0,0x4343,0x0000
10.611518666666667,0,0x2005,0xFFFF
10.611531875000001,0,0xA0A0,0xFFFF
10.611545000000000,0,0x2006,0xFFFF
10.611558000000000,0,0x0000,0xFFFF
10.611571166666666,0,0x2007,0xFFFF
10.611584291666667,0,0x5050,0xFFFF
10.611597458333334,0,0x2008,0xFFFF
10.611610666666667,0,0x8E8E,0xFFFF
10.611623791666666,0,0x2009,0xFFFF
10.611637000000000,0,0x2222,0xFFFF
10.611650083333334,0,0x200A,0xFFFF
10.611663125000000,0,0x4F4F,0xFFFF
10.611676458333333,0,0x6004,0xFFFF
10.611689875000000,0,0x4444,0x0000
10.611703458333333,0,0x6004,0xFFFF
10.611717083333334,0,0x4545,0x0000
10.611730708333333,0,0x2005,0xFFFF
10.611743916666667,0,0xA0A0,0xFFFF
10.611757083333334,0,0x2006,0xFFFF
10.611770208333333,0,0x0000,0xFFFF
10.611783541666666,0,0x2007,0xFFFF
10.611796791666666,0,0x3030,0xFFFF
10.611809958333334,0,0x2008,0xFFFF
10.611822999999999,0,0x8C8C,0xFFFF
10.611836125000000,0,0x2009,0xFFFF
10.611849250000001,0,0x8A8A,0xFFFF
10.611862500000001,0,0x200A,0xFFFF
10.611875833333333,0,0x4F4F,0xFFFF
10.611889083333333,0,0x6004,0xFFFF
10.611902708333334,0,0x4646,0x0000
10.611916333333333,0,0x6004,0xFFFF
10.611929875000000,0,0x4747,0x0000
10.611943416666668,0,0x2005,0xFFFF
10.611956708333333,0,0xA0A0,0xFFFF
10.611969999999999,0,0x2006,0xFFFF
10.611983166666667,0,0x0000,0xFFFF
10.611996250000001,0,0x2007,0xFFFF
10.612009375000000,0,0x5050,0xFFFF
10.612022625000000,0,0x2008,0xFFFF
10.612035875000000,0,0x8E8E,0xFFFF
10.612049041666667,0,0x2009,0xFFFF
10.612062125000000,0,0x2222,0xFFFF
10.612075125000000,0,0x200A,0xFFFF
10.612088208333333,0,0x4F4F,0xFFFF
10.612101416666667,0,0x6004,0xFFFF
10.612114958333333,0,0x4848,0x0000
10.612128541666667,0,0x6004,0xFFFF
10.612142000000000,0,0x4949,0x0000
10.612155500000000,0,0x2005,0xFFFF
10.612168708333334,0,0xA0A0,0xFFFF
10.612181916666668,0,0x2006,0xFFFF
10.612195125000000,0,0x0000,0xFFFF
10.612208208333334,0,0x2007,0xFFFF
10.612221333333334,0,0x3030,0xFFFF
10.612234458333333,0,0x2008,0xFFFF
10.612247541666667,0,0x0C0C,0xFFFF
10.612260624999999,0,0x2009,0xFFFF
10.612273666666667,0,0x8B8B,0xFFFF
10.612286916666667,0,0x200A,0xFFFF
10.612300041666666,0,0x4F4F,0xFFFF
10.612313166666667,0,0x6004,0xFFFF
10.612326791666666,0,0x4A4A,0x0000
10.612340291666667,0,0x6004,0xFFFF
10.612353833333334,0,0x4B4B,0x0000
10.612367250000000,0,0x2005,0xFFFF
10.612380500000000,0,0xA0A0,0xFFFF
10.612393708333334,0,0x2006,0xFFFF
10.612406875000000,0,0x0000,0xFFFF
10.612420000000000,0,0x2007,0xFFFF
10.612433166666667,0,0x5050,0xFFFF
10.612446208333333,0,0x2008,0xFFFF
10.612459250000001,0,0x8E8E,0xFFFF
10.612472416666666,0,0x2009,0xFFFF
10.612485500000000,0,0x2222,0xFFFF
10.612498625000001,0,0x200A,0xFFFF
10.612511749999999,0,0x4F4F,0xFFFF
10.612525124999999,0,0x6004,0xFFFF
10.612538666666667,0,0x4C4C,0x0000
10.612552208333334,0,0x6004,0xFFFF
10.612565666666667,0,0x4D4D,0x0000
10.612579208333333,0,0x2005,0xFFFF
10.612592666666666,0,0xA0A0,0xFFFF
10.612617374999999,0,0x2006,0xFFFF
10.612633916666667,0,0x0000,0xFFFF
10.612650291666666,0,0x2007,0xFFFF
10.612664375000000,0,0x3030,0xFFFF
10.612678791666667,0,0x2008,0xFFFF
10.612692833333334,0,0xCCCC,0xFFFF
10.612706208333334,0,0x2009,0xFFFF
10.612719500000001,0,0x8D8D,0xFFFF
10.612733208333333,0,0x200A,0xFFFF
10.612747541666666,0,0x4F4F,0xFFFF
10.612761791666667,0,0x6004,0xFFFF
10.612775583333333,0,0x4E4E,0x0000
10.612789375000000,0,0x6004,0xFFFF
10.612802916666666,0,0x4F4F,0x0000
10.612816499999999,0,0x2005,0xFFFF
10.612829791666666,0,0xA0A0,0xFFFF
10.612843041666666,0,0x2006,0xFFFF
10.612856333333333,0,0x0000,0xFFFF
10.612869416666667,0,0x2007,0xFFFF
10.612882624999999,0,0x5050,0xFFFF
10.612895833333333,0,0x2008,0xFFFF
10.612909125000000,0,0x8E8E,0xFFFF
10.612922333333334,0,0x2009,0xFFFF
10.612935458333334,0,0x2222,0xFFFF
10.612948583333333,0,0x200A,0xFFFF
10.612961625000001,0,0x4F4F,0xFFFF
10.612974791666666,0,0x6004,0xFFFF
10.612988291666667,0,0x5050,0x0000
10.613001958333333,0,0x6004,0xFFFF
10.613015375000000,0,0x5151,0x0000
10.613028999999999,0,0x2005,0xFFFF
10.613042208333333,0,0xA0A0,0xFFFF
10.613055333333334,0,0x2006,0xFFFF
10.613068458333334,0,0x0000,0xFFFF
10.613081625000000,0,0x2007,0xFFFF
10.613094875000000,0,0x3030,0xFFFF
10.613108166666667,0,0x2008,0xFFFF
10.613121291666667,0,0x2C2C,0xFFFF
10.613134416666666,0,0x2009,0xFFFF
10.613147500000000,0,0x8F8F,0xFFFF
10.613160583333332,0,0x200A,0xFFFF
10.613173874999999,0,0x4F4F,0xFFFF
10.613187083333333,0,0x6004,0xFFFF
10.613200541666666,0,0x5252,0x0000
10.613214125000001,0,0x6004,0xFFFF
10.613227541666667,0,0x5353,0x0000
10.613241041666667,0,0x2005,0xFFFF
10.613254291666667,0,0xA0A0,0xFFFF
10.613267499999999,0,0x2006,0xFFFF
10.613280625000000,0,0x0000,0xFFFF
10.613293833333334,0,0x2007,0xFFFF
10.613306833333333,0,0x5050,0xFFFF
10.613320041666666,0,0x2008,0xFFFF
10.613333291666667,0,0x8E8E,0xFFFF
10.613346541666667,0,0x2009,0xFFFF
10.613359666666666,0,0x2222,0xFFFF
10.613372750000000,0,0x200A,0xFFFF
10.613385833333334,0,0x4F4F,0xFFFF
10.613399041666666,0,0x6004,0xFFFF
10.613412583333334,0,0x5454,0x0000
10.613426166666667,0,0x6004,0xFFFF
10.613446666666666,0,0x5555,0x0000
10.613460791666666,0,0x2005,0xFFFF
10.613474208333333,0,0xA0A0,0xFFFF
10.613487500000000,0,0x2006,0xFFFF
10.613500666666667,0,0x0000,0xFFFF
10.613513833333334,0,0x2007,0xFFFF
10.613526916666666,0,0x3030,0xFFFF
10.613540083333334,0,0x2008,0xFFFF
10.613553291666667,0,0x0C0C,0xFFFF
10.613566625000001,0,0x2009,0xFFFF
10.613579874999999,0,0x9191,0xFFFF
10.613593166666666,0,0x200A,0xFFFF
10.613606458333333,0,0x4F4F,0xFFFF
10.613619708333333,0,0x6004,0xFFFF
10.613633333333333,0,0x5656,0x0000
10.613646916666667,0,0x6004,0xFFFF
10.613660541666667,0,0x5757,0x0000
10.613674083333333,0,0x2005,0xFFFF
10.613687333333333,0,0xA0A0,0xFFFF
10.613700625000000,0,0x2006,0xFFFF
10.613713791666667,0,0x0000,0xFFFF
10.613726874999999,0,0x2007,0xFFFF
10.613740000000000,0,0x5050,0xFFFF
10.613753041666667,0,0x2008,0xFFFF
10.613766333333333,0,0x8E8E,0xFFFF
10.613779541666666,0,0x2009,0xFFFF
10.613792750000000,0,0x2222,0xFFFF
10.613805958333334,0,0x200A,0xFFFF
10.613819083333333,0,0x4F4F,0xFFFF
10.613832166666667,0,0x6004,0xFFFF
10.613845625000000,0,0x5858,0x0000
10.613859208333333,0,0x6004,0xFFFF
10.613872708333334,0,0x5959,0x0000
10.613886250000000,0,0x2005,0xFFFF
10.613899375000001,0,0xA0A0,0xFFFF
10.613912541666666,0,0x2006,0xFFFF
10.613925750000000,0,0x0000,0xFFFF
10.613938875000001,0,0x2007,0xFFFF
10.613951916666666,0,0x3030,0xFFFF
10.613965125000000,0,0x2008,0xFFFF
10.613978625000000,0,0x6C6C,0xFFFF
10.613993166666667,0,0x2009,0xFFFF
10.614007000000001,0,0x9393,0xFFFF
10.614020375000001,0,0x200A,0xFFFF
10.614033583333333,0,0x4F4F,0xFFFF
10.614046791666667,0,0x6004,0xFFFF
10.614060374999999,0,0x5A5A,0x0000
10.614073875000001,0,0x6004,0xFFFF
10.614087500000000,0,0x5B5B,0x0000
10.614100958333333,0,0x2005,0xFFFF
10.614114125000000,0,0xA0A0,0xFFFF
10.614127458333334,0,0x2006,0xFFFF
10.614140750000001,0,0x0000,0xFFFF
10.614153916666666,0,0x2007,0xFFFF
10.614167083333333,0,0x5050,0xFFFF
10.614180458333333,0,0x2008,0xFFFF
10.614193625000000,0,0x8E8E,0xFFFF
10.614206791666666,0,0x2009,0xFFFF
10.614219958333333,0,0x2222,0xFFFF
10.614233208333333,0,0x200A,0xFFFF
10.614246333333334,0,0x4F4F,0xFFFF
10.614259541666666,0,0x6004,0xFFFF
10.614273041666667,0,0x5C5C,0x0000
10.614286666666667,0,0x6004,0xFFFF
10.614300166666666,0,0x5D5D,0x0000
10.614313750000001,0,0x2005,0xFFFF
10.614326916666666,0,0xA0A0,0xFFFF
10.614340041666667,0,0x2006,0xFFFF
10.614353041666666,0,0x0000,0xFFFF
10.614366125000000,0,0x2007,0xFFFF
10.614379250000001,0,0x3030,0xFFFF
10.614392375000000,0,0x2008,0xFFFF
10.614405833333333,0,0xECEC,0xFFFF
10.614431375000001,0,0x2009,0xFFFF
10.614445208333333,0,0x9393,0xFFFF
10.614472458333333,0,0x200A,0xFFFF
10.614486166666667,0,0x4F4F,0xFFFF
10.614499583333334,0,0x6004,0xFFFF
10.614513166666667,0,0x5E5E,0x0000
10.614526666666666,0,0x6004,0xFFFF
10.614540208333333,0,0x5F5F,0x0000
10.614553708333334,0,0x2005,0xFFFF
10.614566833333333,0,0xA0A0,0xFFFF
10.614580083333333,0,0x2006,0xFFFF
10.614593749999999,0,0x0000,0xFFFF
10.614618583333334,0,0x2007,0xFFFF
10.614632333333333,0,0x5050,0xFFFF
10.614656958333333,0,0x2008,0xFFFF
10.614670750000000,0,0x8E8E,0xFFFF
10.614695416666667,0,0x2009,0xFFFF
10.614708916666666,0,0x2222,0xFFFF
10.614722291666666,0,0x200A,0xFFFF
10.614735500000000,0,0x4F4F,0xFFFF
10.614748750000000,0,0x6004,0xFFFF
10.614762375000000,0,0x6060,0x0000
10.614776041666667,0,0x6004,0xFFFF
10.614789625000000,0,0x6161,0x0000
10.614803041666667,0,0x2005,0xFFFF
10.614816250000001,0,0xA0A0,0xFFFF
10.614829458333332,0,0x2006,0xFFFF
10.614842666666666,0,0x0000,0xFFFF
10.614855833333333,0,0x2007,0xFFFF
10.614869041666667,0,0x3030,0xFFFF
10.614882041666666,0,0x2008,0xFFFF
10.614895333333333,0,0x4C4C,0xFFFF
10.614908458333334,0,0x2009,0xFFFF
10.614921708333334,0,0x9494,0xFFFF
10.614934916666666,0,0x200A,0xFFFF
10.614948041666667,0,0x4F4F,0xFFFF
10.614961208333334,0,0x6004,0xFFFF
10.614974791666667,0,0x6262,0x0000
10.614988500000001,0,0x6004,0xFFFF
10.615002000000000,0,0x6363,0x0000
10.615015541666667,0,0x2005,0xFFFF
10.615028708333334,0,0xA0A0,0xFFFF
10.615042041666667,0,0x2006,0xFFFF
10.615055166666666,0,0x0000,0xFFFF
10.615068250000000,0,0x2007,0xFFFF
10.615081500000001,0,0x5050,0xFFFF
10.615094708333332,0,0x2008,0xFFFF
10.615107875000000,0,0x8E8E,0xFFFF
10.615121166666666,0,0x2009,0xFFFF
10.615134250000001,0,0x2222,0xFFFF
10.615147374999999,0,0x200A,0xFFFF
10.615160375000000,0,0x4F4F,0xFFFF
10.615173583333334,0,0x6004,0xFFFF
10.615187125000000,0,0x6464,0x0000
10.615200791666666,0,0x6004,0xFFFF
10.615214291666666,0,0x6565,0x0000
10.615227875000000,0,0x2005,0xFFFF
10.615241125000001,0,0xA0A0,0xFFFF
10.615254250000000,0,0x2006,0xFFFF
10.615267500000000,0,0x0000,0xFFFF
10.615280666666667,0,0x2007,0xFFFF
10.615293749999999,0,0x3030,0xFFFF
10.615307000000000,0,0x2008,0xFFFF
10.615320125000000,0,0xCCCC,0xFFFF
10.615333333333334,0,0x2009,0xFFFF
10.615346541666666,0,0x9494,0xFFFF
10.615360166666667,0,0x200A,0xFFFF
10.615385125000000,0,0x4F4F,0xFFFF
10.615398875000000,0,0x6004,0xFFFF
10.615412458333333,0,0x6666,0x0000
10.615426083333332,0,0x6004,0xFFFF
10.615439750000000,0,0x6767,0x0000
10.615453333333333,0,0x2005,0xFFFF
10.615466583333333,0,0xA0A0,0xFFFF
10.615479875000000,0,0x2006,0xFFFF
10.615493083333334,0,0x0000,0xFFFF
10.615506291666666,0,0x2007,0xFFFF
10.615519375000000,0,0x5050,0xFFFF
10.615532541666667,0,0x2008,0xFFFF
10.615545666666666,0,0x8E8E,0xFFFF
10.615558791666666,0,0x2009,0xFFFF
10.615571916666667,0,0x2222,0xFFFF
10.615585166666667,0,0x200A,0xFFFF
10.615598333333333,0,0x4F4F,0xFFFF
10.615611500000000,0,0x6004,0xFFFF
10.615625000000000,0,0x6868,0x0000
10.615638583333334,0,0x6004,0xFFFF
10.615652083333334,0,0x6969,0x0000
10.615665625000000,0,0x2005,0xFFFF
10.615678708333334,0,0xA0A0,0xFFFF
10.615691916666666,0,0x2006,0xFFFF
10.615705125000000,0,0x0000,0xFFFF
10.615718416666667,0,0x2007,0xFFFF
10.615731583333334,0,0x3030,0xFFFF
10.615744708333333,0,0x2008,0xFFFF
10.615757875000000,0,0x2C2C,0xFFFF
10.615771083333334,0,0x2009,0xFFFF
10.615784250000001,0,0x9595,0xFFFF
10.615797458333333,0,0x200A,0xFFFF
10.615810583333333,0,0x4F4F,0xFFFF
10.615823875000000,0,0x6004,0xFFFF
10.615837333333333,0,0x6A6A,0x0000
10.615850999999999,0,0x6004,0xFFFF
10.615864583333334,0,0x6B6B,0x0000
10.615878166666667,0,0x2005,0xFFFF
10.615891375000000,0,0xA0A0,0xFFFF
10.615904499999999,0,0x2006,0xFFFF
10.615917791666666,0,0x0000,0xFFFF
10.615931000000000,0,0x2007,0xFFFF
10.615944208333334,0,0x5050,0xFFFF
10.615957333333334,0,0x2008,0xFFFF
10.615970458333333,0,0x8E8E,0xFFFF
10.615983666666667,0,0x2009,0xFFFF
10.615996791666667,0,0x2222,0xFFFF
10.616009958333333,0,0x200A,0xFFFF
10.616023166666666,0,0x4F4F,0xFFFF
10.616036416666667,0,0x6004,0xFFFF
10.616049875000000,0,0x6C6C,0x0000
10.616063416666666,0,0x6004,0xFFFF
10.616076958333334,0,0x6D6D,0x0000
10.616090458333334,0,0x2005,0xFFFF
10.616103583333333,0,0xA0A0,0xFFFF
10.616116791666666,0,0x2006,0xFFFF
10.616129875000000,0,0x0000,0xFFFF
10.616143125000001,0,0x2007,0xFFFF
10.616156416666668,0,0x3030,0xFFFF
10.616181083333334,0,0x2008,0xFFFF
10.616194625000000,0,0x6C6C,0xFFFF
10.616208000000000,0,0x2009,0xFFFF
10.616221250000001,0,0xAFAF,0xFFFF
10.616234583333334,0,0x200A,0xFFFF
10.616248250000000,0,0x4F4F,0xFFFF
10.616272833333333,0,0x6004,0xFFFF
10.616286750000000,0,0x6E6E,0x0000
10.616300499999999,0,0x6004,0xFFFF
10.616314083333334,0,0x6F6F,0x0000
10.616327625000000,0,0x2005,0xFFFF
10.616340875000001,0,0xA0A0,0xFFFF
10.616354041666666,0,0x2006,0xFFFF
10.616367291666666,0,0x0000,0xFFFF
10.616380458333333,0,0x2007,0xFFFF
10.616393625000001,0,0x5050,0xFFFF
10.616406874999999,0,0x2008,0xFFFF
10.616420041666666,0,0x8E8E,0xFFFF
10.616433208333333,0,0x2009,0xFFFF
10.616446375000001,0,0x2222,0xFFFF
10.616459624999999,0,0x200A,0xFFFF
10.616472833333333,0,0x4F4F,0xFFFF
10.616486083333333,0,0x6004,0xFFFF
10.616499666666666,0,0x7070,0x0000
10.616513375000000,0,0x6004,0xFFFF
10.616527000000000,0,0x7171,0x0000
10.616540541666666,0,0x2005,0xFFFF
10.616553666666666,0,0xA0A0,0xFFFF
10.616566875000000,0,0x2006,0xFFFF
10.616580083333334,0,0x0000,0xFFFF
10.616593291666666,0,0x2007,0xFFFF
10.616606458333333,0,0x3030,0xFFFF
10.616619625000000,0,0x2008,0xFFFF
10.616632666666666,0,0x2C2C,0xFFFF
10.616645791666667,0,0x2009,0xFFFF
10.616659041666667,0,0xB0B0,0xFFFF
10.616672208333334,0,0x200A,0xFFFF
10.616685625000001,0,0x4F4F,0xFFFF
10.616710375000000,0,0x6004,0xFFFF
10.616724250000001,0,0x7272,0x0000
10.616737958333333,0,0x6004,0xFFFF
10.616751583333333,0,0x7373,0x0000
10.616765083333334,0,0x2005,0xFFFF
10.616778541666667,0,0xA0A0,0xFFFF
10.616803083333334,0,0x2006,0xFFFF
10.616816708333333,0,0x0000,0xFFFF
10.616829958333334,0,0x2007,0xFFFF
10.616843166666667,0,0x0000,0xFFFF
10.616856374999999,0,0x2008,0xFFFF
10.616869583333333,0,0x2E2E,0xFFFF
10.616882833333333,0,0x2009,0xFFFF
10.616896000000001,0,0x0000,0xFFFF
10.616909250000001,0,0x200A,0xFFFF
10.616922541666666,0,0x4F4F,0xFFFF
10.616935708333333,0,0x6004,0xFFFF
10.616949249999999,0,0x7474,0x0000
10.616962750000001,0,0x6004,0xFFFF
10.616976291666667,0,0x7575,0x0000
10.616989791666667,0,0x2005,0xFFFF
10.617002875000001,0,0xA0A0,0xFFFF
10.617016000000000,0,0x2006,0xFFFF
10.617029208333333,0,0x0000,0xFFFF
10.617042416666667,0,0x2007,0xFFFF
10.617055666666667,0,0x0000,0xFFFF
10.617068916666666,0,0x2008,0xFFFF
10.617082125000000,0,0x0C0C,0xFFFF
10.617095458333333,0,0x2009,0xFFFF
10.617108625000000,0,0x7878,0xFFFF
10.617122208333333,0,0x200A,0xFFFF
10.617136708333334,0,0x4F4F,0xFFFF
10.617150625000001,0,0x6004,0xFFFF
10.617164375000000,0,0x7676,0x0000
10.617177916666666,0,0x6004,0xFFFF
10.617191416666667,0,0x7777,0x0000
10.617204875000001,0,0x2005,0xFFFF
10.617218166666667,0,0xA0A0,0xFFFF
10.617231333333333,0,0x2006,0xFFFF
10.617244541666667,0,0x0000,0xFFFF
10.617257791666667,0,0x2007,0xFFFF
10.617270916666667,0,0x8080,0xFFFF
10.617284166666666,0,0x2008,0xFFFF
10.617297375000000,0,0x6666,0xFFFF
10.617310625000000,0,0x2009,0xFFFF
10.617323833333334,0,0x6E6E,0xFFFF
10.617336999999999,0,0x200A,0xFFFF
10.617350083333333,0,0x4F4F,0xFFFF
10.617363333333333,0,0x6004,0xFFFF
10.617376791666667,0,0x7878,0x0000
10.617390333333333,0,0x6004,0xFFFF
10.617403875000001,0,0x7979,0x0000
10.617417375000000,0,0x2005,0xFFFF
10.617430499999999,0,0xA0A0,0xFFFF
10.617449291666667,0,0x2006,0xFFFF
10.617462916666666,0,0x0000,0xFFFF
10.617476249999999,0,0x2007,0xFFFF
10.617489500000000,0,0x5050,0xFFFF
10.617502791666666,0,0x2008,0xFFFF
10.617516250000000,0,0x8E8E,0xFFFF
10.617541083333334,0,0x2009,0xFFFF
10.617554666666667,0,0x2222,0xFFFF
10.617568041666667,0,0x200A,0xFFFF
10.617581166666668,0,0x4F4F,0xFFFF
10.617594416666666,0,0x6004,0xFFFF
10.617608000000001,0,0x7A7A,0x0000
10.617621750000000,0,0x6004,0xFFFF
10.617635333333334,0,0x7B7B,0x0000
10.617648916666667,0,0x2005,0xFFFF
10.617662125000001,0,0xA0A0,0xFFFF
10.617675333333333,0,0x2006,0xFFFF
10.617688541666666,0,0x0000,0xFFFF
10.617701750000000,0,0x2007,0xFFFF
10.617715000000000,0,0x0000,0xFFFF
10.617728208333334,0,0x2008,0xFFFF
10.617741458333333,0,0xECEC,0xFFFF
10.617754750000000,0,0x2009,0xFFFF
10.617767875000000,0,0x7777,0xFFFF
10.617781041666667,0,0x200A,0xFFFF
10.617794041666667,0,0x4F4F,0xFFFF
10.617807208333334,0,0x6004,0xFFFF
10.617820791666666,0,0x7C7C,0x0000
10.617834333333333,0,0x6004,0xFFFF
10.617847875000001,0,0x7D7D,0x0000
10.617861416666667,0,0x2005,0xFFFF
10.617874833333333,0,0xA0A0,0xFFFF
10.617888166666667,0,0x2006,0xFFFF
10.617901375000001,0,0x0000,0xFFFF
10.617914583333333,0,0x2007,0xFFFF
10.617927750000000,0,0x5050,0xFFFF
10.617940958333334,0,0x2008,0xFFFF
10.617954125000001,0,0x4646,0xFFFF
10.617967374999999,0,0x2009,0xFFFF
10.617980500000000,0,0x8888,0xFFFF
10.617994124999999,0,0x200A,0xFFFF
10.618019125000000,0,0x4F4F,0xFFFF
10.618032833333332,0,0x6004,0xFFFF
10.618046541666667,0,0x7E7E,0x0000
10.618060125000000,0,0x6004,0xFFFF
10.618073750000001,0,0x7F7F,0x0000
10.618087208333334,0,0x2005,0xFFFF
10.618100374999999,0,0xA0A0,0xFFFF
10.618113583333333,0,0x2006,0xFFFF
10.618127083333333,0,0x0000,0xFFFF
10.618141166666666,0,0x2007,0xFFFF
10.618154833333334,0,0x2020,0xFFFF
10.618179416666667,0,0x2008,0xFFFF
10.618192958333333,0,0x1A1A,0xFFFF
10.618206333333333,0,0x2009,0xFFFF
10.618219583333333,0,0x6464,0xFFFF
10.618232958333333,0,0x200A,0xFFFF
10.618246291666667,0,0x4F4F,0xFFFF
10.618259583333334,0,0x6004,0xFFFF
10.618273166666667,0,0x8080,0x0000
10.618286833333332,0,0x6004,0xFFFF
10.618300375000000,0,0x8181,0x0000
10.618314000000000,0,0x2005,0xFFFF
10.618327208333334,0,0xA0A0,0xFFFF
10.618340458333334,0,0x2006,0xFFFF
10.618353708333334,0,0x0000,0xFFFF
10.618366791666666,0,0x2007,0xFFFF
10.618380000000000,0,0x5050,0xFFFF
10.618393083333334,0,0x2008,0xFFFF
10.618406250000000,0,0xC7C7,0xFFFF
10.618419500000000,0,0x2009,0xFFFF
10.618432666666667,0,0x8383,0xFFFF
10.618446041666667,0,0x200A,0xFFFF
10.618459166666666,0,0x4F4F,0xFFFF
10.618472375000000,0,0x6004,0xFFFF
10.618485916666666,0,0x8282,0x0000
10.618499458333334,0,0x6004,0xFFFF
10.618512833333334,0,0x8383,0x0000
10.618526291666667,0,0x2005,0xFFFF
10.618539583333334,0,0xA0A0,0xFFFF
10.618552875000001,0,0x2006,0xFFFF
10.618566083333333,0,0x0000,0xFFFF
10.618579208333333,0,0x2007,0xFFFF
10.618592333333334,0,0x5050,0xFFFF
10.618605458333333,0,0x2008,0xFFFF
10.618618708333333,0,0xEEEE,0xFFFF
10.618631875000000,0,0x2009,0xFFFF
10.618644916666666,0,0x2222,0xFFFF
10.618658166666666,0,0x200A,0xFFFF
10.618671291666667,0,0x4F4F,0xFFFF
10.618684541666667,0,0x6004,0xFFFF
10.618698083333333,0,0x8484,0x0000
10.618711625000000,0,0x6004,0xFFFF
10.618725083333333,0,0x8585,0x0000
10.618738499999999,0,0x2005,0xFFFF
10.618751583333333,0,0xA0A0,0xFFFF
10.618764750000000,0,0x2006,0xFFFF
10.618778000000001,0,0x0000,0xFFFF
10.618791333333334,0,0x2007,0xFFFF
10.618804541666666,0,0x3030,0xFFFF
10.618817750000000,0,0x2008,0xFFFF
10.618830916666667,0,0xACAC,0xFFFF
10.618844166666667,0,0x2009,0xFFFF
10.618857333333333,0,0x8686,0xFFFF
10.618870500000000,0,0x200A,0xFFFF
10.618884041666666,0,0x4F4F,0xFFFF
10.618908749999999,0,0x6004,0xFFFF
10.618922666666666,0,0x8686,0x0000
10.618936291666667,0,0x6004,0xFFFF
10.618949791666667,0,0x8787,0x0000
10.618963416666666,0,0x2005,0xFFFF
10.618976583333334,0,0xA0A0,0xFFFF
10.618989791666667,0,0x2006,0xFFFF
10.619003041666666,0,0x0000,0xFFFF
10.619016208333333,0,0x2007,0xFFFF
10.619029375000000,0,0x2020,0xFFFF
10.619042500000001,0,0x2008,0xFFFF
10.619055666666666,0,0xDADA,0xFFFF
10.619068833333333,0,0x2009,0xFFFF
10.619082000000001,0,0x5656,0xFFFF
10.619095333333334,0,0x200A,0xFFFF
10.619108541666666,0,0x4F4F,0xFFFF
10.619121791666666,0,0x6004,0xFFFF
10.619135416666667,0,0x8888,0x0000
10.619149041666667,0,0x6004,0xFFFF
10.619162625000000,0,0x8989,0x0000
10.619176291666667,0,0x2005,0xFFFF
10.619189499999999,0,0xA0A0,0xFFFF
10.619202708333333,0,0x2006,0xFFFF
10.619215791666667,0,0x0000,0xFFFF
10.619229083333334,0,0x2007,0xFFFF
10.619242333333334,0,0x5050,0xFFFF
10.619255375000000,0,0x2008,0xFFFF
10.619268375000001,0,0xC7C7,0xFFFF
10.619281500000000,0,0x2009,0xFFFF
10.619294666666667,0,0x8383,0xFFFF
10.619307791666667,0,0x200A,0xFFFF
10.619320875000000,0,0x4F4F,0xFFFF
10.619334125000000,0,0x6004,0xFFFF
10.619347666666666,0,0x8A8A,0x0000
10.619361291666667,0,0x6004,0xFFFF
10.619374833333334,0,0x8B8B,0x0000
10.619388499999999,0,0x2005,0xFFFF
10.619401750000000,0,0xA0A0,0xFFFF
10.619414875000000,0,0x2006,0xFFFF
10.619428041666668,0,0x0000,0xFFFF
10.619441208333333,0,0x2007,0xFFFF
10.619454416666667,0,0x0000,0xFFFF
10.619467625000000,0,0x2008,0xFFFF
10.619480708333333,0,0xEEEE,0xFFFF
10.619493833333333,0,0x2009,0xFFFF
10.619507083333334,0,0x2222,0xFFFF
10.619520333333334,0,0x200A,0xFFFF
10.619533499999999,0,0x4F4F,0xFFFF
10.619546750000000,0,0x6004,0xFFFF
10.619560249999999,0,0x8C8C,0x0000
10.619573875000000,0,0x6004,0xFFFF
10.619587375000000,0,0x8D8D,0x0000
10.619600999999999,0,0x2005,0xFFFF
10.619614166666667,0,0xA0A0,0xFFFF
10.619627375000000,0,0x2006,0xFFFF
10.619640541666667,0,0x0000,0xFFFF
10.619653666666666,0,0x2007,0xFFFF
10.619666833333333,0,0x3030,0xFFFF
10.619679958333334,0,0x2008,0xFFFF
10.619693125000000,0,0xECEC,0xFFFF
10.619706416666666,0,0x2009,0xFFFF
10.619719541666667,0,0x8585,0xFFFF
10.619733208333333,0,0x200A,0xFFFF
10.619757916666666,0,0x4F4F,0xFFFF
10.619771625000000,0,0x6004,0xFFFF
10.619785250000000,0,0x8E8E,0x0000
10.619798875000001,0,0x6004,0xFFFF
10.619812500000000,0,0x8F8F,0x0000
10.619826041666666,0,0x2005,0xFFFF
10.619839583333333,0,0xA0A0,0xFFFF
10.619864333333334,0,0x2006,0xFFFF
10.619877833333334,0,0x0000,0xFFFF
10.619891083333334,0,0x2007,0xFFFF
10.619904249999999,0,0x5050,0xFFFF
10.619917541666666,0,0x2008,0xFFFF
10.619930708333333,0,0x6060,0xFFFF
10.619943875000001,0,0x2009,0xFFFF
10.619956999999999,0,0xBBBB,0xFFFF
10.619970125000000,0,0x200A,0xFFFF
10.619983250000001,0,0x4F4F,0xFFFF
10.619996458333333,0,0x6004,0xFFFF
10.620009958333334,0,0x9090,0x0000
10.620023541666667,0,0x6004,0xFFFF
10.620037249999999,0,0x9191,0x0000
10.620050750000001,0,0x2005,0xFFFF
10.620063958333333,0,0xA0A0,0xFFFF
10.620077166666666,0,0x2006,0xFFFF
10.620090458333333,0,0x0000,0xFFFF
10.620103666666667,0,0x2007,0xFFFF
10.620116791666666,0,0x2020,0xFFFF
10.620130041666666,0,0x2008,0xFFFF
10.620143250000000,0,0xFAFA,0xFFFF
10.620156375000001,0,0x2009,0xFFFF
10.620169541666666,0,0x5656,0xFFFF
10.620182791666666,0,0x200A,0xFFFF
10.620195916666667,0,0x4F4F,0xFFFF
10.620209041666667,0,0x6004,0xFFFF
10.620222583333334,0,0x9292,0x0000
10.620236166666666,0,0x6004,0xFFFF
10.620249666666666,0,0x9393,0x0000
10.620263208333334,0,0x2005,0xFFFF
10.620276333333333,0,0xA0A0,0xFFFF
10.620289874999999,0,0x2006,0xFFFF
10.620304083333334,0,0x0000,0xFFFF
10.620317500000001,0,0x2007,0xFFFF
10.620330750000001,0,0x5050,0xFFFF
10.620343916666666,0,0x2008,0xFFFF
10.620357125000000,0,0x7B7B,0xFFFF
10.620370333333334,0,0x2009,0xFFFF
10.620383541666667,0,0x6363,0xFFFF
10.620396708333333,0,0x200A,0xFFFF
10.620409916666667,0,0x4F4F,0xFFFF
10.620423125000000,0,0x6004,0xFFFF
10.620436750000000,0,0x9494,0x0000
10.620450249999999,0,0x6004,0xFFFF
10.620463833333334,0,0x9595,0x0000
10.620477333333334,0,0x2005,0xFFFF
10.620490500000001,0,0xA0A0,0xFFFF
10.620503708333333,0,0x2006,0xFFFF
10.620516875000000,0,0x0000,0xFFFF
10.620530125000000,0,0x2007,0xFFFF
10.620543250000001,0,0x1010,0xFFFF
10.620556458333333,0,0x2008,0xFFFF
10.620569666666666,0,0xEEEE,0xFFFF
10.620582916666667,0,0x2009,0xFFFF
10.620596041666667,0,0x2222,0xFFFF
10.620609249999999,0,0x200A,0xFFFF
10.620622833333334,0,0x4F4F,0xFFFF
10.620647708333333,0,0x6004,0xFFFF
10.620661625000000,0,0x9696,0x0000
10.620675125000000,0,0x6004,0xFFFF
10.620688708333333,0,0x9797,0x0000
10.620702291666667,0,0x2005,0xFFFF
10.620715416666666,0,0xA0A0,0xFFFF
10.620728666666666,0,0x2006,0xFFFF
10.620742125000000,0,0x0000,0xFFFF
10.620766750000000,0,0x2007,0xFFFF
10.620780416666667,0,0x3030,0xFFFF
10.620805166666667,0,0x2008,0xFFFF
10.620818625000000,0,0xACAC,0xFFFF
10.620831916666667,0,0x2009,0xFFFF
10.620845041666668,0,0x8686,0xFFFF
10.620858166666666,0,0x200A,0xFFFF
10.620871333333334,0,0x4F4F,0xFFFF
10.620884374999999,0,0x6004,0xFFFF
10.620897916666667,0,0x9898,0x0000
10.620911458333333,0,0x6004,0xFFFF
10.620925000000000,0,0x9999,0x0000
10.620938416666666,0,0x2005,0xFFFF
10.620951541666667,0,0xA0A0,0xFFFF
10.620964791666667,0,0x2006,0xFFFF
10.620977999999999,0,0x0000,0xFFFF
10.620991125000000,0,0x2007,0xFFFF
10.621004291666667,0,0x5050,0xFFFF
10.621017500000001,0,0x2008,0xFFFF
10.621031250000000,0,0x6060,0xFFFF
10.621044291666667,0,0x2009,0xFFFF
10.621057458333333,0,0xBBBB,0xFFFF
10.621070625000000,0,0x200A,0xFFFF
10.621083791666667,0,0x4F4F,0xFFFF
10.621097000000001,0,0x6004,0xFFFF
10.621110500000000,0,0x9A9A,0x0000
10.621124083333333,0,0x6004,0xFFFF
10.621137708333332,0,0x9B9B,0x0000
10.621151208333334,0,0x2005,0xFFFF
10.621164333333333,0,0xA0A0,0xFFFF
10.621177583333333,0,0x2006,0xFFFF
10.621190833333333,0,0x0000,0xFFFF
10.621203958333334,0,0x2007,0xFFFF
10.621217124999999,0,0x5050,0xFFFF
10.621230333333333,0,0x2008,0xFFFF
10.621243416666667,0,0xC6C6,0xFFFF
10.621256541666666,0,0x2009,0xFFFF
10.621270000000001,0,0x8383,0xFFFF
10.621294541666666,0,0x200A,0xFFFF
10.621308083333334,0,0x4F4F,0xFFFF
10.621321416666667,0,0x6004,0xFFFF
10.621335041666667,0,0x9C9C,0x0000
10.621348666666666,0,0x6004,0xFFFF
10.621362166666668,0,0x9D9D,0x0000
10.621375791666667,0,0x2005,0xFFFF
10.621389083333334,0,0xA0A0,0xFFFF
10.621402249999999,0,0x2006,0xFFFF
10.621415291666667,0,0x0000,0xFFFF
10.621428500000000,0,0x2007,0xFFFF
10.621447291666666,0,0x5050,0xFFFF
10.621465083333334,0,0x2008,0xFFFF
10.621479791666667,0,0x8686,0xFFFF
10.621494041666667,0,0x2009,0xFFFF
10.621508250000000,0,0xB5B5,0xFFFF
10.621523000000000,0,0x200A,0xFFFF
10.621538333333334,0,0x4F4F,0xFFFF
10.621554458333334,0,0x6004,0xFFFF
10.621569458333333,0,0x9E9E,0x0000
10.621584208333333,0,0x6004,0xFFFF
10.621598916666667,0,0x9F9F,0x0000
10.621613750000000,0,0x2005,0xFFFF
10.621627875000000,0,0xA0A0,0xFFFF
10.621642166666666,0,0x2006,0xFFFF
10.621656291666667,0,0x0000,0xFFFF
10.621670541666667,0,0x2007,0xFFFF
10.621684791666667,0,0x2020,0xFFFF
10.621699083333333,0,0x2008,0xFFFF
10.621713291666667,0,0x2828,0xFFFF
10.621727666666667,0,0x2009,0xFFFF
10.621741875000000,0,0x1D1D,0xFFFF
10.621756250000001,0,0x200A,0xFFFF
10.621770458333334,0,0x4F4F,0xFFFF
10.621784833333333,0,0x6004,0xFFFF
10.621799416666667,0,0xA0A0,0x0000
10.621814083333334,0,0x6004,0xFFFF
10.621828666666667,0,0xA1A1,0x0000
10.621843333333333,0,0x2005,0xFFFF
10.621857625000001,0,0xA0A0,0xFFFF
10.621871791666667,0,0x2006,0xFFFF
10.621886208333333,0,0x0000,0xFFFF
10.621900416666668,0,0x2007,0xFFFF
10.621914708333334,0,0x5050,0xFFFF
10.621929000000000,0,0x2008,0xFFFF
10.621943166666666,0,0x8E8E,0xFFFF
10.621957416666667,0,0x2009,0xFFFF
10.621971500000001,0,0x2222,0xFFFF
10.621985791666667,0,0x200A,0xFFFF
10.622000000000000,0,0x4F4F,0xFFFF
10.622014291666666,0,0x6004,0xFFFF
10.622028875000000,0,0xA2A2,0x0000
10.622043375000001,0,0x6004,0xFFFF
10.622058000000001,0,0xA3A3,0x0000
10.622072541666666,0,0x2005,0xFFFF
10.622086791666666,0,0xA0A0,0xFFFF
10.622101041666667,0,0x2006,0xFFFF
10.622115250000000,0,0x0000,0xFFFF
10.622129541666666,0,0x2007,0xFFFF
10.622143625000000,0,0x1010,0xFFFF
10.622157833333333,0,0x2008,0xFFFF
10.622171916666666,0,0xECEC,0xFFFF
10.622186083333334,0,0x2009,0xFFFF
10.622200208333334,0,0xF4F4,0xFFFF
10.622214458333334,0,0x200A,0xFFFF
10.622228583333333,0,0x4F4F,0xFFFF
10.622242833333333,0,0x6004,0xFFFF
10.622257375000000,0,0xA4A4,0x0000
10.622271958333334,0,0x6004,0xFFFF
10.622286416666666,0,0xA5A5,0x0000
10.622300791666667,0,0x2005,0xFFFF
10.622315000000000,0,0xA0A0,0xFFFF
10.622329083333334,0,0x2006,0xFFFF
10.622343291666667,0,0x0000,0xFFFF
10.622357458333333,0,0x2007,0xFFFF
10.622371625000000,0,0x5050,0xFFFF
10.622385749999999,0,0x2008,0xFFFF
10.622399833333333,0,0xA0A0,0xFFFF
10.622414041666667,0,0x2009,0xFFFF
10.622428250000000,0,0x6F6F,0xFFFF
10.622442375000000,0,0x200A,0xFFFF
10.622456625000000,0,0x4F4F,0xFFFF
10.622470708333333,0,0x6004,0xFFFF
10.622485291666667,0,0xA6A6,0x0000
10.622499749999999,0,0x6004,0xFFFF
10.622514333333333,0,0xA7A7,0x0000
10.622528916666667,0,0x2005,0xFFFF
10.622543083333333,0,0xA0A0,0xFFFF
10.622557333333333,0,0x2006,0xFFFF
10.622571541666666,0,0x0000,0xFFFF
10.622585750000001,0,0x2007,0xFFFF
10.622599791666667,0,0x5050,0xFFFF
10.622613875000001,0,0x2008,0xFFFF
10.622627916666668,0,0x4646,0xFFFF
10.622642041666667,0,0x2009,0xFFFF
10.622656166666667,0,0x8888,0xFFFF
10.622670500000000,0,0x200A,0xFFFF
10.622684583333333,0,0x4F4F,0xFFFF
10.622698750000000,0,0x6004,0xFFFF
10.622729458333334,0,0xA8A8,0x0000
10.622757583333334,0,0x6004,0xFFFF
10.622772749999999,0,0xA9A9,0x0000
10.622787208333333,0,0x2005,0xFFFF
10.622801166666667,0,0xA0A0,0xFFFF
10.622815083333334,0,0x2006,0xFFFF
10.622828958333333,0,0x0000,0xFFFF
10.622842833333333,0,0x2007,0xFFFF
10.622856791666667,0,0x2020,0xFFFF
10.622870708333334,0,0x2008,0xFFFF
10.622884666666666,0,0x9A9A,0xFFFF
10.622898624999999,0,0x2009,0xFFFF
10.622912375000000,0,0x6F6F,0xFFFF
10.622926333333334,0,0x200A,0xFFFF
10.622940208333333,0,0x4F4F,0xFFFF
10.622954166666666,0,0x6004,0xFFFF
10.622968541666667,0,0xAAAA,0x0000
10.622994416666666,0,0x6004,0xFFFF
10.623009000000000,0,0xABAB,0x0000
10.623034625000001,0,0x2005,0xFFFF
10.623048875000000,0,0xA0A0,0xFFFF
10.623062916666667,0,0x2006,0xFFFF
10.623076749999999,0,0x0000,0xFFFF
10.623090625000000,0,0x2007,0xFFFF
10.623104333333334,0,0x5050,0xFFFF
10.623118083333333,0,0x2008,0xFFFF
10.623131875000000,0,0xA7A7,0xFFFF
10.623145791666667,0,0x2009,0xFFFF
10.623159749999999,0,0x6F6F,0xFFFF
10.623173708333333,0,0x200A,0xFFFF
10.623187541666667,0,0x4F4F,0xFFFF
10.623201375000001,0,0x6004,0xFFFF
10.623215625000000,0,0xACAC,0x0000
10.623230000000000,0,0x6004,0xFFFF
10.623244208333332,0,0xADAD,0x0000
10.623258583333334,0,0x2005,0xFFFF
10.623272458333334,0,0xA0A0,0xFFFF
10.623286333333333,0,0x2006,0xFFFF
10.623300083333334,0,0x0000,0xFFFF
10.623313833333333,0,0x2007,0xFFFF
10.623327541666667,0,0x5050,0xFFFF
10.623341333333334,0,0x2008,0xFFFF
10.623354958333334,0,0xEEEE,0xFFFF
10.623368833333334,0,0x2009,0xFFFF
10.623382708333333,0,0x2222,0xFFFF
10.623412374999999,0,0x200A,0xFFFF
10.623438625000000,0,0x4F4F,0xFFFF
10.623453041666666,0,0x6004,0xFFFF
10.623467416666667,0,0xAEAE,0x0000
10.623481958333333,0,0x6004,0xFFFF
10.623496125000001,0,0xAFAF,0x0000
10.623510333333334,0,0x2005,0xFFFF
10.623524124999999,0,0xA0A0,0xFFFF
10.623538083333333,0,0x2006,0xFFFF
10.623551875000000,0,0x0000,0xFFFF
10.623565708333333,0,0x2007,0xFFFF
10.623579541666667,0,0x3030,0xFFFF
10.623605458333333,0,0x2008,0xFFFF
10.623619625000000,0,0x0C0C,0xFFFF
10.623633583333334,0,0x2009,0xFFFF
10.623647458333334,0,0x8989,0xFFFF
10.623661583333334,0,0x200A,0xFFFF
10.623675374999999,0,0x4F4F,0xFFFF
10.623689250000000,0,0x6004,0xFFFF
10.623703458333333,0,0xB0B0,0x0000
10.623717791666667,0,0x6004,0xFFFF
10.623732083333334,0,0xB1B1,0x0000
10.623746250000000,0,0x2005,0xFFFF
10.623760125000000,0,0xA0A0,0xFFFF
10.623773999999999,0,0x2006,0xFFFF
10.623787916666666,0,0x0000,0xFFFF
10.623801791666667,0,0x2007,0xFFFF
10.623815625000001,0,0x2020,0xFFFF
10.623829458333333,0,0x2008,0xFFFF
10.623843333333333,0,0x0000,0xFFFF
10.623857083333334,0,0x2009,0xFFFF
10.623870916666666,0,0x8080,0xFFFF
10.623884750000000,0,0x200A,0xFFFF
10.623898625000001,0,0x4F4F,0xFFFF
10.623912625000001,0,0x6004,0xFFFF
10.623926958333334,0,0xB2B2,0x0000
10.623952791666667,0,0x6004,0xFFFF
10.623967208333333,0,0xB3B3,0x0000
10.623992958333334,0,0x2005,0xFFFF
10.624007125000000,0,0xA0A0,0xFFFF
10.624021041666667,0,0x2006,0xFFFF
10.624034791666666,0,0x0000,0xFFFF
10.624048750000000,0,0x2007,0xFFFF
10.624062416666666,0,0x0000,0xFFFF
10.624076291666666,0,0x2008,0xFFFF
10.624090083333334,0,0x4E4E,0xFFFF
10.624103958333333,0,0x2009,0xFFFF
10.624117791666666,0,0x2323,0xFFFF
10.624131583333334,0,0x200A,0xFFFF
10.624145333333333,0,0x4F4F,0xFFFF
10.624159166666667,0,0x6004,0xFFFF
10.624173375000000,0,0xB4B4,0x0000
10.624199000000001,0,0x6004,0xFFFF
10.624213458333333,0,0xB5B5,0x0000
10.624227875000001,0,0x2005,0xFFFF
10.624241749999999,0,0xA0A0,0xFFFF
10.624255541666667,0,0x2006,0xFFFF
10.624269458333334,0,0x0000,0xFFFF
10.624283166666666,0,0x2007,0xFFFF
10.624297041666667,0,0x3030,0xFFFF
10.624310958333334,0,0x2008,0xFFFF
10.624324750000000,0,0xACAC,0xFFFF
10.624338541666667,0,0x2009,0xFFFF
10.624352458333334,0,0x8888,0xFFFF
10.624366208333333,0,0x200A,0xFFFF
10.624380208333333,0,0x4F4F,0xFFFF
10.624394041666667,0,0x6004,0xFFFF
10.624408250000000,0,0xB6B6,0x0000
10.624422458333333,0,0x6004,0xFFFF
10.624436749999999,0,0xB7B7,0x0000
10.624451083333334,0,0x2005,0xFFFF
10.624464833333333,0,0xA0A0,0xFFFF
10.624478708333333,0,0x2006,0xFFFF
10.624492500000001,0,0x0000,0xFFFF
10.624506250000000,0,0x2007,0xFFFF
10.624520125000000,0,0x4040,0xFFFF
10.624534083333334,0,0x2008,0xFFFF
10.624547833333333,0,0x0000,0xFFFF
10.624561666666667,0,0x2009,0xFFFF
10.624575458333334,0,0x8080,0xFFFF
10.624589333333333,0,0x200A,0xFFFF
10.624603208333333,0,0x4F4F,0xFFFF
10.624617166666667,0,0x6004,0xFFFF
10.624631291666667,0,0xB8B8,0x0000
10.624645541666666,0,0x6004,0xFFFF
10.624659625000000,0,0xB9B9,0x0000
10.624685416666667,0,0x2005,0xFFFF
10.624699458333334,0,0xA0A0,0xFFFF
10.624713541666667,0,0x2006,0xFFFF
10.624727375000001,0,0x0000,0xFFFF
10.624741291666666,0,0x2007,0xFFFF
10.624755208333333,0,0x5050,0xFFFF
10.624769125000000,0,0x2008,0xFFFF
10.624782958333334,0,0x8E8E,0xFFFF
10.624796750000000,0,0x2009,0xFFFF
10.624810583333334,0,0x2222,0xFFFF
10.624824374999999,0,0x200A,0xFFFF
10.624838291666666,0,0x4F4F,0xFFFF
10.624852333333333,0,0x6004,0xFFFF
10.624866541666666,0,0xBABA,0x0000
10.624880708333333,0,0x6004,0xFFFF
10.624895041666667,0,0xBBBB,0x0000
10.624909458333333,0,0x2005,0xFFFF
10.624923333333333,0,0xA0A0,0xFFFF
10.624937333333333,0,0x2006,0xFFFF
10.624951250000001,0,0x0000,0xFFFF
10.624964916666666,0,0x2007,0xFFFF
10.624978708333334,0,0x3030,0xFFFF
10.624992666666667,0,0x2008,0xFFFF
10.625006375000000,0,0xECEC,0xFFFF
10.625020250000000,0,0x2009,0xFFFF
10.625034166666667,0,0x8888,0xFFFF
10.625048000000000,0,0x200A,0xFFFF
10.625061750000000,0,0x4F4F,0xFFFF
10.625075541666666,0,0x6004,0xFFFF
10.625089791666667,0,0xBCBC,0x0000
10.625104166666667,0,0x6004,0xFFFF
10.625118333333333,0,0xBDBD,0x0000
10.625132625000001,0,0x2005,0xFFFF
10.625146583333333,0,0xA0A0,0xFFFF
10.625160541666666,0,0x2006,0xFFFF
10.625174375000000,0,0x0000,0xFFFF
10.625188291666667,0,0x2007,0xFFFF
10.625202000000000,0,0x2020,0xFFFF
10.625215833333334,0,0x2008,0xFFFF
10.625229500000000,0,0x0000,0xFFFF
10.625243416666667,0,0x2009,0xFFFF
10.625257333333334,0,0x8080,0xFFFF
10.625271333333334,0,0x200A,0xFFFF
10.625285333333334,0,0x4F4F,0xFFFF
10.625299166666666,0,0x6004,0xFFFF
10.625313458333334,0,0xBEBE,0x0000
10.625327708333334,0,0x6004,0xFFFF
10.625341916666667,0,0xBFBF,0x0000
10.625356208333333,0,0x2005,0xFFFF
10.625370041666667,0,0xA0A0,0xFFFF
10.625383833333334,0,0x2006,0xFFFF
10.625397666666666,0,0x0000,0xFFFF
10.625411583333333,0,0x2007,0xFFFF
10.625425416666667,0,0x0000,0xFFFF
10.625439333333333,0,0x2008,0xFFFF
10.625460583333334,0,0x0101,0xFFFF
10.625475750000000,0,0x2009,0xFFFF
10.625490375000000,0,0x8080,0xFFFF
10.625504875000001,0,0x200A,0xFFFF
10.625519000000001,0,0x4F4F,0xFFFF
10.625544666666666,0,0x6004,0xFFFF
10.625558833333333,0,0xC0C0,0x0000
10.625572666666667,0,0x6004,0xFFFF
10.625586416666666,0,0xC1C1,0x0000
10.625600125000000,0,0x2005,0xFFFF
10.625613500000000,0,0xA0A0,0xFFFF
10.625626791666667,0,0x2006,0xFFFF
10.625640041666667,0,0x0000,0xFFFF
10.625653375000001,0,0x2007,0xFFFF
10.625666624999999,0,0x5050,0xFFFF
10.625679874999999,0,0x2008,0xFFFF
10.625693166666666,0,0x0000,0xFFFF
10.625706458333333,0,0x2009,0xFFFF
10.625719708333333,0,0xA4A4,0xFFFF
10.625732958333334,0,0x200A,0xFFFF
10.625746250000001,0,0x4F4F,0xFFFF
10.625759541666667,0,0x6004,0xFFFF
10.625773125000000,0,0xC2C2,0x0000
10.625786833333333,0,0x6004,0xFFFF
10.625800458333334,0,0xC3C3,0x0000
10.625814083333333,0,0x2005,0xFFFF
10.625827291666667,0,0xA0A0,0xFFFF
10.625840625000000,0,0x2006,0xFFFF
10.625853833333334,0,0x0000,0xFFFF
10.625867000000000,0,0x2007,0xFFFF
10.625880166666667,0,0x5050,0xFFFF
10.625893416666667,0,0x2008,0xFFFF
10.625906708333334,0,0xC6C6,0xFFFF
10.625919916666666,0,0x2009,0xFFFF
10.625933125000000,0,0x6A6A,0xFFFF
10.625946291666667,0,0x200A,0xFFFF
10.625959541666667,0,0x4F4F,0xFFFF
10.625972833333334,0,0x6004,0xFFFF
10.625986500000000,0,0xC4C4,0x0000
10.626000166666667,0,0x6004,0xFFFF
10.626013708333334,0,0xC5C5,0x0000
10.626027333333333,0,0x2005,0xFFFF
10.626040625000000,0,0xA0A0,0xFFFF
10.626053875000000,0,0x2006,0xFFFF
10.626067083333334,0,0x0000,0xFFFF
10.626080333333332,0,0x2007,0xFFFF
10.626093624999999,0,0x5050,0xFFFF
10.626106916666666,0,0x2008,0xFFFF
10.626120166666666,0,0x8E8E,0xFFFF
10.626133291666667,0,0x2009,0xFFFF
10.626146583333334,0,0x2222,0xFFFF
10.626160083333334,0,0x200A,0xFFFF
10.626185208333334,0,0x4F4F,0xFFFF
10.626198875000000,0,0x6004,0xFFFF
10.626212666666667,0,0xC6C6,0x0000
10.626226375000000,0,0x6004,0xFFFF
10.626239916666666,0,0xC7C7,0x0000
10.626253541666667,0,0x2005,0xFFFF
10.626266791666668,0,0xA0A0,0xFFFF
10.626279958333333,0,0x2006,0xFFFF
10.626293208333333,0,0x0000,0xFFFF
10.626306500000000,0,0x2007,0xFFFF
10.626319791666667,0,0x2020,0xFFFF
10.626332916666666,0,0x2008,0xFFFF
10.626346041666666,0,0x0C0C,0xFFFF
10.626359333333333,0,0x2009,0xFFFF
10.626372625000000,0,0x1818,0xFFFF
10.626385833333334,0,0x200A,0xFFFF
10.626399041666666,0,0x4F4F,0xFFFF
10.626412291666666,0,0x6004,0xFFFF
10.626425958333334,0,0xC8C8,0x0000
10.626439458333333,0,0x6004,0xFFFF
10.626453041666666,0,0xC9C9,0x0000
10.626466708333334,0,0x2005,0xFFFF
10.626479874999999,0,0xA0A0,0xFFFF
10.626493125000000,0,0x2006,0xFFFF
10.626506250000000,0,0x0000,0xFFFF
10.626519458333334,0,0x2007,0xFFFF
10.626532708333333,0,0x5050,0xFFFF
10.626545958333333,0,0x2008,0xFFFF
10.626559208333333,0,0xE6E6,0xFFFF
10.626572625000000,0,0x2009,0xFFFF
10.626585958333333,0,0x8888,0xFFFF
10.626599208333333,0,0x200A,0xFFFF
10.626612500000000,0,0x4F4F,0xFFFF
10.626625791666667,0,0x6004,0xFFFF
10.626639416666666,0,0xCACA,0x0000
10.626652958333333,0,0x6004,0xFFFF
10.626666500000001,0,0xCBCB,0x0000
10.626680083333333,0,0x2005,0xFFFF
10.626693458333333,0,0xA0A0,0xFFFF
10.626706708333334,0,0x2006,0xFFFF
10.626720000000001,0,0x0000,0xFFFF
10.626733208333333,0,0x2007,0xFFFF
10.626746333333333,0,0x2020,0xFFFF
10.626759583333333,0,0x2008,0xFFFF
10.626772916666667,0,0x0000,0xFFFF
10.626786125000001,0,0x2009,0xFFFF
10.626799208333333,0,0x8080,0xFFFF
10.626812416666667,0,0x200A,0xFFFF
10.626825708333334,0,0x4F4F,0xFFFF
10.626839000000000,0,0x6004,0xFFFF
10.626852666666666,0,0xCCCC,0x0000
10.626866291666667,0,0x6004,0xFFFF
10.626879958333333,0,0xCDCD,0x0000
10.626893624999999,0,0x2005,0xFFFF
10.626906958333333,0,0xA0A0,0xFFFF
10.626920208333333,0,0x2006,0xFFFF
10.626933375000000,0,0x0000,0xFFFF
10.626946625000000,0,0x2007,0xFFFF
10.626959875000001,0,0x0000,0xFFFF
10.626973124999999,0,0x2008,0xFFFF
10.626986250000000,0,0x0E0E,0xFFFF
10.626999416666667,0,0x2009,0xFFFF
10.627012499999999,0,0x2323,0xFFFF
10.627025750000000,0,0x200A,0xFFFF
10.627039083333333,0,0x4F4F,0xFFFF
10.627052333333333,0,0x6004,0xFFFF
10.627065833333333,0,0xCECE,0x0000
10.627079958333333,0,0x6004,0xFFFF
10.627093416666666,0,0xCFCF,0x0000
10.627107166666667,0,0x2005,0xFFFF
10.627120333333334,0,0xA0A0,0xFFFF
10.627133666666667,0,0x2006,0xFFFF
10.627146874999999,0,0x0000,0xFFFF
10.627160125000000,0,0x2007,0xFFFF
10.627173208333334,0,0x3030,0xFFFF
10.627186458333334,0,0x2008,0xFFFF
10.627199708333332,0,0x2C2C,0xFFFF
10.627212999999999,0,0x2009,0xFFFF
10.627226250000000,0,0x8A8A,0xFFFF
10.627239375000000,0,0x200A,0xFFFF
10.627252500000001,0,0x4F4F,0xFFFF
10.627265875000001,0,0x6004,0xFFFF
10.627279458333334,0,0xD0D0,0x0000
10.627293083333333,0,0x6004,0xFFFF
10.627306541666666,0,0xD1D1,0x0000
10.627320083333334,0,0x2005,0xFFFF
10.627333291666666,0,0xA0A0,0xFFFF
10.627346416666667,0,0x2006,0xFFFF
10.627359458333334,0,0x0000,0xFFFF
10.627372625000000,0,0x2007,0xFFFF
10.627385833333333,0,0x5050,0xFFFF
10.627399083333334,0,0x2008,0xFFFF
10.627412291666667,0,0x8E8E,0xFFFF
10.627425458333333,0,0x2009,0xFFFF
10.627438500000000,0,0x2222,0xFFFF
10.627451750000001,0,0x200A,0xFFFF
10.627465125000001,0,0x4F4F,0xFFFF
10.627478333333332,0,0x6004,0xFFFF
10.627492083333333,0,0xD2D2,0x0000
10.627505666666666,0,0x6004,0xFFFF
10.627519291666667,0,0xD3D3,0x0000
10.627533166666666,0,0x2005,0xFFFF
10.627546333333333,0,0xA0A0,0xFFFF
10.627559583333333,0,0x2006,0xFFFF
10.627572750000001,0,0x0000,0xFFFF
10.627585958333333,0,0x2007,0xFFFF
10.627599166666666,0,0x2020,0xFFFF
10.627612333333333,0,0x2008,0xFFFF
10.627625500000001,0,0xCCCC,0xFFFF
10.627638791666667,0,0x2009,0xFFFF
10.627651999999999,0,0x2E2E,0xFFFF
10.627665250000000,0,0x200A,0xFFFF
10.627678375000000,0,0x4F4F,0xFFFF
10.627691666666667,0,0x6004,0xFFFF
10.627705166666667,0,0xD4D4,0x0000
10.627718750000000,0,0x6004,0xFFFF
10.627732375000001,0,0xD5D5,0x0000
10.627746000000000,0,0x2005,0xFFFF
10.627759291666667,0,0xA0A0,0xFFFF
10.627772541666667,0,0x2006,0xFFFF
10.627785791666666,0,0x0000,0xFFFF
10.627799041666666,0,0x2007,0xFFFF
10.627812250000000,0,0x5050,0xFFFF
10.627825416666667,0,0x2008,0xFFFF
10.627838499999999,0,0xA0A0,0xFFFF
10.627851666666666,0,0x2009,0xFFFF
10.627864833333334,0,0xA9A9,0xFFFF
10.627878208333334,0,0x200A,0xFFFF
10.627891416666667,0,0x4F4F,0xFFFF
10.627904624999999,0,0x6004,0xFFFF
10.627918125000001,0,0xD6D6,0x0000
10.627931750000000,0,0x6004,0xFFFF
10.627945333333333,0,0xD7D7,0x0000
10.627959000000001,0,0x2005,0xFFFF
10.627972083333333,0,0xA0A0,0xFFFF
10.627985375000000,0,0x2006,0xFFFF
10.627998583333333,0,0x0000,0xFFFF
10.628011750000001,0,0x2007,0xFFFF
10.628024916666666,0,0x5050,0xFFFF
10.628038041666667,0,0x2008,0xFFFF
10.628051375000000,0,0x8E8E,0xFFFF
10.628064500000001,0,0x2009,0xFFFF
10.628077625000000,0,0x2222,0xFFFF
10.628090833333333,0,0x200A,0xFFFF
10.628104083333334,0,0x4F4F,0xFFFF
10.628117375000000,0,0x6004,0xFFFF
10.628131000000000,0,0xD8D8,0x0000
10.628144624999999,0,0x6004,0xFFFF
10.628158375000000,0,0xD9D9,0x0000
10.628171958333333,0,0x2005,0xFFFF
10.628185125000000,0,0xA0A0,0xFFFF
10.628198375000000,0,0x2006,0xFFFF
10.628211708333334,0,0x0000,0xFFFF
10.628224916666667,0,0x2007,0xFFFF
10.628238124999999,0,0x2020,0xFFFF
10.628251375000000,0,0x2008,0xFFFF
10.628264625000000,0,0xECEC,0xFFFF
10.628277750000001,0,0x2009,0xFFFF
10.628290958333332,0,0xD1D1,0xFFFF
10.628304125000000,0,0x200A,0xFFFF
10.628317375000000,0,0x4F4F,0xFFFF
10.628330625000000,0,0x6004,0xFFFF
10.628344291666666,0,0xDADA,0x0000
10.628357958333334,0,0x6004,0xFFFF
10.628371541666667,0,0xDBDB,0x0000
10.628385041666666,0,0x2005,0xFFFF
10.628398166666667,0,0xA0A0,0xFFFF
10.628411625000000,0,0x2006,0xFFFF
10.628424833333334,0,0x0000,0xFFFF
10.628438166666667,0,0x2007,0xFFFF
10.628451458333334,0,0x5050,0xFFFF
10.628464708333333,0,0x2008,0xFFFF
10.628477916666666,0,0xC6C6,0xFFFF
10.628491166666667,0,0x2009,0xFFFF
10.628504416666667,0,0x2929,0xFFFF
10.628517583333334,0,0x200A,0xFFFF
10.628530791666666,0,0x4F4F,0xFFFF
10.628544083333333,0,0x6004,0xFFFF
10.628557666666667,0,0xDCDC,0x0000
10.628571458333333,0,0x6004,0xFFFF
10.628584916666666,0,0xDDDD,0x0000
10.628598541666667,0,0x2005,0xFFFF
10.628611833333334,0,0xA0A0,0xFFFF
10.628625124999999,0,0x2006,0xFFFF
10.628638291666666,0,0x0000,0xFFFF
10.628651541666667,0,0x2007,0xFFFF
10.628664875000000,0,0x5050,0xFFFF
10.628678083333334,0,0x2008,0xFFFF
10.628691208333333,0,0xA4A4,0xFFFF
10.628704416666666,0,0x2009,0xFFFF
10.628717625000000,0,0x2929,0xFFFF
10.628730875000000,0,0x200A,0xFFFF
10.628744125000001,0,0x4F4F,0xFFFF
10.628757541666667,0,0x6004,0xFFFF
10.628771041666667,0,0xDEDE,0x0000
10.628784583333333,0,0x6004,0xFFFF
10.628798124999999,0,0xDFDF,0x0000
10.628811750000001,0,0x2005,0xFFFF
10.628824916666666,0,0xA0A0,0xFFFF
10.628838249999999,0,0x2006,0xFFFF
10.628851458333333,0,0x0000,0xFFFF
10.628864708333333,0,0x2007,0xFFFF
10.628877875000001,0,0x5050,0xFFFF
10.628891083333333,0,0x2008,0xFFFF
10.628904291666666,0,0x8E8E,0xFFFF
10.628917458333333,0,0x2009,0xFFFF
10.628930625000001,0,0x2222,0xFFFF
10.628943749999999,0,0x200A,0xFFFF
10.628956875000000,0,0x4F4F,0xFFFF
10.628970000000001,0,0x6004,0xFFFF
10.628983541666667,0,0xE0E0,0x0000
10.628997000000000,0,0x6004,0xFFFF
10.629010624999999,0,0xE1E1,0x0000
10.629024166666667,0,0x2005,0xFFFF
10.629037374999999,0,0xA0A0,0xFFFF
10.629050625000000,0,0x2006,0xFFFF
10.629063875000000,0,0x0000,0xFFFF
10.629077041666667,0,0x2007,0xFFFF
10.629090166666666,0,0x0000,0xFFFF
10.629103416666666,0,0x2008,0xFFFF
10.629116666666667,0,0x4C4C,0xFFFF
10.629129833333334,0,0x2009,0xFFFF
10.629142958333333,0,0xEBEB,0xFFFF
10.629156166666666,0,0x200A,0xFFFF
10.629169333333333,0,0x4F4F,0xFFFF
10.629182583333334,0,0x6004,0xFFFF
10.629196125000000,0,0xE2E2,0x0000
10.629209791666666,0,0x6004,0xFFFF
10.629223291666667,0,0xE3E3,0x0000
10.629236833333334,0,0x2005,0xFFFF
10.629250041666667,0,0xA0A0,0xFFFF
10.629263208333333,0,0x2006,0xFFFF
10.629276250000000,0,0x0000,0xFFFF
10.629289541666667,0,0x2007,0xFFFF
10.629302708333332,0,0x3030,0xFFFF
10.629315916666666,0,0x2008,0xFFFF
10.629329125000000,0,0x0000,0xFFFF
10.629342250000001,0,0x2009,0xFFFF
10.629355500000001,0,0x8080,0xFFFF
10.629368791666666,0,0x200A,0xFFFF
10.629382000000000,0,0x4F4F,0xFFFF
10.629395166666667,0,0x6004,0xFFFF
10.629408708333333,0,0xE4E4,0x0000
10.629422333333334,0,0x6004,0xFFFF
10.629435875000000,0,0xE5E5,0x0000
10.629449500000000,0,0x2005,0xFFFF
10.629472625000000,0,0xA0A0,0xFFFF
10.629487416666667,0,0x2006,0xFFFF
10.629501875000001,0,0x0000,0xFFFF
10.629516083333334,0,0x2007,0xFFFF
10.629530416666666,0,0x5050,0xFFFF
10.629544833333334,0,0x2008,0xFFFF
10.629559083333334,0,0x4E4E,0xFFFF
10.629573208333333,0,0x2009,0xFFFF
10.629587541666666,0,0x2323,0xFFFF
10.629601958333334,0,0x200A,0xFFFF
10.629616250000000,0,0x4F4F,0xFFFF
10.629630583333334,0,0x6004,0xFFFF
10.629645291666666,0,0xE6E6,0x0000
10.629660041666666,0,0x6004,0xFFFF
10.629674874999999,0,0xE7E7,0x0000
10.629689333333333,0,0x2005,0xFFFF
10.629703708333333,0,0xA0A0,0xFFFF
10.629718000000000,0,0x2006,0xFFFF
10.629732250000000,0,0x0000,0xFFFF
10.629746416666666,0,0x2007,0xFFFF
10.629760500000000,0,0x3030,0xFFFF
10.629774875000001,0,0x2008,0xFFFF
10.629789041666667,0,0x8C8C,0xFFFF
10.629803166666667,0,0x2009,0xFFFF
10.629817416666667,0,0x8B8B,0xFFFF
10.629831583333333,0,0x200A,0xFFFF
10.629845708333333,0,0x4F4F,0xFFFF
10.629859916666666,0,0x6004,0xFFFF
10.629874500000000,0,0xE8E8,0x0000
10.629889000000000,0,0x6004,0xFFFF
10.629903583333334,0,0xE9E9,0x0000
10.629918249999999,0,0x2005,0xFFFF
10.629932416666668,0,0xA0A0,0xFFFF
10.629946666666667,0,0x2006,0xFFFF
10.629960875000000,0,0x0000,0xFFFF
10.629975041666667,0,0x2007,0xFFFF
10.629989208333333,0,0x5050,0xFFFF
10.630003374999999,0,0x2008,0xFFFF
10.630017458333333,0,0xC0C0,0xFFFF
10.630031583333333,0,0x2009,0xFFFF
10.630045958333334,0,0x3030,0xFFFF
10.630060125000000,0,0x200A,0xFFFF
10.630074291666666,0,0x4F4F,0xFFFF
10.630088375000000,0,0x6004,0xFFFF
10.630102958333334,0,0xEAEA,0x0000
10.630117458333334,0,0x6004,0xFFFF
10.630132124999999,0,0xEBEB,0x0000
10.630146833333333,0,0x2005,0xFFFF
10.630161083333334,0,0xA0A0,0xFFFF
10.630175166666668,0,0x2006,0xFFFF
10.630189250000001,0,0x0000,0xFFFF
10.630203249999999,0,0x2007,0xFFFF
10.630217416666667,0,0x5050,0xFFFF
10.630231583333334,0,0x2008,0xFFFF
10.630245625000001,0,0xEEEE,0xFFFF
10.630259791666667,0,0x2009,0xFFFF
10.630274000000000,0,0xA2A2,0xFFFF
10.630288125000000,0,0x200A,0xFFFF
10.630302291666666,0,0x4F4F,0xFFFF
10.630316583333334,0,0x6004,0xFFFF
10.630331166666666,0,0xECEC,0x0000
10.630345791666667,0,0x6004,0xFFFF
10.630360250000001,0,0xEDED,0x0000
10.630374750000000,0,0x2005,0xFFFF
10.630388916666666,0,0xA0A0,0xFFFF
10.630403166666667,0,0x2006,0xFFFF
10.630417375000000,0,0x0000,0xFFFF
10.630431541666667,0,0x2007,0xFFFF
10.630445708333333,0,0x3030,0xFFFF
10.630459916666666,0,0x2008,0xFFFF
10.630474083333333,0,0x4C4C,0xFFFF
10.630488291666667,0,0x2009,0xFFFF
10.630502375000001,0,0x8C8C,0xFFFF
10.630516666666667,0,0x200A,0xFFFF
10.630530791666667,0,0x4F4F,0xFFFF
10.630545166666666,0,0x6004,0xFFFF
10.630559625000000,0,0xEEEE,0x0000
10.630574208333334,0,0x6004,0xFFFF
10.630588749999999,0,0xEFEF,0x0000
10.630603375000000,0,0x2005,0xFFFF
10.630617624999999,0,0xA0A0,0xFFFF
10.630631916666667,0,0x2006,0xFFFF
10.630646208333333,0,0x0000,0xFFFF
10.630660458333333,0,0x2007,0xFFFF
10.630674541666666,0,0x5050,0xFFFF
10.630688666666666,0,0x2008,0xFFFF
10.630702875000001,0,0x6666,0xFFFF
10.630717083333334,0,0x2009,0xFFFF
10.630731333333333,0,0x6969,0xFFFF
10.630745500000000,0,0x200A,0xFFFF
10.630759749999999,0,0x4F4F,0xFFFF
10.630773916666667,0,0x6004,0xFFFF
10.630788458333333,0,0xF0F0,0x0000
10.630803125000000,0,0x6004,0xFFFF
10.630817583333334,0,0xF1F1,0x0000
10.630832375000001,0,0x2005,0xFFFF
10.630846583333334,0,0xA0A0,0xFFFF
10.630860750000000,0,0x2006,0xFFFF
10.630875000000000,0,0x0000,0xFFFF
10.630889208333333,0,0x2007,0xFFFF
10.630903333333332,0,0x5050,0xFFFF
10.630917500000001,0,0x2008,0xFFFF
10.630931541666667,0,0x2424,0xFFFF
10.630945708333334,0,0x2009,0xFFFF
10.630959791666667,0,0x3030,0xFFFF
10.630973958333334,0,0x200A,0xFFFF
10.630988041666667,0,0x4F4F,0xFFFF
10.631002291666666,0,0x6004,0xFFFF
10.631016875000000,0,0xF2F2,0x0000
10.631031416666668,0,0x6004,0xFFFF
10.631045916666666,0,0xF3F3,0x0000
10.631060541666667,0,0x2005,0xFFFF
10.631074833333333,0,0xA0A0,0xFFFF
10.631089041666666,0,0x2006,0xFFFF
10.631103166666668,0,0x0000,0xFFFF
10.631117208333333,0,0x2007,0xFFFF
10.631131416666667,0,0x5050,0xFFFF
10.631145625000000,0,0x2008,0xFFFF
10.631159625000000,0,0x6666,0xFFFF
10.631173750000000,0,0x2009,0xFFFF
10.631187958333333,0,0x2121,0xFFFF
10.631202000000000,0,0x200A,0xFFFF
10.631216041666667,0,0x4F4F,0xFFFF
10.631230250000000,0,0x6004,0xFFFF
10.631244666666667,0,0xF4F4,0x0000
10.631259416666667,0,0x6004,0xFFFF
10.631273916666666,0,0xF5F5,0x0000
10.631288500000000,0,0x2005,0xFFFF
10.631302625000000,0,0xA0A0,0xFFFF
10.631316791666666,0,0x2006,0xFFFF
10.631330833333333,0,0x0000,0xFFFF
10.631344875000000,0,0x2007,0xFFFF
10.631359000000000,0,0x5050,0xFFFF
10.631373249999999,0,0x2008,0xFFFF
10.631387416666668,0,0x8484,0xFFFF
10.631401625000001,0,0x2009,0xFFFF
10.631415583333334,0,0x3030,0xFFFF
10.631429750000001,0,0x200A,0xFFFF
10.631443833333334,0,0x4F4F,0xFFFF
10.631458208333333,0,0x6004,0xFFFF
10.631472666666667,0,0xF6F6,0x0000
10.631487333333334,0,0x6004,0xFFFF
10.631501833333333,0,0xF7F7,0x0000
10.631516416666667,0,0x2005,0xFFFF
10.631530625000000,0,0xA0A0,0xFFFF
10.631544874999999,0,0x2006,0xFFFF
10.631559083333334,0,0x0000,0xFFFF
10.631573416666667,0,0x2007,0xFFFF
10.631587666666666,0,0x5050,0xFFFF
10.631601750000000,0,0x2008,0xFFFF
10.631615916666666,0,0xA6A6,0xFFFF
10.631630166666667,0,0x2009,0xFFFF
10.631644208333332,0,0x2929,0xFFFF
10.631658625000000,0,0x200A,0xFFFF
10.631672875000000,0,0x4F4F,0xFFFF
10.631686916666666,0,0x6004,0xFFFF
10.631701416666667,0,0xF8F8,0x0000
10.631716000000001,0,0x6004,0xFFFF
10.631730624999999,0,0xF9F9,0x0000
10.631745125000000,0,0x2005,0xFFFF
10.631759333333333,0,0xA0A0,0xFFFF
10.631773458333333,0,0x2006,0xFFFF
10.631787666666666,0,0x0000,0xFFFF
10.631801833333334,0,0x2007,0xFFFF
10.631816041666667,0,0x2020,0xFFFF
10.631830375000000,0,0x2008,0xFFFF
10.631844541666666,0,0x0606,0xFFFF
10.631858749999999,0,0x2009,0xFFFF
10.631872916666667,0,0x4040,0xFFFF
10.631887125000000,0,0x200A,0xFFFF
10.631901250000000,0,0x4F4F,0xFFFF
10.631915749999999,0,0x6004,0xFFFF
10.631930333333333,0,0xFAFA,0x0000
10.631945000000000,0,0x6004,0xFFFF
10.631959625000000,0,0xFBFB,0x0000
10.631974250000001,0,0x2005,0xFFFF
10.631988416666667,0,0xA0A0,0xFFFF
10.632002583333334,0,0x2006,0xFFFF
10.632016750000000,0,0x0000,0xFFFF
10.632030875000000,0,0x2007,0xFFFF
10.632045083333333,0,0x3030,0xFFFF
10.632059291666666,0,0x2008,0xFFFF
10.632073500000001,0,0x0000,0xFFFF
10.632087750000000,0,0x2009,0xFFFF
10.632101833333333,0,0x8080,0xFFFF
10.632115875000000,0,0x200A,0xFFFF
10.632130083333333,0,0x4F4F,0xFFFF
10.632144291666666,0,0x6004,0xFFFF
10.632158958333333,0,0xFCFC,0x0000
10.632173625000000,0,0x6004,0xFFFF
10.632188083333334,0,0xFDFD,0x0000
10.632202749999999,0,0x2005,0xFFFF
10.632216874999999,0,0xA0A0,0xFFFF
10.632231041666667,0,0x2006,0xFFFF
10.632245166666667,0,0x0000,0xFFFF
10.632259333333334,0,0x2007,0xFFFF
10.632273458333334,0,0x5050,0xFFFF
10.632287666666667,0,0x2008,0xFFFF
10.632301916666666,0,0x4E4E,0xFFFF
10.632316041666666,0,0x2009,0xFFFF
10.632330166666666,0,0x2323,0xFFFF
10.632344249999999,0,0x200A,0xFFFF
10.632358291666666,0,0x4F4F,0xFFFF
10.632372458333334,0,0x6004,0xFFFF
10.632387124999999,0,0xFEFE,0x0000
10.632401958333332,0,0x6004,0xFFFF
10.632416666666666,0,0xFFFF,0x0000
10.632431250000000,0,0x2005,0xFFFF
10.632445458333333,0,0xA0A0,0xFFFF
10.632459666666668,0,0x2006,0xFFFF
10.632473833333334,0,0x0000,0xFFFF
10.632488041666667,0,0x2007,0xFFFF
10.632502166666667,0,0x3030,0xFFFF
10.632516333333333,0,0x2008,0xFFFF
10.632530541666666,0,0x0C0C,0xFFFF
10.632544749999999,0,0x2009,0xFFFF
10.632558958333334,0,0x8D8D,0xFFFF
10.632572958333334,0,0x200A,0xFFFF
10.632586958333333,0,0x4F4F,0xFFFF
10.632601208333334,0,0x6004,0xFFFF
10.632615916666667,0,0x0000,0x0000
10.632630541666666,0,0x6004,0xFFFF
10.632645125000000,0,0x0101,0x0000
10.632659708333334,0,0x2005,0xFFFF
10.632673916666667,0,0xA0A0,0xFFFF
10.632688083333333,0,0x2006,0xFFFF
10.632702083333333,0,0x0000,0xFFFF
10.632716250000000,0,0x2007,0xFFFF
10.632730375000000,0,0x5050,0xFFFF
10.632744375000000,0,0x2008,0xFFFF
10.632758416666666,0,0xA0A0,0xFFFF
10.632772666666666,0,0x2009,0xFFFF
10.632786749999999,0,0x2929,0xFFFF
10.632814874999999,0,0x200A,0xFFFF
10.632842125000000,0,0x4F4F,0xFFFF
10.632856916666666,0,0x6004,0xFFFF
10.632871375000001,0,0x0202,0x0000
10.632885750000000,0,0x6004,0xFFFF
10.632900041666666,0,0x0303,0x0000
10.632914375000000,0,0x2005,0xFFFF
10.632928208333333,0,0xA0A0,0xFFFF
10.632942125000000,0,0x2006,0xFFFF
10.632955958333334,0,0x0000,0xFFFF
10.632969791666667,0,0x2007,0xFFFF
10.632983541666666,0,0x5050,0xFFFF
10.632997250000001,0,0x2008,0xFFFF
10.633011124999999,0,0xEEEE,0xFFFF
10.633025125000000,0,0x2009,0xFFFF
10.633039000000000,0,0xA2A2,0xFFFF
10.633052916666667,0,0x200A,0xFFFF
10.633066625000000,0,0x4F4F,0xFFFF
10.633080416666667,0,0x6004,0xFFFF
10.633094583333333,0,0x0404,0x0000
10.633108999999999,0,0x6004,0xFFFF
10.633123250000001,0,0x0505,0x0000
10.633137500000000,0,0x2005,0xFFFF
10.633151333333334,0,0xA0A0,0xFFFF
10.633165333333332,0,0x2006,0xFFFF
10.633179125000000,0,0x0000,0xFFFF
10.633193166666667,0,0x2007,0xFFFF
10.633207041666667,0,0x0000,0xFFFF
10.633221000000001,0,0x2008,0xFFFF
10.633234625000000,0,0x6C6C,0xFFFF
10.633248541666667,0,0x2009,0xFFFF
10.633262500000001,0,0xD8D8,0xFFFF
10.633276291666666,0,0x200A,0xFFFF
10.633290166666667,0,0x4F4F,0xFFFF
10.633304250000000,0,0x6004,0xFFFF
10.633318500000000,0,0x0606,0x0000
10.633344500000000,0,0x6004,0xFFFF
10.633359000000000,0,0x0707,0x0000
10.633385000000001,0,0x2005,0xFFFF
10.633399083333334,0,0xA0A0,0xFFFF
10.633413166666667,0,0x2006,0xFFFF
10.633427083333334,0,0x0000,0xFFFF
10.633440916666666,0,0x2007,0xFFFF
10.633454666666667,0,0x5050,0xFFFF
10.633483791666666,0,0x2008,0xFFFF
10.633509041666667,0,0x6666,0xFFFF
10.633523291666666,0,0x2009,0xFFFF
10.633537250000000,0,0x2121,0xFFFF
10.633551208333333,0,0x200A,0xFFFF
10.633565083333334,0,0x4F4F,0xFFFF
10.633578999999999,0,0x6004,0xFFFF
10.633593250000001,0,0x0808,0x0000
10.633607583333333,0,0x6004,0xFFFF
10.633621958333332,0,0x0909,0x0000
10.633636333333333,0,0x2005,0xFFFF
10.633650208333334,0,0xA0A0,0xFFFF
10.633664124999999,0,0x2006,0xFFFF
10.633678208333333,0,0x0000,0xFFFF
10.633692125000000,0,0x2007,0xFFFF
10.633705958333334,0,0x5050,0xFFFF
10.633719916666667,0,0x2008,0xFFFF
10.633733791666666,0,0x0404,0xFFFF
10.633747541666667,0,0x2009,0xFFFF
10.633761333333334,0,0x2C2C,0xFFFF
10.633775249999999,0,0x200A,0xFFFF
10.633789166666666,0,0x4F4F,0xFFFF
10.633803041666667,0,0x6004,0xFFFF
10.633817333333333,0,0x0A0A,0x0000
10.633831791666667,0,0x6004,0xFFFF
10.633846125000000,0,0x0B0B,0x0000
10.633860374999999,0,0x2005,0xFFFF
10.633874375000000,0,0xA0A0,0xFFFF
10.633888166666667,0,0x2006,0xFFFF
10.633902000000001,0,0x0000,0xFFFF
10.633915791666666,0,0x2007,0xFFFF
10.633929583333334,0,0x5050,0xFFFF
10.633943416666666,0,0x2008,0xFFFF
10.633957166666667,0,0x8E8E,0xFFFF
10.633971166666667,0,0x2009,0xFFFF
10.633984999999999,0,0x2222,0xFFFF
10.633998875000000,0,0x200A,0xFFFF
10.634012666666667,0,0x4F4F,0xFFFF
10.634026625000001,0,0x6004,0xFFFF
10.634040750000000,0,0x0C0C,0x0000
10.634066625000001,0,0x6004,0xFFFF
10.634081166666666,0,0x0D0D,0x0000
10.634095500000001,0,0x2005,0xFFFF
10.634109333333333,0,0xA0A0,0xFFFF
10.634123125000000,0,0x2006,0xFFFF
10.634136958333333,0,0x0000,0xFFFF
10.634150750000000,0,0x2007,0xFFFF
10.634164500000001,0,0x0000,0xFFFF
10.634178291666666,0,0x2008,0xFFFF
10.634192125000000,0,0x6C6C,0xFFFF
10.634206000000001,0,0x2009,0xFFFF
10.634219750000000,0,0xD8D8,0xFFFF
10.634233541666667,0,0x200A,0xFFFF
10.634247500000001,0,0x4F4F,0xFFFF
10.634261333333333,0,0x6004,0xFFFF
10.634275625000001,0,0x0E0E,0x0000
10.634301250000000,0,0x6004,0xFFFF
10.634315708333334,0,0x0F0F,0x0000
10.634329875000001,0,0x2005,0xFFFF
10.634343708333333,0,0xA0A0,0xFFFF
10.634357541666667,0,0x2006,0xFFFF
10.634371500000000,0,0x0000,0xFFFF
10.634385333333332,0,0x2007,0xFFFF
10.634399041666667,0,0x5050,0xFFFF
10.634412749999999,0,0x2008,0xFFFF
10.634426583333333,0,0x6060,0xFFFF
10.634440375000001,0,0x2009,0xFFFF
10.634454083333333,0,0x0202,0xFFFF
10.634467958333333,0,0x200A,0xFFFF
10.634481833333334,0,0x4F4F,0xFFFF
10.634495749999999,0,0x6004,0xFFFF
10.634509833333333,0,0x1010,0x0000
10.634524208333334,0,0x6004,0xFFFF
10.634538333333333,0,0x1111,0x0000
10.634552625000000,0,0x2005,0xFFFF
10.634566291666667,0,0xA0A0,0xFFFF
10.634580208333333,0,0x2006,0xFFFF
10.634593875000000,0,0x0000,0xFFFF
10.634607750000001,0,0x2007,0xFFFF
10.634621541666666,0,0x5050,0xFFFF
10.634635208333334,0,0x2008,0xFFFF
10.634648916666666,0,0x6666,0xFFFF
10.634662666666667,0,0x2009,0xFFFF
10.634676499999999,0,0x2121,0xFFFF
10.634690416666666,0,0x200A,0xFFFF
10.634704083333334,0,0x4F4F,0xFFFF
10.634717999999999,0,0x6004,0xFFFF
10.634732083333333,0,0x1212,0x0000
10.634746208333333,0,0x6004,0xFFFF
10.634760458333334,0,0x1313,0x0000
10.634774750000000,0,0x2005,0xFFFF
10.634788583333334,0,0xA0A0,0xFFFF
10.634802375000000,0,0x2006,0xFFFF
10.634816083333334,0,0x0000,0xFFFF
10.634829833333333,0,0x2007,0xFFFF
10.634843708333333,0,0x2020,0xFFFF
10.634857583333334,0,0x2008,0xFFFF
10.634871458333333,0,0x5A5A,0xFFFF
10.634885208333333,0,0x2009,0xFFFF
10.634899041666667,0,0x1C1C,0xFFFF
10.634912750000000,0,0x200A,0xFFFF
10.634926583333334,0,0x4F4F,0xFFFF
10.634940625000000,0,0x6004,0xFFFF
10.634954708333334,0,0x1414,0x0000
10.634969166666666,0,0x6004,0xFFFF
10.634983291666666,0,0x1515,0x0000
10.634997458333334,0,0x2005,0xFFFF
10.635011125000000,0,0xA0A0,0xFFFF
10.635024833333333,0,0x2006,0xFFFF
10.635038666666667,0,0x0000,0xFFFF
10.635052666666667,0,0x2007,0xFFFF
10.635066333333333,0,0x0000,0xFFFF
10.635080083333333,0,0x2008,0xFFFF
10.635093958333334,0,0x0101,0xFFFF
10.635107874999999,0,0x2009,0xFFFF
10.635121625000000,0,0x8080,0xFFFF
10.635135458333334,0,0x200A,0xFFFF
10.635149374999999,0,0x4F4F,0xFFFF
10.635163208333333,0,0x6004,0xFFFF
10.635177250000000,0,0x1616,0x0000
10.635191541666666,0,0x6004,0xFFFF
10.635205875000000,0,0x1717,0x0000
10.635220125000000,0,0x2005,0xFFFF
10.635234166666667,0,0xA0A0,0xFFFF
10.635248083333334,0,0x2006,0xFFFF
10.635261833333333,0,0x0000,0xFFFF
10.635275750000000,0,0x2007,0xFFFF
10.635289541666667,0,0x5050,0xFFFF
10.635303166666667,0,0x2008,0xFFFF
10.635316874999999,0,0x2626,0xFFFF
10.635330708333333,0,0x2009,0xFFFF
10.635344583333334,0,0xA1A1,0xFFFF
10.635358249999999,0,0x200A,0xFFFF
10.635372166666667,0,0x4F4F,0xFFFF
10.635386125000000,0,0x6004,0xFFFF
10.635400291666667,0,0x1818,0x0000
10.635414583333333,0,0x6004,0xFFFF
10.635428833333334,0,0x1919,0x0000
10.635443041666667,0,0x2005,0xFFFF
10.635456874999999,0,0xA0A0,0xFFFF
10.635470916666666,0,0x2006,0xFFFF
10.635484791666666,0,0x0000,0xFFFF
10.635498708333333,0,0x2007,0xFFFF
10.635512750000000,0,0x8080,0xFFFF
10.635526541666666,0,0x2008,0xFFFF
10.635540250000000,0,0x8686,0xFFFF
10.635554041666667,0,0x2009,0xFFFF
10.635567875000000,0,0x6B6B,0xFFFF
10.635581708333333,0,0x200A,0xFFFF
10.635595541666667,0,0x4F4F,0xFFFF
10.635609416666666,0,0x6004,0xFFFF
10.635623666666667,0,0x1A1A,0x0000
10.635637958333334,0,0x6004,0xFFFF
10.635652291666666,0,0x1B1B,0x0000
10.635666541666666,0,0x2005,0xFFFF
10.635680291666667,0,0xA0A0,0xFFFF
10.635694125000001,0,0x2006,0xFFFF
10.635707999999999,0,0x0000,0xFFFF
10.635721875000000,0,0x2007,0xFFFF
10.635735583333334,0,0x3030,0xFFFF
10.635749375000000,0,0x2008,0xFFFF
10.635763208333334,0,0x6666,0xFFFF
10.635777333333333,0,0x2009,0xFFFF
10.635791166666667,0,0x0202,0xFFFF
10.635805000000000,0,0x200A,0xFFFF
10.635818875000000,0,0x4F4F,0xFFFF
10.635832875000000,0,0x6004,0xFFFF
10.635847166666666,0,0x1C1C,0x0000
10.635861625000000,0,0x6004,0xFFFF
10.635876000000000,0,0x1D1D,0x0000
10.635890249999999,0,0x2005,0xFFFF
10.635904000000000,0,0xA0A0,0xFFFF
10.635917916666667,0,0x2006,0xFFFF
10.635931833333334,0,0x0000,0xFFFF
10.635945625000000,0,0x2007,0xFFFF
10.635959375000001,0,0x2020,0xFFFF
10.635973166666666,0,0x2008,0xFFFF
10.635986958333334,0,0x2626,0xFFFF
10.636000875000001,0,0x2009,0xFFFF
10.636014625000000,0,0xA1A1,0xFFFF
10.636028375000000,0,0x200A,0xFFFF
10.636042291666667,0,0x4F4F,0xFFFF
10.636056249999999,0,0x6004,0xFFFF
10.636070458333334,0,0x1E1E,0x0000
10.636084666666667,0,0x6004,0xFFFF
10.636098958333333,0,0x1F1F,0x0000
10.636124541666666,0,0x2005,0xFFFF
10.636138666666668,0,0xA0A0,0xFFFF
10.636152541666666,0,0x2006,0xFFFF
10.636166375000000,0,0x0000,0xFFFF
10.636180124999999,0,0x2007,0xFFFF
10.636194000000000,0,0xB0B0,0xFFFF
10.636207916666667,0,0x2008,0xFFFF
10.636221666666666,0,0x0101,0xFFFF
10.636235375000000,0,0x2009,0xFFFF
10.636249125000001,0,0x8080,0xFFFF
10.636263166666666,0,0x200A,0xFFFF
10.636276875000000,0,0x4F4F,0xFFFF
10.636290791666667,0,0x6004,0xFFFF
10.636305000000000,0,0x2020,0x0000
10.636319250000000,0,0x6004,0xFFFF
10.636333333333333,0,0x2121,0x0000
10.636347625000001,0,0x2005,0xFFFF
10.636361458333333,0,0xA0A0,0xFFFF
10.636375291666667,0,0x2006,0xFFFF
10.636389166666667,0,0x0000,0xFFFF
10.636402875000000,0,0x2007,0xFFFF
10.636416499999999,0,0x5050,0xFFFF
10.636430333333333,0,0x2008,0xFFFF
10.636444166666667,0,0x8E8E,0xFFFF
10.636457999999999,0,0x2009,0xFFFF
10.636471708333334,0,0x2222,0xFFFF
10.636485583333334,0,0x200A,0xFFFF
10.636499458333333,0,0x4F4F,0xFFFF
10.636513291666667,0,0x6004,0xFFFF
10.636527416666667,0,0x2222,0x0000
10.636541708333333,0,0x6004,0xFFFF
10.636555875000001,0,0x2323,0x0000
10.636570083333334,0,0x2005,0xFFFF
10.636583958333333,0,0xA0A0,0xFFFF
10.636597750000000,0,0x2006,0xFFFF
10.636611500000001,0,0x0000,0xFFFF
10.636625416666666,0,0x2007,0xFFFF
10.636639166666667,0,0x0000,0xFFFF
10.636653083333334,0,0x2008,0xFFFF
10.636666958333333,0,0x8C8C,0xFFFF
10.636680666666667,0,0x2009,0xFFFF
10.636694458333332,0,0xA4A4,0xFFFF
10.636708250000000,0,0x200A,0xFFFF
10.636722041666667,0,0x4F4F,0xFFFF
10.636736125000001,0,0x6004,0xFFFF
10.636750375000000,0,0x2424,0x0000
10.636764583333333,0,0x6004,0xFFFF
10.636778750000000,0,0x2525,0x0000
10.636792916666666,0,0x2005,0xFFFF
10.636806708333333,0,0xA0A0,0xFFFF
10.636820625000000,0,0x2006,0xFFFF
10.636834500000001,0,0x0000,0xFFFF
10.636848291666666,0,0x2007,0xFFFF
10.636862083333334,0,0x5050,0xFFFF
10.636876041666667,0,0x2008,0xFFFF
10.636889916666666,0,0x0606,0xFFFF
10.636903625000000,0,0x2009,0xFFFF
10.636917416666666,0,0x8080,0xFFFF
10.636931208333333,0,0x200A,0xFFFF
10.636945166666667,0,0x4F4F,0xFFFF
10.636958999999999,0,0x6004,0xFFFF
10.636973125000001,0,0x2626,0x0000
10.636998833333333,0,0x6004,0xFFFF
10.637013375000000,0,0x2727,0x0000
10.637027750000000,0,0x2005,0xFFFF
10.637041625000000,0,0xA0A0,0xFFFF
10.637055625000000,0,0x2006,0xFFFF
10.637069500000001,0,0x0000,0xFFFF
10.637083416666666,0,0x2007,0xFFFF
10.637097208333333,0,0x2020,0xFFFF
10.637111083333334,0,0x2008,0xFFFF
10.637124875000000,0,0xC8C8,0xFFFF
10.637138791666667,0,0x2009,0xFFFF
10.637152666666667,0,0x1C1C,0xFFFF
10.637166708333334,0,0x200A,0xFFFF
10.637180583333333,0,0x4F4F,0xFFFF
10.637194624999999,0,0x6004,0xFFFF
10.637208958333334,0,0x2828,0x0000
10.637223375000000,0,0x6004,0xFFFF
10.637237624999999,0,0x2929,0x0000
10.637251833333334,0,0x2005,0xFFFF
10.637265666666666,0,0xA0A0,0xFFFF
10.637279541666667,0,0x2006,0xFFFF
10.637293416666667,0,0x0000,0xFFFF
10.637307083333333,0,0x2007,0xFFFF
10.637320875000000,0,0x5050,0xFFFF
10.637334750000001,0,0x2008,0xFFFF
10.637348666666666,0,0x0909,0xFFFF
10.637362541666667,0,0x2009,0xFFFF
10.637376375000001,0,0x4444,0xFFFF
10.637390249999999,0,0x200A,0xFFFF
10.637403916666667,0,0x4F4F,0xFFFF
10.637417833333334,0,0x6004,0xFFFF
10.637432125000000,0,0x2A2A,0x0000
10.637446541666666,0,0x6004,0xFFFF
10.637460750000001,0,0x2B2B,0x0000
10.637478833333333,0,0x2005,0xFFFF
10.637493375000000,0,0xA0A0,0xFFFF
10.637507625000000,0,0x2006,0xFFFF
10.637521416666667,0,0x0000,0xFFFF
10.637535250000001,0,0x2007,0xFFFF
10.637549000000000,0,0x5050,0xFFFF
10.637562833333334,0,0x2008,0xFFFF
10.637576708333333,0,0xEEEE,0xFFFF
10.637590583333333,0,0x2009,0xFFFF
10.637604333333334,0,0x2222,0xFFFF
10.637618291666668,0,0x200A,0xFFFF
10.637632041666667,0,0x4F4F,0xFFFF
10.637646041666667,0,0x6004,0xFFFF
10.637660250000000,0,0x2C2C,0x0000
10.637674625000001,0,0x6004,0xFFFF
10.637688958333333,0,0x2D2D,0x0000
10.637703333333333,0,0x2005,0xFFFF
10.637717125000000,0,0xA0A0,0xFFFF
10.637731000000000,0,0x2006,0xFFFF
10.637744958333334,0,0x0000,0xFFFF
10.637758666666667,0,0x2007,0xFFFF
10.637772541666667,0,0x3030,0xFFFF
10.637786583333334,0,0x2008,0xFFFF
10.637800416666666,0,0xECEC,0xFFFF
10.637814333333333,0,0x2009,0xFFFF
10.637827958333334,0,0x8F8F,0xFFFF
10.637841874999999,0,0x200A,0xFFFF
10.637855875000000,0,0x4F4F,0xFFFF
10.637869833333333,0,0x6004,0xFFFF
10.637884000000000,0,0x2E2E,0x0000
10.637910083333333,0,0x6004,0xFFFF
10.637924999999999,0,0x2F2F,0x0000
10.637939375000000,0,0x2005,0xFFFF
10.637953208333334,0,0xA0A0,0xFFFF
10.637967124999999,0,0x2006,0xFFFF
10.637981041666666,0,0x0000,0xFFFF
10.637994875000000,0,0x2007,0xFFFF
10.638008791666667,0,0x0000,0xFFFF
10.638022666666666,0,0x2008,0xFFFF
10.638036375000000,0,0xA8A8,0xFFFF
10.638050041666666,0,0x2009,0xFFFF
10.638063833333334,0,0x1B1B,0xFFFF
10.638077750000001,0,0x200A,0xFFFF
10.638091500000000,0,0x4F4F,0xFFFF
10.638105333333334,0,0x6004,0xFFFF
10.638119583333333,0,0x3030,0x0000
10.638133958333333,0,0x6004,0xFFFF
10.638148208333334,0,0x3131,0x0000
10.638162416666667,0,0x2005,0xFFFF
10.638176124999999,0,0xA0A0,0xFFFF
10.638189916666667,0,0x2006,0xFFFF
10.638203708333334,0,0x0000,0xFFFF
10.638217583333333,0,0x2007,0xFFFF
10.638231416666667,0,0x1010,0xFFFF
10.638245124999999,0,0x2008,0xFFFF
10.638258916666667,0,0xA0A0,0xFFFF
10.638272583333332,0,0x2009,0xFFFF
10.638286375000000,0,0xA9A9,0xFFFF
10.638300375000000,0,0x200A,0xFFFF
10.638314083333333,0,0x4F4F,0xFFFF
10.638327958333333,0,0x6004,0xFFFF
10.638342166666666,0,0x3232,0x0000
10.638356500000000,0,0x6004,0xFFFF
10.638370708333333,0,0x3333,0x0000
10.638385041666666,0,0x2005,0xFFFF
10.638398916666667,0,0xA0A0,0xFFFF
10.638412875000000,0,0x2006,0xFFFF
10.638426666666666,0,0x0000,0xFFFF
10.638440500000000,0,0x2007,0xFFFF
10.638454291666667,0,0x6060,0xFFFF
10.638468124999999,0,0x2008,0xFFFF
10.638482041666666,0,0x8888,0xFFFF
10.638495916666667,0,0x2009,0xFFFF
10.638509875000000,0,0x4242,0xFFFF
10.638523875000001,0,0x200A,0xFFFF
10.638537749999999,0,0x4F4F,0xFFFF
10.638551583333333,0,0x6004,0xFFFF
10.638565916666666,0,0x3434,0x0000
10.638580166666667,0,0x6004,0xFFFF
10.638594375000000,0,0x3535,0x0000
10.638608666666666,0,0x2005,0xFFFF
10.638622583333333,0,0xA0A0,0xFFFF
10.638636583333334,0,0x2006,0xFFFF
10.638650291666666,0,0x0000,0xFFFF
10.638664125000000,0,0x2007,0xFFFF
10.638678041666667,0,0x5050,0xFFFF
10.638691916666666,0,0x2008,0xFFFF
10.638705750000000,0,0x0101,0xFFFF
10.638719583333334,0,0x2009,0xFFFF
10.638733500000001,0,0x8080,0xFFFF
10.638747416666666,0,0x200A,0xFFFF
10.638761291666667,0,0x4F4F,0xFFFF
10.638775250000000,0,0x6004,0xFFFF
10.638789458333333,0,0x3636,0x0000
10.638815291666667,0,0x6004,0xFFFF
10.638829958333334,0,0x3737,0x0000
10.638844208333333,0,0x2005,0xFFFF
10.638858041666667,0,0xA0A0,0xFFFF
10.638871999999999,0,0x2006,0xFFFF
10.638885791666667,0,0x0000,0xFFFF
10.638899541666667,0,0x2007,0xFFFF
10.638913250000000,0,0x1010,0xFFFF
10.638927250000000,0,0x2008,0xFFFF
10.638941083333334,0,0x8080,0xFFFF
10.638954833333333,0,0x2009,0xFFFF
10.638968583333334,0,0xCACA,0xFFFF
10.638982291666666,0,0x200A,0xFFFF
10.638996125000000,0,0x4F4F,0xFFFF
10.639010041666667,0,0x6004,0xFFFF
10.639024250000000,0,0x3838,0x0000
10.639038541666666,0,0x6004,0xFFFF
10.639052791666666,0,0x3939,0x0000
10.639067166666667,0,0x2005,0xFFFF
10.639081083333334,0,0xA0A0,0xFFFF
10.639095041666666,0,0x2006,0xFFFF
10.639108958333333,0,0x0000,0xFFFF
10.639122625000001,0,0x2007,0xFFFF
10.639136499999999,0,0x5050,0xFFFF
10.639150291666667,0,0x2008,0xFFFF
10.639164166666667,0,0x6060,0xFFFF
10.639178083333332,0,0x2009,0xFFFF
10.639191791666667,0,0xCACA,0xFFFF
10.639205583333334,0,0x200A,0xFFFF
10.639219416666666,0,0x4F4F,0xFFFF
10.639233208333334,0,0x6004,0xFFFF
10.639247333333334,0,0x3A3A,0x0000
10.639261708333333,0,0x6004,0xFFFF
10.639275916666667,0,0x3B3B,0x0000
10.639290208333334,0,0x2005,0xFFFF
10.639303916666666,0,0xA0A0,0xFFFF
10.639317875000000,0,0x2006,0xFFFF
10.639331708333334,0,0x0000,0xFFFF
10.639345541666666,0,0x2007,0xFFFF
10.639359291666667,0,0x5050,0xFFFF
10.639373166666667,0,0x2008,0xFFFF
10.639387083333334,0,0xA0A0,0xFFFF
10.639401083333333,0,0x2009,0xFFFF
10.639414916666666,0,0xA9A9,0xFFFF
10.639428750000000,0,0x200A,0xFFFF
10.639442666666667,0,0x4F4F,0xFFFF
10.639456458333333,0,0x6004,0xFFFF
10.639470666666666,0,0x3C3C,0x0000
10.639484916666667,0,0x6004,0xFFFF
10.639499250000000,0,0x3D3D,0x0000
10.639513541666666,0,0x2005,0xFFFF
10.639527416666667,0,0xA0A0,0xFFFF
10.639541166666667,0,0x2006,0xFFFF
10.639554833333333,0,0x0000,0xFFFF
10.639568625000001,0,0x2007,0xFFFF
10.639582416666666,0,0x5050,0xFFFF
10.639596416666667,0,0x2008,0xFFFF
10.639610208333334,0,0xC6C6,0xFFFF
10.639623916666666,0,0x2009,0xFFFF
10.639637666666667,0,0x3434,0xFFFF
10.639651583333332,0,0x200A,0xFFFF
10.639665541666666,0,0x4F4F,0xFFFF
10.639679458333333,0,0x6004,0xFFFF
10.639693625000000,0,0x3E3E,0x0000
10.639707833333333,0,0x6004,0xFFFF
10.639722291666667,0,0x3F3F,0x0000
10.639736624999999,0,0x2005,0xFFFF
10.639750375000000,0,0xA0A0,0xFFFF
10.639764250000001,0,0x2006,0xFFFF
10.639778083333333,0,0x0000,0xFFFF
10.639791958333333,0,0x2007,0xFFFF
10.639805750000001,0,0x5050,0xFFFF
10.639819583333333,0,0x2008,0xFFFF
10.639833458333333,0,0x8E8E,0xFFFF
10.639847333333334,0,0x2009,0xFFFF
10.639861291666667,0,0x2222,0xFFFF
10.639875291666666,0,0x200A,0xFFFF
10.639889208333333,0,0x4F4F,0xFFFF
10.639903041666667,0,0x6004,0xFFFF
10.639917375000000,0,0x4040,0x0000
10.639931541666666,0,0x6004,0xFFFF
10.639945750000001,0,0x4141,0x0000
10.639959875000001,0,0x2005,0xFFFF
10.639973791666666,0,0xA0A0,0xFFFF
10.639987625000000,0,0x2006,0xFFFF
10.640001333333334,0,0x0000,0xFFFF
10.640015333333332,0,0x2007,0xFFFF
10.640029083333333,0,0x2020,0xFFFF
10.640042958333334,0,0x2008,0xFFFF
10.640056666666666,0,0x0C0C,0xFFFF
10.640070500000000,0,0x2009,0xFFFF
10.640084375000001,0,0x3535,0xFFFF
10.640098083333333,0,0x200A,0xFFFF
10.640111916666667,0,0x4F4F,0xFFFF
10.640125791666666,0,0x6004,0xFFFF
10.640139958333334,0,0x4242,0x0000
10.640165625000000,0,0x6004,0xFFFF
10.640180041666667,0,0x4343,0x0000
10.640194291666667,0,0x2005,0xFFFF
10.640208166666667,0,0xA0A0,0xFFFF
10.640221833333333,0,0x2006,0xFFFF
10.640235625000001,0,0x0000,0xFFFF
10.640249458333333,0,0x2007,0xFFFF
10.640263250000000,0,0x5050,0xFFFF
10.640277166666667,0,0x2008,0xFFFF
10.640291083333333,0,0x6666,0xFFFF
10.640304875000000,0,0x2009,0xFFFF
10.640318791666667,0,0x0101,0xFFFF
10.640332666666668,0,0x200A,0xFFFF
10.640346541666666,0,0x4F4F,0xFFFF
10.640360458333333,0,0x6004,0xFFFF
10.640374708333333,0,0x4444,0x0000
10.640400375000000,0,0x6004,0xFFFF
10.640414833333333,0,0x4545,0x0000
10.640429208333334,0,0x2005,0xFFFF
10.640442999999999,0,0xA0A0,0xFFFF
10.640456791666667,0,0x2006,0xFFFF
10.640470499999999,0,0x0000,0xFFFF
10.640484375000000,0,0x2007,0xFFFF
10.640498041666667,0,0x2020,0xFFFF
10.640511791666666,0,0x2008,0xFFFF
10.640525750000000,0,0x0000,0xFFFF
10.640539708333334,0,0x2009,0xFFFF
10.640553499999999,0,0x8080,0xFFFF
10.640567416666666,0,0x200A,0xFFFF
10.640581250000000,0,0x4F4F,0xFFFF
10.640595208333334,0,0x6004,0xFFFF
10.640609458333333,0,0x4646,0x0000
10.640623874999999,0,0x6004,0xFFFF
10.640638125000001,0,0x4747,0x0000
10.640663916666666,0,0x2005,0xFFFF
10.640678041666666,0,0xA0A0,0xFFFF
10.640692000000000,0,0x2006,0xFFFF
10.640705833333334,0,0x0000,0xFFFF
10.640719875000000,0,0x2007,0xFFFF
10.640733624999999,0,0x5050,0xFFFF
10.640747708333333,0,0x2008,0xFFFF
10.640761625000000,0,0xCECE,0xFFFF
10.640775625000000,0,0x2009,0xFFFF
10.640789500000000,0,0x2222,0xFFFF
10.640803333333333,0,0x200A,0xFFFF
10.640817083333333,0,0x4F4F,0xFFFF
10.640831000000000,0,0x6004,0xFFFF
10.640845166666667,0,0x4848,0x0000
10.640859375000000,0,0x6004,0xFFFF
10.640873583333333,0,0x4949,0x0000
10.640887875000001,0,0x2005,0xFFFF
10.640901749999999,0,0xA0A0,0xFFFF
10.640930041666667,0,0x2006,0xFFFF
10.640956041666668,0,0x0000,0xFFFF
10.640970375000000,0,0x2007,0xFFFF
10.640984458333334,0,0x3030,0xFFFF
10.640998375000001,0,0x2008,0xFFFF
10.641012249999999,0,0xACAC,0xFFFF
10.641026083333333,0,0x2009,0xFFFF
10.641039958333334,0,0x9292,0xFFFF
10.641053708333333,0,0x200A,0xFFFF
10.641067708333333,0,0x4F4F,0xFFFF
10.641081708333333,0,0x6004,0xFFFF
10.641095833333333,0,0x4A4A,0x0000
10.641110166666667,0,0x6004,0xFFFF
10.641124333333334,0,0x4B4B,0x0000
10.641138666666667,0,0x2005,0xFFFF
10.641152583333334,0,0xA0A0,0xFFFF
10.641166500000001,0,0x2006,0xFFFF
10.641180166666667,0,0x0000,0xFFFF
10.641194041666667,0,0x2007,0xFFFF
10.641207958333334,0,0x5050,0xFFFF
10.641221833333333,0,0x2008,0xFFFF
10.641235708333333,0,0xE6E6,0xFFFF
10.641249541666667,0,0x2009,0xFFFF
10.641263208333333,0,0x0000,0xFFFF
10.641277083333334,0,0x200A,0xFFFF
10.641290958333334,0,0x4F4F,0xFFFF
10.641304791666666,0,0x6004,0xFFFF
10.641318999999999,0,0x4C4C,0x0000
10.641333250000001,0,0x6004,0xFFFF
10.641347500000000,0,0x4D4D,0x0000
10.641361791666666,0,0x2005,0xFFFF
10.641375541666667,0,0xA0A0,0xFFFF
10.641389208333333,0,0x2006,0xFFFF
10.641402916666667,0,0x0000,0xFFFF
10.641416749999999,0,0x2007,0xFFFF
10.641430541666667,0,0x2020,0xFFFF
10.641444333333334,0,0x2008,0xFFFF
10.641458000000000,0,0xC6C6,0xFFFF
10.641475874999999,0,0x2009,0xFFFF
10.641493166666667,0,0x7E7E,0xFFFF
10.641508916666666,0,0x200A,0xFFFF
10.641535166666667,0,0x4F4F,0xFFFF
10.641550125000000,0,0x6004,0xFFFF
10.641564541666666,0,0x4E4E,0x0000
10.641579166666666,0,0x6004,0xFFFF
10.641593374999999,0,0x4F4F,0x0000
10.641607791666667,0,0x2005,0xFFFF
10.641621499999999,0,0xA0A0,0xFFFF
10.641635375000000,0,0x2006,0xFFFF
10.641649291666667,0,0x0000,0xFFFF
10.641663208333334,0,0x2007,0xFFFF
10.641677208333334,0,0x4040,0xFFFF
10.641691166666666,0,0x2008,0xFFFF
10.641705000000000,0,0x4646,0xFFFF
10.641718875000000,0,0x2009,0xFFFF
10.641732875000001,0,0x0101,0xFFFF
10.641746749999999,0,0x200A,0xFFFF
10.641760541666667,0,0x4F4F,0xFFFF
10.641774333333334,0,0x6004,0xFFFF
10.641788625000000,0,0x5050,0x0000
10.641803083333333,0,0x6004,0xFFFF
10.641817208333334,0,0x5151,0x0000
10.641831416666667,0,0x2005,0xFFFF
10.641845375000001,0,0xA0A0,0xFFFF
10.641859291666666,0,0x2006,0xFFFF
10.641873041666667,0,0x0000,0xFFFF
10.641886916666667,0,0x2007,0xFFFF
10.641900708333333,0,0x2020,0xFFFF
10.641914500000000,0,0x2008,0xFFFF
10.641928333333333,0,0x2E2E,0xFFFF
10.641942166666666,0,0x2009,0xFFFF
10.641956041666667,0,0x2323,0xFFFF
10.641969874999999,0,0x200A,0xFFFF
10.641983541666667,0,0x4F4F,0xFFFF
10.641997416666667,0,0x6004,0xFFFF
10.642011666666667,0,0x5252,0x0000
10.642025916666666,0,0x6004,0xFFFF
10.642040208333333,0,0x5353,0x0000
10.642054500000000,0,0x2005,0xFFFF
10.642068333333333,0,0xA0A0,0xFFFF
10.642082208333333,0,0x2006,0xFFFF
10.642096000000000,0,0x0000,0xFFFF
10.642109916666668,0,0x2007,0xFFFF
10.642123458333334,0,0x3030,0xFFFF
10.642137416666667,0,0x2008,0xFFFF
10.642151208333333,0,0xACAC,0xFFFF
10.642165083333333,0,0x2009,0xFFFF
10.642178833333332,0,0x9292,0xFFFF
10.642192708333333,0,0x200A,0xFFFF
10.642206458333334,0,0x4F4F,0xFFFF
10.642220375000001,0,0x6004,0xFFFF
10.642234583333334,0,0x5454,0x0000
10.642248958333333,0,0x6004,0xFFFF
10.642263291666668,0,0x5555,0x0000
10.642277500000001,0,0x2005,0xFFFF
10.642291250000000,0,0xA0A0,0xFFFF
10.642305083333333,0,0x2006,0xFFFF
10.642318958333334,0,0x0000,0xFFFF
10.642332791666666,0,0x2007,0xFFFF
10.642346583333333,0,0x5050,0xFFFF
10.642360333333333,0,0x2008,0xFFFF
10.642374125000000,0,0xE6E6,0xFFFF
10.642387916666667,0,0x2009,0xFFFF
10.642401625000000,0,0x0000,0xFFFF
10.642416791666667,0,0x200A,0xFFFF
10.642442375000000,0,0x4F4F,0xFFFF
10.642457000000000,0,0x6004,0xFFFF
10.642471499999999,0,0x5656,0x0000
10.642485875000000,0,0x6004,0xFFFF
10.642500208333333,0,0x5757,0x0000
10.642514541666667,0,0x2005,0xFFFF
10.642528416666666,0,0xA0A0,0xFFFF
10.642542291666667,0,0x2006,0xFFFF
10.642556125000000,0,0x0000,0xFFFF
10.642569875000000,0,0x2007,0xFFFF
10.642583708333333,0,0x3030,0xFFFF
10.642597500000001,0,0x2008,0xFFFF
10.642611333333333,0,0x0000,0xFFFF
10.642625291666667,0,0x2009,0xFFFF
10.642639208333334,0,0x8080,0xFFFF
10.642652916666666,0,0x200A,0xFFFF
10.642666625000000,0,0x4F4F,0xFFFF
10.642680458333333,0,0x6004,0xFFFF
10.642694708333334,0,0x5858,0x0000
10.642708875000000,0,0x6004,0xFFFF
10.642723166666666,0,0x5959,0x0000
10.642737374999999,0,0x2005,0xFFFF
10.642751250000000,0,0xA0A0,0xFFFF
10.642765041666667,0,0x2006,0xFFFF
10.642778791666666,0,0x0000,0xFFFF
10.642792583333334,0,0x2007,0xFFFF
10.642806374999999,0,0x5050,0xFFFF
10.642820083333334,0,0x2008,0xFFFF
10.642833875000001,0,0x8E8E,0xFFFF
10.642847625000000,0,0x2009,0xFFFF
10.642861458333334,0,0x2222,0xFFFF
10.642875416666667,0,0x200A,0xFFFF
10.642889250000000,0,0x4F4F,0xFFFF
10.642904291666667,0,0x6004,0xFFFF
10.642919333333333,0,0x5A5A,0x0000
10.642945083333334,0,0x6004,0xFFFF
10.642959749999999,0,0x5B5B,0x0000
10.642974166666667,0,0x2005,0xFFFF
10.642988083333334,0,0xA0A0,0xFFFF
10.643001833333333,0,0x2006,0xFFFF
10.643015708333333,0,0x0000,0xFFFF
10.643029583333334,0,0x2007,0xFFFF
10.643043416666666,0,0x3030,0xFFFF
10.643057250000000,0,0x2008,0xFFFF
10.643071000000001,0,0x0C0C,0xFFFF
10.643084916666666,0,0x2009,0xFFFF
10.643098791666667,0,0x9393,0xFFFF
10.643112625000001,0,0x200A,0xFFFF
10.643126375000000,0,0x4F4F,0xFFFF
10.643140375000000,0,0x6004,0xFFFF
10.643154624999999,0,0x5C5C,0x0000
10.643168916666667,0,0x6004,0xFFFF
10.643183166666667,0,0x5D5D,0x0000
10.643197458333333,0,0x2005,0xFFFF
10.643211291666667,0,0xA0A0,0xFFFF
10.643225083333334,0,0x2006,0xFFFF
10.643238791666667,0,0x0000,0xFFFF
10.643252750000000,0,0x2007,0xFFFF
10.643266625000001,0,0x5050,0xFFFF
10.643280499999999,0,0x2008,0xFFFF
10.643294416666667,0,0x4646,0xFFFF
10.643308208333334,0,0x2009,0xFFFF
10.643322208333334,0,0x0101,0xFFFF
10.643336958333334,0,0x200A,0xFFFF
10.643349958333333,0,0x4F4F,0xFFFF
10.643376041666667,0,0x6004,0xFFFF
10.643402166666666,0,0x5E5E,0x0000
10.643416833333333,0,0x6004,0xFFFF
10.643431000000000,0,0x5F5F,0x0000
10.643445208333333,0,0x2005,0xFFFF
10.643459166666666,0,0xA0A0,0xFFFF
10.643472916666667,0,0x2006,0xFFFF
10.643486833333334,0,0x0000,0xFFFF
10.643500666666666,0,0x2007,0xFFFF
10.643514666666666,0,0x2020,0xFFFF
10.643528541666667,0,0x2008,0xFFFF
10.643542291666666,0,0xE6E6,0xFFFF
10.643556083333333,0,0x2009,0xFFFF
10.643569833333334,0,0x0000,0xFFFF
10.643583708333333,0,0x200A,0xFFFF
10.643597541666667,0,0x4F4F,0xFFFF
10.643611500000000,0,0x6004,0xFFFF
10.643625750000000,0,0x6060,0x0000
10.643639875000000,0,0x6004,0xFFFF
10.643654250000001,0,0x6161,0x0000
10.643668458333334,0,0x2005,0xFFFF
10.643682249999999,0,0xA0A0,0xFFFF
10.643696125000000,0,0x2006,0xFFFF
10.643710041666667,0,0x0000,0xFFFF
10.643723916666668,0,0x2007,0xFFFF
10.643737666666667,0,0x4040,0xFFFF
10.643751625000000,0,0x2008,0xFFFF
10.643765333333333,0,0x0000,0xFFFF
10.643779000000000,0,0x2009,0xFFFF
10.643792708333333,0,0x8080,0xFFFF
10.643806458333334,0,0x200A,0xFFFF
10.643820041666666,0,0x4F4F,0xFFFF
10.643833916666667,0,0x6004,0xFFFF
10.643848083333333,0,0x6262,0x0000
10.643862208333333,0,0x6004,0xFFFF
10.643876333333333,0,0x6363,0x0000
10.643902083333334,0,0x2005,0xFFFF
10.643916125000001,0,0xA0A0,0xFFFF
10.643929958333333,0,0x2006,0xFFFF
10.643943833333333,0,0x0000,0xFFFF
10.643957541666667,0,0x2007,0xFFFF
10.643971291666666,0,0x5050,0xFFFF
10.643984958333334,0,0x2008,0xFFFF
10.643998750000000,0,0x0000,0xFFFF
10.644012541666667,0,0x2009,0xFFFF
10.644026250000000,0,0x0000,0xFFFF
10.644040208333333,0,0x200A,0xFFFF
10.644053916666667,0,0x4F4F,0xFFFF
10.644067708333333,0,0x6004,0xFFFF
10.644081958333333,0,0x6464,0x0000
10.644107708333333,0,0x6004,0xFFFF
10.644122208333334,0,0x6565,0x0000
10.644136458333334,0,0x2005,0xFFFF
10.644150249999999,0,0xA0A0,0xFFFF
10.644164166666666,0,0x2006,0xFFFF
10.644178000000000,0,0x0000,0xFFFF
10.644191875000001,0,0x2007,0xFFFF
10.644205749999999,0,0x5050,0xFFFF
10.644219416666667,0,0x2008,0xFFFF
10.644233083333333,0,0x8E8E,0xFFFF
10.644246875000000,0,0x2009,0xFFFF
10.644260541666666,0,0x2222,0xFFFF
10.644274333333334,0,0x200A,0xFFFF
10.644288458333333,0,0x4F4F,0xFFFF
10.644302583333333,0,0x6004,0xFFFF
10.644316958333333,0,0x6666,0x0000
10.644331250000000,0,0x6004,0xFFFF
10.644345500000000,0,0x6767,0x0000
10.644371166666666,0,0x2005,0xFFFF
10.644385249999999,0,0xA0A0,0xFFFF
10.644399125000000,0,0x2006,0xFFFF
10.644412916666667,0,0x0000,0xFFFF
10.644426708333333,0,0x2007,0xFFFF
10.644440500000000,0,0x2020,0xFFFF
10.644454333333334,0,0x2008,0xFFFF
10.644468125000000,0,0x0C0C,0xFFFF
10.644481958333333,0,0x2009,0xFFFF
10.644495916666667,0,0x2121,0xFFFF
10.644509708333333,0,0x200A,0xFFFF
10.644523375000000,0,0x4F4F,0xFFFF
10.644537208333333,0,0x6004,0xFFFF
10.644551416666667,0,0x6868,0x0000
10.644565750000000,0,0x6004,0xFFFF
10.644579916666666,0,0x6969,0x0000
10.644594250000001,0,0x2005,0xFFFF
10.644608125000000,0,0xA0A0,0xFFFF
10.644622041666667,0,0x2006,0xFFFF
10.644635833333334,0,0x0000,0xFFFF
10.644649625000000,0,0x2007,0xFFFF
10.644663416666667,0,0x5050,0xFFFF
10.644677250000001,0,0x2008,0xFFFF
10.644691041666666,0,0x6666,0xFFFF
10.644705125000000,0,0x2009,0xFFFF
10.644719000000000,0,0x2A2A,0xFFFF
10.644732833333334,0,0x200A,0xFFFF
10.644746583333333,0,0x4F4F,0xFFFF
10.644760458333334,0,0x6004,0xFFFF
10.644774791666666,0,0x6A6A,0x0000
10.644800458333334,0,0x6004,0xFFFF
10.644814916666666,0,0x6B6B,0x0000
10.644829250000001,0,0x2005,0xFFFF
10.644843083333333,0,0xA0A0,0xFFFF
10.644856958333333,0,0x2006,0xFFFF
10.644870791666667,0,0x0000,0xFFFF
10.644884666666666,0,0x2007,0xFFFF
10.644898375000000,0,0x5050,0xFFFF
10.644912208333333,0,0x2008,0xFFFF
10.644925916666667,0,0xE4E4,0xFFFF
10.644939583333333,0,0x2009,0xFFFF
10.644953250000000,0,0x7F7F,0xFFFF
10.644967125000001,0,0x200A,0xFFFF
10.644980958333333,0,0x4F4F,0xFFFF
10.644994791666667,0,0x6004,0xFFFF
10.645009125000000,0,0x6C6C,0x0000
10.645034791666667,0,0x6004,0xFFFF
10.645049333333333,0,0x6D6D,0x0000
10.645063625000001,0,0x2005,0xFFFF
10.645077416666666,0,0xA0A0,0xFFFF
10.645091375000000,0,0x2006,0xFFFF
10.645105166666667,0,0x0000,0xFFFF
10.645119166666667,0,0x2007,0xFFFF
10.645133000000000,0,0x5050,0xFFFF
10.645146708333334,0,0x2008,0xFFFF
10.645160458333333,0,0x8E8E,0xFFFF
10.645174208333334,0,0x2009,0xFFFF
10.645188083333334,0,0x2222,0xFFFF
10.645201916666666,0,0x200A,0xFFFF
10.645216083333333,0,0x4F4F,0xFFFF
10.645230124999999,0,0x6004,0xFFFF
10.645244458333334,0,0x6E6E,0x0000
10.645270041666667,0,0x6004,0xFFFF
10.645284500000001,0,0x6F6F,0x0000
10.645298916666666,0,0x2005,0xFFFF
10.645312666666667,0,0xA0A0,0xFFFF
10.645326541666666,0,0x2006,0xFFFF
10.645340416666667,0,0x0000,0xFFFF
10.645354333333334,0,0x2007,0xFFFF
10.645368166666668,0,0x0000,0xFFFF
10.645381875000000,0,0x2008,0xFFFF
10.645395625000001,0,0x4C4C,0xFFFF
10.645409333333333,0,0x2009,0xFFFF
10.645423166666667,0,0xB2B2,0xFFFF
10.645437125000001,0,0x200A,0xFFFF
10.645450833333333,0,0x4F4F,0xFFFF
10.645464708333334,0,0x6004,0xFFFF
10.645495791666667,0,0x7070,0x0000
10.645521625000001,0,0x6004,0xFFFF
10.645536541666667,0,0x7171,0x0000
10.645550916666666,0,0x2005,0xFFFF
10.645564916666666,0,0xA0A0,0xFFFF
10.645578708333334,0,0x2006,0xFFFF
10.645592583333332,0,0x0000,0xFFFF
10.645606291666667,0,0x2007,0xFFFF
10.645620125000001,0,0x5050,0xFFFF
10.645633916666666,0,0x2008,0xFFFF
10.645647833333333,0,0xE6E6,0xFFFF
10.645661625000001,0,0x2009,0xFFFF
10.645675416666666,0,0x7F7F,0xFFFF
10.645689291666667,0,0x200A,0xFFFF
10.645703250000000,0,0x4F4F,0xFFFF
10.645716999999999,0,0x6004,0xFFFF
10.645731250000001,0,0x7272,0x0000
10.645756958333333,0,0x6004,0xFFFF
10.645771500000000,0,0x7373,0x0000
10.645785791666666,0,0x2005,0xFFFF
10.645799708333334,0,0xA0A0,0xFFFF
10.645813625000001,0,0x2006,0xFFFF
10.645827499999999,0,0x0000,0xFFFF
10.645841333333333,0,0x2007,0xFFFF
10.645855208333334,0,0x5050,0xFFFF
10.645869125000001,0,0x2008,0xFFFF
10.645883041666666,0,0x8E8E,0xFFFF
10.645896791666667,0,0x2009,0xFFFF
10.645910666666667,0,0x2222,0xFFFF
10.645924541666666,0,0x200A,0xFFFF
10.645938375000000,0,0x4F4F,0xFFFF
10.645952416666667,0,0x6004,0xFFFF
10.645966666666666,0,0x7474,0x0000
10.645981083333334,0,0x6004,0xFFFF
10.645995291666667,0,0x7575,0x0000
10.646009625000000,0,0x2005,0xFFFF
10.646023666666666,0,0xA0A0,0xFFFF
10.646037375000001,0,0x2006,0xFFFF
10.646051166666666,0,0x0000,0xFFFF
10.646064916666667,0,0x2007,0xFFFF
10.646078749999999,0,0x0000,0xFFFF
10.646092583333333,0,0x2008,0xFFFF
10.646106541666667,0,0x8C8C,0xFFFF
10.646120416666667,0,0x2009,0xFFFF
10.646134500000001,0,0xA8A8,0xFFFF
10.646148291666666,0,0x200A,0xFFFF
10.646162500000001,0,0x4F4F,0xFFFF
10.646176625000001,0,0x6004,0xFFFF
10.646190833333334,0,0x7676,0x0000
10.646205208333333,0,0x6004,0xFFFF
10.646219541666667,0,0x7777,0x0000
10.646233750000000,0,0x2005,0xFFFF
10.646247499999999,0,0xA0A0,0xFFFF
10.646261416666666,0,0x2006,0xFFFF
10.646275041666666,0,0x0000,0xFFFF
10.646288916666666,0,0x2007,0xFFFF
10.646302791666667,0,0x5050,0xFFFF
10.646316666666667,0,0x2008,0xFFFF
10.646330624999999,0,0x8686,0xFFFF
10.646344458333333,0,0x2009,0xFFFF
10.646358083333334,0,0xA0A0,0xFFFF
10.646371958333333,0,0x200A,0xFFFF
10.646385791666667,0,0x4F4F,0xFFFF
10.646399708333334,0,0x6004,0xFFFF
10.646413958333333,0,0x7878,0x0000
10.646428291666666,0,0x6004,0xFFFF
10.646442541666667,0,0x7979,0x0000
10.646456750000000,0,0x2005,0xFFFF
10.646470624999999,0,0xA0A0,0xFFFF
10.646484583333333,0,0x2006,0xFFFF
10.646498541666666,0,0x0000,0xFFFF
10.646512458333333,0,0x2007,0xFFFF
10.646526250000001,0,0x5050,0xFFFF
10.646540041666666,0,0x2008,0xFFFF
10.646553833333334,0,0xE4E4,0xFFFF
10.646567708333333,0,0x2009,0xFFFF
10.646581500000000,0,0x0101,0xFFFF
10.646595291666667,0,0x200A,0xFFFF
10.646609166666666,0,0x4F4F,0xFFFF
10.646623083333333,0,0x6004,0xFFFF
10.646637291666666,0,0x7A7A,0x0000
10.646651625000001,0,0x6004,0xFFFF
10.646665833333333,0,0x7B7B,0x0000
10.646680041666666,0,0x2005,0xFFFF
10.646693833333334,0,0xA0A0,0xFFFF
10.646707833333334,0,0x2006,0xFFFF
10.646721708333333,0,0x0000,0xFFFF
10.646735625000000,0,0x2007,0xFFFF
10.646749333333334,0,0x5050,0xFFFF
10.646763083333333,0,0x2008,0xFFFF
10.646776791666667,0,0x8E8E,0xFFFF
10.646790583333333,0,0x2009,0xFFFF
10.646804291666667,0,0x2222,0xFFFF
10.646818083333333,0,0x200A,0xFFFF
10.646832041666666,0,0x4F4F,0xFFFF
10.646845958333333,0,0x6004,0xFFFF
10.646860208333333,0,0x7C7C,0x0000
10.646874499999999,0,0x6004,0xFFFF
10.646888791666667,0,0x7D7D,0x0000
10.646903000000000,0,0x2005,0xFFFF
10.646916750000001,0,0xA0A0,0xFFFF
10.646930708333333,0,0x2006,0xFFFF
10.646944541666667,0,0x0000,0xFFFF
10.646958416666667,0,0x2007,0xFFFF
10.646972208333333,0,0x0000,0xFFFF
10.646986125000000,0,0x2008,0xFFFF
10.646999958333334,0,0xACAC,0xFFFF
10.647013833333334,0,0x2009,0xFFFF
10.647027666666666,0,0x0000,0xFFFF
10.647041583333333,0,0x200A,0xFFFF
10.647055708333333,0,0x4F4F,0xFFFF
10.647069750000000,0,0x6004,0xFFFF
10.647083958333333,0,0x7E7E,0x0000
10.647098208333333,0,0x6004,0xFFFF
10.647112375000001,0,0x7F7F,0x0000
10.647126750000000,0,0x2005,0xFFFF
10.647140541666667,0,0xA0A0,0xFFFF
10.647154291666666,0,0x2006,0xFFFF
10.647168125000000,0,0x0000,0xFFFF
10.647182000000001,0,0x2007,0xFFFF
10.647195916666666,0,0x5050,0xFFFF
10.647209666666667,0,0x2008,0xFFFF
10.647223458333333,0,0xE6E6,0xFFFF
10.647237291666666,0,0x2009,0xFFFF
10.647251083333334,0,0x0101,0xFFFF
10.647264833333333,0,0x200A,0xFFFF
10.647278583333334,0,0x4F4F,0xFFFF
10.647292250000000,0,0x6004,0xFFFF
10.647306583333334,0,0x8080,0x0000
10.647320916666667,0,0x6004,0xFFFF
10.647335166666666,0,0x8181,0x0000
10.647349458333334,0,0x2005,0xFFFF
10.647363208333333,0,0xA0A0,0xFFFF
10.647377125000000,0,0x2006,0xFFFF
10.647391041666667,0,0x0000,0xFFFF
10.647404958333333,0,0x2007,0xFFFF
10.647418833333333,0,0x5050,0xFFFF
10.647432708333334,0,0x2008,0xFFFF
10.647446583333334,0,0x8E8E,0xFFFF
10.647460458333333,0,0x2009,0xFFFF
10.647474208333334,0,0x2222,0xFFFF
10.647487958333333,0,0x200A,0xFFFF
10.647501875000000,0,0x4F4F,0xFFFF
10.647515708333334,0,0x6004,0xFFFF
10.647530000000000,0,0x8282,0x0000
10.647544375000001,0,0x6004,0xFFFF
10.647558500000001,0,0x8383,0x0000
10.647572916666666,0,0x2005,0xFFFF
10.647586750000000,0,0xA0A0,0xFFFF
10.647600499999999,0,0x2006,0xFFFF
10.647614208333334,0,0x0000,0xFFFF
10.647628333333333,0,0x2007,0xFFFF
10.647642208333334,0,0x0000,0xFFFF
10.647656124999999,0,0x2008,0xFFFF
10.647670083333333,0,0xACAC,0xFFFF
10.647683958333333,0,0x2009,0xFFFF
10.647697541666666,0,0x0101,0xFFFF
10.647711250000000,0,0x200A,0xFFFF
10.647725083333333,0,0x4F4F,0xFFFF
10.647739041666666,0,0x6004,0xFFFF
10.647753249999999,0,0x8484,0x0000
10.647767625000000,0,0x6004,0xFFFF
10.647781875000000,0,0x8585,0x0000
10.647796208333334,0,0x2005,0xFFFF
10.647810124999999,0,0xA0A0,0xFFFF
10.647823958333333,0,0x2006,0xFFFF
10.647837791666667,0,0x0000,0xFFFF
10.647851708333333,0,0x2007,0xFFFF
10.647865541666667,0,0x5050,0xFFFF
10.647879333333334,0,0x2008,0xFFFF
10.647893291666668,0,0x0606,0xFFFF
10.647907083333333,0,0x2009,0xFFFF
10.647920791666667,0,0x8080,0xFFFF
10.647934666666666,0,0x200A,0xFFFF
10.647948791666666,0,0x4F4F,0xFFFF
10.647962791666666,0,0x6004,0xFFFF
10.647977041666667,0,0x8686,0x0000
10.647991291666667,0,0x6004,0xFFFF
10.648005416666667,0,0x8787,0x0000
10.648019583333333,0,0x2005,0xFFFF
10.648033458333334,0,0xA0A0,0xFFFF
10.648047375000001,0,0x2006,0xFFFF
10.648061166666666,0,0x0000,0xFFFF
10.648075041666667,0,0x2007,0xFFFF
10.648088791666666,0,0x5050,0xFFFF
10.648102625000000,0,0x2008,0xFFFF
10.648116416666667,0,0xCECE,0xFFFF
10.648130249999999,0,0x2009,0xFFFF
10.648144083333333,0,0x0E0E,0xFFFF
10.648157916666667,0,0x200A,0xFFFF
10.648171666666666,0,0x4F4F,0xFFFF
10.648185458333334,0,0x6004,0xFFFF
10.648199625000000,0,0x8888,0x0000
10.648213958333333,0,0x6004,0xFFFF
10.648228083333333,0,0x8989,0x0000
10.648242249999999,0,0x2005,0xFFFF
10.648256125000000,0,0xA0A0,0xFFFF
10.648269791666667,0,0x2006,0xFFFF
10.648283583333333,0,0x0000,0xFFFF
10.648297375000000,0,0x2007,0xFFFF
10.648311083333333,0,0x3030,0xFFFF
10.648324916666667,0,0x2008,0xFFFF
10.648338666666668,0,0xCCCC,0xFFFF
10.648352500000000,0,0x2009,0xFFFF
10.648366375000000,0,0xAEAE,0xFFFF
10.648380208333334,0,0x200A,0xFFFF
10.648394083333333,0,0x4F4F,0xFFFF
10.648407750000001,0,0x6004,0xFFFF
10.648421916666667,0,0x8A8A,0x0000
10.648436125000000,0,0x6004,0xFFFF
10.648450416666666,0,0x8B8B,0x0000
10.648464666666667,0,0x2005,0xFFFF
10.648478333333333,0,0xA0A0,0xFFFF
10.648492250000000,0,0x2006,0xFFFF
10.648506250000001,0,0x0000,0xFFFF
10.648520124999999,0,0x2007,0xFFFF
10.648534124999999,0,0x5050,0xFFFF
10.648548000000000,0,0x2008,0xFFFF
10.648561875000000,0,0x6E6E,0xFFFF
10.648575708333333,0,0x2009,0xFFFF
10.648589541666666,0,0x0B0B,0xFFFF
10.648603416666667,0,0x200A,0xFFFF
10.648617166666666,0,0x4F4F,0xFFFF
10.648630958333333,0,0x6004,0xFFFF
10.648645208333333,0,0x8C8C,0x0000
10.648671041666667,0,0x6004,0xFFFF
10.648685625000001,0,0x8D8D,0x0000
10.648699958333333,0,0x2005,0xFFFF
10.648713875000000,0,0xA0A0,0xFFFF
10.648727750000001,0,0x2006,0xFFFF
10.648741625000000,0,0x0000,0xFFFF
10.648755416666667,0,0x2007,0xFFFF
10.648769250000001,0,0x3030,0xFFFF
10.648783083333333,0,0x2008,0xFFFF
10.648796916666667,0,0xCCCC,0xFFFF
10.648810750000001,0,0x2009,0xFFFF
10.648824625000000,0,0xAEAE,0xFFFF
10.648838458333334,0,0x200A,0xFFFF
10.648852541666667,0,0x4F4F,0xFFFF
10.648866500000000,0,0x6004,0xFFFF
10.648880625000000,0,0x8E8E,0x0000
10.648906541666667,0,0x6004,0xFFFF
10.648921041666666,0,0x8F8F,0x0000
10.648935458333334,0,0x2005,0xFFFF
10.648949416666667,0,0xA0A0,0xFFFF
10.648963458333334,0,0x2006,0xFFFF
10.648977333333333,0,0x0000,0xFFFF
10.648991125000000,0,0x2007,0xFFFF
10.649004833333333,0,0x5050,0xFFFF
10.649018708333333,0,0x2008,0xFFFF
10.649032541666667,0,0x4646,0xFFFF
10.649046416666666,0,0x2009,0xFFFF
10.649060250000000,0,0x8888,0xFFFF
10.649074041666667,0,0x200A,0xFFFF
10.649087708333333,0,0x4F4F,0xFFFF
10.649101625000000,0,0x6004,0xFFFF
10.649115791666667,0,0x9090,0x0000
10.649130083333333,0,0x6004,0xFFFF
10.649144208333333,0,0x9191,0x0000
10.649158249999999,0,0x2005,0xFFFF
10.649172000000000,0,0xA0A0,0xFFFF
10.649185791666667,0,0x2006,0xFFFF
10.649199541666666,0,0x0000,0xFFFF
10.649213375000000,0,0x2007,0xFFFF
10.649227166666666,0,0x2020,0xFFFF
10.649241041666667,0,0x2008,0xFFFF
10.649254750000001,0,0x1A1A,0xFFFF
10.649268666666666,0,0x2009,0xFFFF
10.649282541666667,0,0x6464,0xFFFF
10.649296291666667,0,0x200A,0xFFFF
10.649309958333333,0,0x4F4F,0xFFFF
10.649323875000000,0,0x6004,0xFFFF
10.649338083333333,0,0x9292,0x0000
10.649352333333333,0,0x6004,0xFFFF
10.649366625000001,0,0x9393,0x0000
10.649380791666667,0,0x2005,0xFFFF
10.649394666666666,0,0xA0A0,0xFFFF
10.649408625000000,0,0x2006,0xFFFF
10.649422458333333,0,0x0000,0xFFFF
10.649436208333332,0,0x2007,0xFFFF
10.649449875000000,0,0x5050,0xFFFF
10.649463833333334,0,0x2008,0xFFFF
10.649477583333333,0,0x0707,0xFFFF
10.649495208333333,0,0x2009,0xFFFF
10.649509750000000,0,0x8080,0xFFFF
10.649523750000000,0,0x200A,0xFFFF
10.649537625000001,0,0x4F4F,0xFFFF
10.649551458333333,0,0x6004,0xFFFF
10.649565833333334,0,0x9494,0x0000
10.649580083333333,0,0x6004,0xFFFF
10.649594375000000,0,0x9595,0x0000
10.649608625000001,0,0x2005,0xFFFF
10.649622458333333,0,0xA0A0,0xFFFF
10.649636250000000,0,0x2006,0xFFFF
10.649650041666666,0,0x0000,0xFFFF
10.649663916666666,0,0x2007,0xFFFF
10.649677750000000,0,0x5050,0xFFFF
10.649691416666666,0,0x2008,0xFFFF
10.649705208333334,0,0x0E0E,0xFFFF
10.649718958333333,0,0x2009,0xFFFF
10.649732750000000,0,0x2323,0xFFFF
10.649746583333334,0,0x200A,0xFFFF
10.649760916666667,0,0x4F4F,0xFFFF
10.649774833333334,0,0x6004,0xFFFF
10.649789041666667,0,0x9696,0x0000
10.649803416666666,0,0x6004,0xFFFF
10.649817708333334,0,0x9797,0x0000
10.649831958333333,0,0x2005,0xFFFF
10.649845875000000,0,0xA0A0,0xFFFF
10.649859791666668,0,0x2006,0xFFFF
10.649873749999999,0,0x0000,0xFFFF
10.649887583333333,0,0x2007,0xFFFF
10.649901416666667,0,0x1010,0xFFFF
10.649915291666666,0,0x2008,0xFFFF
10.649929041666667,0,0x4C4C,0xFFFF
10.649942833333334,0,0x2009,0xFFFF
10.649956708333333,0,0xFEFE,0xFFFF
10.649970583333333,0,0x200A,0xFFFF
10.649984333333334,0,0x4F4F,0xFFFF
10.649998374999999,0,0x6004,0xFFFF
10.650012500000001,0,0x9898,0x0000
10.650026916666667,0,0x6004,0xFFFF
10.650041083333333,0,0x9999,0x0000
10.650055291666666,0,0x2005,0xFFFF
10.650069083333333,0,0xA0A0,0xFFFF
10.650083083333334,0,0x2006,0xFFFF
10.650096958333334,0,0x0000,0xFFFF
10.650110833333333,0,0x2007,0xFFFF
10.650124500000000,0,0x2020,0xFFFF
10.650138291666666,0,0x2008,0xFFFF
10.650152083333333,0,0xA8A8,0xFFFF
10.650165916666667,0,0x2009,0xFFFF
10.650179666666666,0,0x3B3B,0xFFFF
10.650193583333333,0,0x200A,0xFFFF
10.650207333333332,0,0x4F4F,0xFFFF
10.650221250000000,0,0x6004,0xFFFF
10.650235333333333,0,0x9A9A,0x0000
10.650249708333334,0,0x6004,0xFFFF
10.650263875000000,0,0x9B9B,0x0000
10.650278125000000,0,0x2005,0xFFFF
10.650292041666667,0,0xA0A0,0xFFFF
10.650305916666667,0,0x2006,0xFFFF
10.650319750000000,0,0x0000,0xFFFF
10.650333500000000,0,0x2007,0xFFFF
10.650347208333333,0,0x5050,0xFFFF
10.650361041666667,0,0x2008,0xFFFF
10.650374749999999,0,0x4949,0xFFFF
10.650388541666667,0,0x2009,0xFFFF
10.650402333333334,0,0x3F3F,0xFFFF
10.650416249999999,0,0x200A,0xFFFF
10.650430125000000,0,0x4F4F,0xFFFF
10.650443875000001,0,0x6004,0xFFFF
10.650458166666667,0,0x9C9C,0x0000
10.650472416666666,0,0x6004,0xFFFF
10.650486541666666,0,0x9D9D,0x0000
10.650500750000001,0,0x2005,0xFFFF
10.650514416666667,0,0xA0A0,0xFFFF
10.650528250000001,0,0x2006,0xFFFF
10.650542041666666,0,0x0000,0xFFFF
10.650555833333334,0,0x2007,0xFFFF
10.650569583333333,0,0x6060,0xFFFF
10.650583416666667,0,0x2008,0xFFFF
10.650597291666667,0,0x0000,0xFFFF
10.650611166666666,0,0x2009,0xFFFF
10.650625041666666,0,0x8080,0xFFFF
10.650638875000000,0,0x200A,0xFFFF
10.650653166666666,0,0x4F4F,0xFFFF
10.650667166666667,0,0x6004,0xFFFF
10.650681333333333,0,0x9E9E,0x0000
10.650695499999999,0,0x6004,0xFFFF
10.650709500000000,0,0x9F9F,0x0000
10.650723833333334,0,0x2005,0xFFFF
10.650737583333333,0,0xA0A0,0xFFFF
10.650751333333334,0,0x2006,0xFFFF
10.650765166666666,0,0x0000,0xFFFF
10.650779041666667,0,0x2007,0xFFFF
10.650792750000001,0,0x6060,0xFFFF
10.650806625000000,0,0x2008,0xFFFF
10.650820166666668,0,0x0000,0xFFFF
10.650834416666667,0,0x2009,0xFFFF
10.650848874999999,0,0x8080,0xFFFF
10.650863375000000,0,0x200A,0xFFFF
10.650877375000000,0,0x4F4F,0xFFFF
10.650891333333334,0,0x6004,0xFFFF
10.650905583333333,0,0xA0A0,0x0000
10.650919916666666,0,0x6004,0xFFFF
10.650934208333334,0,0xA1A1,0x0000
10.650948500000000,0,0x2005,0xFFFF
10.650962333333334,0,0xA0A0,0xFFFF
10.650976208333333,0,0x2006,0xFFFF
10.650990041666667,0,0x0000,0xFFFF
10.651004000000000,0,0x2007,0xFFFF
10.651017958333334,0,0x7070,0xFFFF
10.651031625000000,0,0x2008,0xFFFF
10.651045416666667,0,0x2727,0xFFFF
10.651059375000001,0,0x2009,0xFFFF
10.651073250000000,0,0xA1A1,0xFFFF
10.651087166666667,0,0x200A,0xFFFF
10.651100874999999,0,0x4F4F,0xFFFF
10.651114666666667,0,0x6004,0xFFFF
10.651128791666666,0,0xA2A2,0x0000
10.651154999999999,0,0x6004,0xFFFF
10.651169541666667,0,0xA3A3,0x0000
10.651183958333334,0,0x2005,0xFFFF
10.651197833333333,0,0xA0A0,0xFFFF
10.651211666666667,0,0x2006,0xFFFF
10.651225500000001,0,0x0000,0xFFFF
10.651239416666666,0,0x2007,0xFFFF
10.651253375000000,0,0x5050,0xFFFF
10.651267208333334,0,0x2008,0xFFFF
10.651281166666667,0,0xEEEE,0xFFFF
10.651295041666666,0,0x2009,0xFFFF
10.651308750000000,0,0x2222,0xFFFF
10.651322458333333,0,0x200A,0xFFFF
10.651336291666667,0,0x4F4F,0xFFFF
10.651350208333334,0,0x6004,0xFFFF
10.651364333333333,0,0xA4A4,0x0000
10.651378666666666,0,0x6004,0xFFFF
10.651392916666667,0,0xA5A5,0x0000
10.651407083333334,0,0x2005,0xFFFF
10.651420833333333,0,0xA0A0,0xFFFF
10.651434541666667,0,0x2006,0xFFFF
10.651448458333334,0,0x0000,0xFFFF
10.651462499999999,0,0x2007,0xFFFF
10.651476208333333,0,0x3030,0xFFFF
10.651490000000001,0,0x2008,0xFFFF
10.651503833333333,0,0xCCCC,0xFFFF
10.651517666666667,0,0x2009,0xFFFF
10.651531500000001,0,0x9797,0xFFFF
10.651545499999999,0,0x200A,0xFFFF
10.651559708333334,0,0x4F4F,0xFFFF
10.651573791666667,0,0x6004,0xFFFF
10.651588125000000,0,0xA6A6,0x0000
10.651614208333333,0,0x6004,0xFFFF
10.651628666666667,0,0xA7A7,0x0000
10.651643041666667,0,0x2005,0xFFFF
10.651656791666667,0,0xA0A0,0xFFFF
10.651670541666666,0,0x2006,0xFFFF
10.651684291666667,0,0x0000,0xFFFF
10.651698208333332,0,0x2007,0xFFFF
10.651711916666667,0,0x2020,0xFFFF
10.651725833333334,0,0x2008,0xFFFF
10.651739583333333,0,0x6868,0xFFFF
10.651753500000000,0,0x2009,0xFFFF
10.651767250000001,0,0x4040,0xFFFF
10.651781083333333,0,0x200A,0xFFFF
10.651794916666667,0,0x4F4F,0xFFFF
10.651808791666667,0,0x6004,0xFFFF
10.651822916666667,0,0xA8A8,0x0000
10.651837291666666,0,0x6004,0xFFFF
10.651851541666666,0,0xA9A9,0x0000
10.651865875000000,0,0x2005,0xFFFF
10.651879624999999,0,0xA0A0,0xFFFF
10.651893458333333,0,0x2006,0xFFFF
10.651907375000000,0,0x0000,0xFFFF
10.651921291666667,0,0x2007,0xFFFF
10.651935041666666,0,0x7070,0xFFFF
10.651948916666667,0,0x2008,0xFFFF
10.651962583333333,0,0x0101,0xFFFF
10.651976416666667,0,0x2009,0xFFFF
10.651990166666666,0,0x8080,0xFFFF
10.652003958333333,0,0x200A,0xFFFF
10.652017708333334,0,0x4F4F,0xFFFF
10.652031624999999,0,0x6004,0xFFFF
10.652045791666668,0,0xAAAA,0x0000
10.652060166666667,0,0x6004,0xFFFF
10.652074458333333,0,0xABAB,0x0000
10.652088708333334,0,0x2005,0xFFFF
10.652102500000000,0,0xA0A0,0xFFFF
10.652116375000000,0,0x2006,0xFFFF
10.652130124999999,0,0x0000,0xFFFF
10.652143958333333,0,0x2007,0xFFFF
10.652157666666668,0,0x0000,0xFFFF
10.652171500000000,0,0x2008,0xFFFF
10.652185250000000,0,0x0E0E,0xFFFF
10.652198958333333,0,0x2009,0xFFFF
10.652212875000000,0,0x2323,0xFFFF
10.652226750000001,0,0x200A,0xFFFF
10.652240624999999,0,0x4F4F,0xFFFF
10.652254583333333,0,0x6004,0xFFFF
10.652268791666666,0,0xACAC,0x0000
10.652283083333334,0,0x6004,0xFFFF
10.652297166666667,0,0xADAD,0x0000
10.652311416666667,0,0x2005,0xFFFF
10.652325208333334,0,0xA0A0,0xFFFF
10.652339083333333,0,0x2006,0xFFFF
10.652352916666667,0,0x0000,0xFFFF
10.652366791666667,0,0x2007,0xFFFF
10.652380666666666,0,0x1010,0xFFFF
10.652394541666666,0,0x2008,0xFFFF
10.652408166666667,0,0x4C4C,0xFFFF
10.652421958333333,0,0x2009,0xFFFF
10.652435750000000,0,0xFEFE,0xFFFF
10.652449624999999,0,0x200A,0xFFFF
10.652463750000001,0,0x4F4F,0xFFFF
10.652477666666666,0,0x6004,0xFFFF
10.652492000000001,0,0xAEAE,0x0000
10.652517791666666,0,0x6004,0xFFFF
10.652532375000000,0,0xAFAF,0x0000
10.652546875000001,0,0x2005,0xFFFF
10.652560708333333,0,0xA0A0,0xFFFF
10.652574500000000,0,0x2006,0xFFFF
10.652588166666666,0,0x0000,0xFFFF
10.652601958333333,0,0x2007,0xFFFF
10.652615791666667,0,0x5050,0xFFFF
10.652629708333333,0,0x2008,0xFFFF
10.652643541666666,0,0xEEEE,0xFFFF
10.652657208333334,0,0x2009,0xFFFF
10.652671208333333,0,0x8282,0xFFFF
10.652684958333333,0,0x200A,0xFFFF
10.652698750000001,0,0x4F4F,0xFFFF
10.652712791666668,0,0x6004,0xFFFF
10.652727083333334,0,0xB0B0,0x0000
10.652741333333333,0,0x6004,0xFFFF
10.652755458333333,0,0xB1B1,0x0000
10.652769833333334,0,0x2005,0xFFFF
10.652783791666666,0,0xA0A0,0xFFFF
10.652797791666666,0,0x2006,0xFFFF
10.652811666666667,0,0x0000,0xFFFF
10.652825541666667,0,0x2007,0xFFFF
10.652839291666666,0,0x3030,0xFFFF
10.652853083333333,0,0x2008,0xFFFF
10.652866875000001,0,0x8C8C,0xFFFF
10.652880833333333,0,0x2009,0xFFFF
10.652894625000000,0,0x9999,0xFFFF
10.652908375000001,0,0x200A,0xFFFF
10.652922250000000,0,0x4F4F,0xFFFF
10.652936083333334,0,0x6004,0xFFFF
10.652950250000000,0,0xB2B2,0x0000
10.652964416666666,0,0x6004,0xFFFF
10.652979291666666,0,0xB3B3,0x0000
10.652994208333334,0,0x2005,0xFFFF
10.653008833333333,0,0xA0A0,0xFFFF
10.653022916666666,0,0x2006,0xFFFF
10.653036916666666,0,0x0000,0xFFFF
10.653050833333333,0,0x2007,0xFFFF
10.653064708333334,0,0x5050,0xFFFF
10.653078541666666,0,0x2008,0xFFFF
10.653092333333333,0,0xE0E0,0xFFFF
10.653106083333334,0,0x2009,0xFFFF
10.653120083333333,0,0xA6A6,0xFFFF
10.653134000000000,0,0x200A,0xFFFF
10.653147833333334,0,0x4F4F,0xFFFF
10.653161833333334,0,0x6004,0xFFFF
10.653176000000000,0,0xB4B4,0x0000
10.653190250000000,0,0x6004,0xFFFF
10.653204458333333,0,0xB5B5,0x0000
10.653218708333334,0,0x2005,0xFFFF
10.653232500000000,0,0xA0A0,0xFFFF
10.653246291666667,0,0x2006,0xFFFF
10.653260124999999,0,0x0000,0xFFFF
10.653274041666666,0,0x2007,0xFFFF
10.653288041666666,0,0x5050,0xFFFF
10.653301708333334,0,0x2008,0xFFFF
10.653315416666667,0,0x8E8E,0xFFFF
10.653329166666667,0,0x2009,0xFFFF
10.653342791666667,0,0x8C8C,0xFFFF
10.653356666666667,0,0x200A,0xFFFF
10.653371000000000,0,0x4F4F,0xFFFF
10.653385041666667,0,0x6004,0xFFFF
10.653399291666666,0,0xB6B6,0x0000
10.653427708333334,0,0x6004,0xFFFF
10.653453666666667,0,0xB7B7,0x0000
10.653469041666666,0,0x2005,0xFFFF
10.653483166666666,0,0xA0A0,0xFFFF
10.653501125000000,0,0x2006,0xFFFF
10.653515333333333,0,0x0000,0xFFFF
10.653529166666667,0,0x2007,0xFFFF
10.653543125000001,0,0x3030,0xFFFF
10.653557041666666,0,0x2008,0xFFFF
10.653570875000000,0,0xCCCC,0xFFFF
10.653584666666667,0,0x2009,0xFFFF
10.653598375000000,0,0x9999,0xFFFF
10.653612250000000,0,0x200A,0xFFFF
10.653626041666667,0,0x4F4F,0xFFFF
10.653639875000000,0,0x6004,0xFFFF
10.653654208333334,0,0xB8B8,0x0000
10.653668541666667,0,0x6004,0xFFFF
10.653682791666666,0,0xB9B9,0x0000
10.653697041666666,0,0x2005,0xFFFF
10.653710875000000,0,0xA0A0,0xFFFF
10.653724791666667,0,0x2006,0xFFFF
10.653738625000001,0,0x0000,0xFFFF
10.653752375000000,0,0x2007,0xFFFF
10.653766291666667,0,0x5050,0xFFFF
10.653780250000001,0,0x2008,0xFFFF
10.653794124999999,0,0x6868,0xFFFF
10.653807958333333,0,0x2009,0xFFFF
10.653821750000001,0,0x4040,0xFFFF
10.653835541666666,0,0x200A,0xFFFF
10.653849416666667,0,0x4F4F,0xFFFF
10.653863333333334,0,0x6004,0xFFFF
10.653877583333333,0,0xBABA,0x0000
10.653891916666666,0,0x6004,0xFFFF
10.653906083333334,0,0xBBBB,0x0000
10.653920416666667,0,0x2005,0xFFFF
10.653934333333334,0,0xA0A0,0xFFFF
10.653948249999999,0,0x2006,0xFFFF
10.653962166666666,0,0x0000,0xFFFF
10.653976083333333,0,0x2007,0xFFFF
10.653990041666667,0,0x1010,0xFFFF
10.654003916666667,0,0x2008,0xFFFF
10.654017708333333,0,0x0000,0xFFFF
10.654031791666666,0,0x2009,0xFFFF
10.654045666666667,0,0x8080,0xFFFF
10.654059541666667,0,0x200A,0xFFFF
10.654073291666666,0,0x4F4F,0xFFFF
10.654087333333333,0,0x6004,0xFFFF
10.654101541666666,0,0xBCBC,0x0000
10.654115875000000,0,0x6004,0xFFFF
10.654130250000000,0,0xBDBD,0x0000
10.654144583333334,0,0x2005,0xFFFF
10.654158375000000,0,0xA0A0,0xFFFF
10.654172333333333,0,0x2006,0xFFFF
10.654186250000000,0,0x0000,0xFFFF
10.654200124999999,0,0x2007,0xFFFF
10.654213875000000,0,0x5050,0xFFFF
10.654227750000000,0,0x2008,0xFFFF
10.654241583333333,0,0xA0A0,0xFFFF
10.654255416666667,0,0x2009,0xFFFF
10.654269250000000,0,0x3636,0xFFFF
10.654283166666668,0,0x200A,0xFFFF
10.654297458333334,0,0x4F4F,0xFFFF
10.654311458333334,0,0x6004,0xFFFF
10.654325625000000,0,0xBEBE,0x0000
10.654339791666667,0,0x6004,0xFFFF
10.654354124999999,0,0xBFBF,0x0000
10.654368500000000,0,0x2005,0xFFFF
10.654382375000001,0,0xA0A0,0xFFFF
10.654396208333333,0,0x2006,0xFFFF
10.654410083333334,0,0x0000,0xFFFF
10.654423916666667,0,0x2007,0xFFFF
10.654437833333333,0,0x5050,0xFFFF
10.654451666666667,0,0x2008,0xFFFF
10.654465500000001,0,0xA6A6,0xFFFF
10.654479458333334,0,0x2009,0xFFFF
10.654493541666668,0,0x3333,0xFFFF
10.654507333333333,0,0x200A,0xFFFF
10.654521041666667,0,0x4F4F,0xFFFF
10.654534833333333,0,0x6004,0xFFFF
10.654548958333333,0,0xC0C0,0x0000
10.654574875000000,0,0x6004,0xFFFF
10.654589416666667,0,0xC1C1,0x0000
10.654603708333333,0,0x2005,0xFFFF
10.654617666666667,0,0xA0A0,0xFFFF
10.654631500000001,0,0x2006,0xFFFF
10.654645416666666,0,0x0000,0xFFFF
10.654659250000000,0,0x2007,0xFFFF
10.654672958333334,0,0x2020,0xFFFF
10.654686833333333,0,0x2008,0xFFFF
10.654700791666667,0,0x0000,0xFFFF
10.654714708333334,0,0x2009,0xFFFF
10.654728458333333,0,0x8080,0xFFFF
10.654742499999999,0,0x200A,0xFFFF
10.654756166666667,0,0x4F4F,0xFFFF
10.654770041666668,0,0x6004,0xFFFF
10.654784333333334,0,0xC2C2,0x0000
10.654810041666666,0,0x6004,0xFFFF
10.654824791666666,0,0xC3C3,0x0000
10.654839166666667,0,0x2005,0xFFFF
10.654852958333333,0,0xA0A0,0xFFFF
10.654866750000000,0,0x2006,0xFFFF
10.654880541666667,0,0x0000,0xFFFF
10.654894625000001,0,0x2007,0xFFFF
10.654908458333333,0,0x5050,0xFFFF
10.654922291666667,0,0x2008,0xFFFF
10.654935958333333,0,0xAEAE,0xFFFF
10.654949625000000,0,0x2009,0xFFFF
10.654963250000000,0,0x2222,0xFFFF
10.654977041666667,0,0x200A,0xFFFF
10.654990833333333,0,0x4F4F,0xFFFF
10.655004708333333,0,0x6004,0xFFFF
10.655018833333333,0,0xC4C4,0x0000
10.655033000000000,0,0x6004,0xFFFF
10.655047333333334,0,0xC5C5,0x0000
10.655061666666667,0,0x2005,0xFFFF
10.655075666666667,0,0xA0A0,0xFFFF
10.655089458333334,0,0x2006,0xFFFF
10.655103125000000,0,0x0000,0xFFFF
10.655117000000001,0,0x2007,0xFFFF
10.655130750000000,0,0x3030,0xFFFF
10.655144583333334,0,0x2008,0xFFFF
10.655158374999999,0,0x8C8C,0xFFFF
10.655172208333333,0,0x2009,0xFFFF
10.655186000000000,0,0x9A9A,0xFFFF
10.655199916666668,0,0x200A,0xFFFF
10.655214083333334,0,0x4F4F,0xFFFF
10.655228208333334,0,0x6004,0xFFFF
10.655242500000000,0,0xC6C6,0x0000
10.655256833333333,0,0x6004,0xFFFF
10.655270874999999,0,0xC7C7,0x0000
10.655285166666667,0,0x2005,0xFFFF
10.655299041666666,0,0xA0A0,0xFFFF
10.655312875000000,0,0x2006,0xFFFF
10.655326583333334,0,0x0000,0xFFFF
10.655340499999999,0,0x2007,0xFFFF
10.655354208333334,0,0x5050,0xFFFF
10.655368083333334,0,0x2008,0xFFFF
10.655381875000000,0,0x8E8E,0xFFFF
10.655395791666667,0,0x2009,0xFFFF
10.655409708333334,0,0x2222,0xFFFF
10.655423541666666,0,0x200A,0xFFFF
10.655437333333333,0,0x4F4F,0xFFFF
10.655451208333334,0,0x6004,0xFFFF
10.655465375000000,0,0xC8C8,0x0000
10.655479708333333,0,0x6004,0xFFFF
10.655493916666666,0,0xC9C9,0x0000
10.655508166666667,0,0x2005,0xFFFF
10.655521999999999,0,0xA0A0,0xFFFF
10.655535916666667,0,0x2006,0xFFFF
10.655549916666667,0,0x0000,0xFFFF
10.655563791666667,0,0x2007,0xFFFF
10.655577500000000,0,0x3030,0xFFFF
10.655591291666667,0,0x2008,0xFFFF
10.655605083333333,0,0x8C8C,0xFFFF
10.655618916666667,0,0x2009,0xFFFF
10.655632916666667,0,0xA1A1,0xFFFF
10.655646708333334,0,0x200A,0xFFFF
10.655660624999999,0,0x4F4F,0xFFFF
10.655674500000000,0,0x6004,0xFFFF
10.655688583333333,0,0xCACA,0x0000
10.655714291666667,0,0x6004,0xFFFF
10.655728791666666,0,0xCBCB,0x0000
10.655743166666667,0,0x2005,0xFFFF
10.655757083333333,0,0xA0A0,0xFFFF
10.655770916666667,0,0x2006,0xFFFF
10.655784583333332,0,0x0000,0xFFFF
10.655798541666666,0,0x2007,0xFFFF
10.655812291666667,0,0x0000,0xFFFF
10.655825958333333,0,0x2008,0xFFFF
10.655839833333333,0,0xCECE,0xFFFF
10.655853708333334,0,0x2009,0xFFFF
10.655867541666666,0,0x0202,0xFFFF
10.655881208333334,0,0x200A,0xFFFF
10.655895083333334,0,0x4F4F,0xFFFF
10.655909083333333,0,0x6004,0xFFFF
10.655923375000000,0,0xCCCC,0x0000
10.655937708333333,0,0x6004,0xFFFF
10.655951916666666,0,0xCDCD,0x0000
10.655966125000001,0,0x2005,0xFFFF
10.655979916666666,0,0xA0A0,0xFFFF
10.655993750000000,0,0x2006,0xFFFF
10.656007625000001,0,0x0000,0xFFFF
10.656021333333333,0,0x2007,0xFFFF
10.656035083333334,0,0x3030,0xFFFF
10.656048999999999,0,0x2008,0xFFFF
10.656062833333333,0,0x2C2C,0xFFFF
10.656076583333334,0,0x2009,0xFFFF
10.656090458333333,0,0xA0A0,0xFFFF
10.656104250000000,0,0x200A,0xFFFF
10.656118375000000,0,0x4F4F,0xFFFF
10.656132375000000,0,0x6004,0xFFFF
10.656146791666666,0,0xCECE,0x0000
10.656172541666667,0,0x6004,0xFFFF
10.656187125000001,0,0xCFCF,0x0000
10.656201291666667,0,0x2005,0xFFFF
10.656215124999999,0,0xA0A0,0xFFFF
10.656228916666667,0,0x2006,0xFFFF
10.656242833333334,0,0x0000,0xFFFF
10.656256624999999,0,0x2007,0xFFFF
10.656270541666666,0,0x0000,0xFFFF
10.656284458333333,0,0x2008,0xFFFF
10.656298250000001,0,0xA6A6,0xFFFF
10.656312249999999,0,0x2009,0xFFFF
10.656326125000000,0,0x3636,0xFFFF
10.656339916666667,0,0x200A,0xFFFF
10.656353833333334,0,0x4F4F,0xFFFF
10.656367749999999,0,0x6004,0xFFFF
10.656382083333334,0,0xD0D0,0x0000
10.656396291666667,0,0x6004,0xFFFF
10.656410541666666,0,0xD1D1,0x0000
10.656424875000001,0,0x2005,0xFFFF
10.656438750000000,0,0xA0A0,0xFFFF
10.656452458333334,0,0x2006,0xFFFF
10.656466166666666,0,0x0000,0xFFFF
10.656480083333333,0,0x2007,0xFFFF
10.656494041666667,0,0x5050,0xFFFF
10.656507875000001,0,0x2008,0xFFFF
10.656521541666667,0,0x6868,0xFFFF
10.656535416666667,0,0x2009,0xFFFF
10.656549125000000,0,0x4040,0xFFFF
10.656563083333333,0,0x200A,0xFFFF
10.656576916666667,0,0x4F4F,0xFFFF
10.656590874999999,0,0x6004,0xFFFF
10.656605166666667,0,0xD2D2,0x0000
10.656619500000000,0,0x6004,0xFFFF
10.656633583333333,0,0xD3D3,0x0000
10.656647916666667,0,0x2005,0xFFFF
10.656661666666666,0,0xA0A0,0xFFFF
10.656675541666667,0,0x2006,0xFFFF
10.656689374999999,0,0x0000,0xFFFF
10.656703291666666,0,0x2007,0xFFFF
10.656717125000000,0,0x1010,0xFFFF
10.656730916666667,0,0x2008,0xFFFF
10.656744625000000,0,0x0000,0xFFFF
10.656758375000001,0,0x2009,0xFFFF
10.656772291666666,0,0x8080,0xFFFF
10.656786083333333,0,0x200A,0xFFFF
10.656800041666667,0,0x4F4F,0xFFFF
10.656814000000001,0,0x6004,0xFFFF
10.656828250000000,0,0xD4D4,0x0000
10.656854125000001,0,0x6004,0xFFFF
10.656868541666666,0,0xD5D5,0x0000
10.656882958333334,0,0x2005,0xFFFF
10.656896833333333,0,0xA0A0,0xFFFF
10.656910666666667,0,0x2006,0xFFFF
10.656924416666667,0,0x0000,0xFFFF
10.656938333333333,0,0x2007,0xFFFF
10.656952208333333,0,0x4040,0xFFFF
10.656966125000000,0,0x2008,0xFFFF
10.656980041666667,0,0x0000,0xFFFF
10.656993791666666,0,0x2009,0xFFFF
10.657007583333334,0,0x8080,0xFFFF
10.657021333333333,0,0x200A,0xFFFF
10.657035458333333,0,0x4F4F,0xFFFF
10.657049458333333,0,0x6004,0xFFFF
10.657063708333334,0,0xD6D6,0x0000
10.657078000000000,0,0x6004,0xFFFF
10.657092250000000,0,0xD7D7,0x0000
10.657106541666666,0,0x2005,0xFFFF
10.657120375000000,0,0xA0A0,0xFFFF
10.657134291666667,0,0x2006,0xFFFF
10.657148125000001,0,0x0000,0xFFFF
10.657161833333333,0,0x2007,0xFFFF
10.657175708333334,0,0x5050,0xFFFF
10.657189625000001,0,0x2008,0xFFFF
10.657203416666666,0,0x0E0E,0xFFFF
10.657217333333334,0,0x2009,0xFFFF
10.657231250000001,0,0x2323,0xFFFF
10.657245124999999,0,0x200A,0xFFFF
10.657258791666667,0,0x4F4F,0xFFFF
10.657272666666668,0,0x6004,0xFFFF
10.657286916666667,0,0xD8D8,0x0000
10.657301374999999,0,0x6004,0xFFFF
10.657315583333334,0,0xD9D9,0x0000
10.657329833333334,0,0x2005,0xFFFF
10.657343624999999,0,0xA0A0,0xFFFF
10.657357375000000,0,0x2006,0xFFFF
10.657371166666668,0,0x0000,0xFFFF
10.657384875000000,0,0x2007,0xFFFF
10.657398625000001,0,0x3030,0xFFFF
10.657412458333333,0,0x2008,0xFFFF
10.657426333333333,0,0xECEC,0xFFFF
10.657440125000001,0,0x2009,0xFFFF
10.657454000000000,0,0x9F9F,0xFFFF
10.657467833333333,0,0x200A,0xFFFF
10.657481583333333,0,0x4F4F,0xFFFF
10.657500583333333,0,0x6004,0xFFFF
10.657515833333333,0,0xDADA,0x0000
10.657530416666667,0,0x6004,0xFFFF
10.657544750000000,0,0xDBDB,0x0000
10.657558958333333,0,0x2005,0xFFFF
10.657572708333333,0,0xA0A0,0xFFFF
10.657586625000000,0,0x2006,0xFFFF
10.657600499999999,0,0x0000,0xFFFF
10.657614333333333,0,0x2007,0xFFFF
10.657628125000000,0,0x5050,0xFFFF
10.657641833333333,0,0x2008,0xFFFF
10.657655708333333,0,0x6E6E,0xFFFF
10.657669583333334,0,0x2009,0xFFFF
10.657683291666666,0,0x2020,0xFFFF
10.657697083333334,0,0x200A,0xFFFF
10.657710916666666,0,0x4F4F,0xFFFF
10.657724833333333,0,0x6004,0xFFFF
10.657739041666666,0,0xDCDC,0x0000
10.657753250000001,0,0x6004,0xFFFF
10.657767583333333,0,0xDDDD,0x0000
10.657781833333333,0,0x2005,0xFFFF
10.657795708333333,0,0xA0A0,0xFFFF
10.657809458333332,0,0x2006,0xFFFF
10.657823333333333,0,0x0000,0xFFFF
10.657837208333333,0,0x2007,0xFFFF
10.657850874999999,0,0x3030,0xFFFF
10.657864833333333,0,0x2008,0xFFFF
10.657878625000000,0,0x8C8C,0xFFFF
10.657892625000001,0,0x2009,0xFFFF
10.657906333333333,0,0x9C9C,0xFFFF
10.657920166666667,0,0x200A,0xFFFF
10.657934291666667,0,0x4F4F,0xFFFF
10.657948333333334,0,0x6004,0xFFFF
10.657962500000000,0,0xDEDE,0x0000
10.657976791666666,0,0x6004,0xFFFF
10.657991000000001,0,0xDFDF,0x0000
10.658005250000000,0,0x2005,0xFFFF
10.658019083333333,0,0xA0A0,0xFFFF
10.658032916666667,0,0x2006,0xFFFF
10.658046625000001,0,0x0000,0xFFFF
10.658060416666666,0,0x2007,0xFFFF
10.658074125000001,0,0x5050,0xFFFF
10.658087916666666,0,0x2008,0xFFFF
10.658101750000000,0,0xA8A8,0xFFFF
10.658115625000001,0,0x2009,0xFFFF
10.658129333333333,0,0x4141,0xFFFF
10.658143208333334,0,0x200A,0xFFFF
10.658157125000001,0,0x4F4F,0xFFFF
10.658170875000000,0,0x6004,0xFFFF
10.658184833333333,0,0xE0E0,0x0000
10.658199041666666,0,0x6004,0xFFFF
10.658213083333333,0,0xE1E1,0x0000
10.658227291666666,0,0x2005,0xFFFF
10.658241041666667,0,0xA0A0,0xFFFF
10.658254875000001,0,0x2006,0xFFFF
10.658268791666666,0,0x0000,0xFFFF
10.658282708333333,0,0x2007,0xFFFF
10.658296541666667,0,0x5050,0xFFFF
10.658310416666666,0,0x2008,0xFFFF
10.658324208333333,0,0xA0A0,0xFFFF
10.658338000000001,0,0x2009,0xFFFF
10.658351833333333,0,0xA9A9,0xFFFF
10.658365791666666,0,0x200A,0xFFFF
10.658379833333333,0,0x4F4F,0xFFFF
10.658393791666667,0,0x6004,0xFFFF
10.658407916666667,0,0xE2E2,0x0000
10.658422208333333,0,0x6004,0xFFFF
10.658436249999999,0,0xE3E3,0x0000
10.658450291666666,0,0x2005,0xFFFF
10.658464083333334,0,0xA0A0,0xFFFF
10.658477958333334,0,0x2006,0xFFFF
10.658491750000000,0,0x0000,0xFFFF
10.658505541666667,0,0x2007,0xFFFF
10.658519249999999,0,0x5050,0xFFFF
10.658533000000000,0,0x2008,0xFFFF
10.658546875000001,0,0xA0A0,0xFFFF
10.658560708333333,0,0x2009,0xFFFF
10.658574583333333,0,0xA4A4,0xFFFF
10.658588416666667,0,0x200A,0xFFFF
10.658602250000000,0,0x4F4F,0xFFFF
10.658616125000000,0,0x6004,0xFFFF
10.658630291666666,0,0xE4E4,0x0000
10.658644625000001,0,0x6004,0xFFFF
10.658658916666667,0,0xE5E5,0x0000
10.658673250000000,0,0x2005,0xFFFF
10.658687041666667,0,0xA0A0,0xFFFF
10.658700916666668,0,0x2006,0xFFFF
10.658714666666667,0,0x0000,0xFFFF
10.658728458333334,0,0x2007,0xFFFF
10.658742250000000,0,0x5050,0xFFFF
10.658756083333333,0,0x2008,0xFFFF
10.658769916666667,0,0x4646,0xFFFF
10.658783958333334,0,0x2009,0xFFFF
10.658797791666666,0,0x3636,0xFFFF
10.658811666666667,0,0x200A,0xFFFF
10.658825708333334,0,0x4F4F,0xFFFF
10.658839916666667,0,0x6004,0xFFFF
10.658854166666666,0,0xE6E6,0x0000
10.658868416666667,0,0x6004,0xFFFF
10.658882583333334,0,0xE7E7,0x0000
10.658896958333333,0,0x2005,0xFFFF
10.658910875000000,0,0xA0A0,0xFFFF
10.658924791666667,0,0x2006,0xFFFF
10.658938583333333,0,0x0000,0xFFFF
10.658952416666667,0,0x2007,0xFFFF
10.658966250000001,0,0x5050,0xFFFF
10.658980124999999,0,0x2008,0xFFFF
10.658993916666667,0,0xA0A0,0xFFFF
10.659007875000000,0,0x2009,0xFFFF
10.659021666666666,0,0xA4A4,0xFFFF
10.659035416666667,0,0x200A,0xFFFF
10.659049250000001,0,0x4F4F,0xFFFF
10.659063166666666,0,0x6004,0xFFFF
10.659077291666666,0,0xE8E8,0x0000
10.659103166666666,0,0x6004,0xFFFF
10.659117708333333,0,0xE9E9,0x0000
10.659132083333333,0,0x2005,0xFFFF
10.659146000000000,0,0xA0A0,0xFFFF
10.659159958333333,0,0x2006,0xFFFF
10.659173791666667,0,0x0000,0xFFFF
10.659187458333333,0,0x2007,0xFFFF
10.659201250000001,0,0x1010,0xFFFF
10.659215041666666,0,0x2008,0xFFFF
10.659228916666667,0,0xA0A0,0xFFFF
10.659242666666668,0,0x2009,0xFFFF
10.659256458333333,0,0xA9A9,0xFFFF
10.659270125000001,0,0x200A,0xFFFF
10.659283916666666,0,0x4F4F,0xFFFF
10.659297833333333,0,0x6004,0xFFFF
10.659312166666666,0,0xEAEA,0x0000
10.659337916666667,0,0x6004,0xFFFF
10.659352458333334,0,0xEBEB,0x0000
10.659366791666667,0,0x2005,0xFFFF
10.659380625000001,0,0xA0A0,0xFFFF
10.659394499999999,0,0x2006,0xFFFF
10.659408333333333,0,0x0000,0xFFFF
10.659422291666667,0,0x2007,0xFFFF
10.659436250000001,0,0x3030,0xFFFF
10.659450083333333,0,0x2008,0xFFFF
10.659463916666667,0,0x0606,0xFFFF
10.659477833333334,0,0x2009,0xFFFF
10.659491666666666,0,0x3636,0xFFFF
10.659505583333333,0,0x200A,0xFFFF
10.659519416666667,0,0x4F4F,0xFFFF
10.659533333333334,0,0x6004,0xFFFF
10.659547541666667,0,0xECEC,0x0000
10.659561958333333,0,0x6004,0xFFFF
10.659576291666667,0,0xEDED,0x0000
10.659590541666667,0,0x2005,0xFFFF
10.659604500000000,0,0xA0A0,0xFFFF
10.659618375000001,0,0x2006,0xFFFF
10.659632333333333,0,0x0000,0xFFFF
10.659646333333333,0,0x2007,0xFFFF
10.659660166666667,0,0x4040,0xFFFF
10.659674041666667,0,0x2008,0xFFFF
10.659687874999999,0,0x0000,0xFFFF
10.659701750000000,0,0x2009,0xFFFF
10.659715541666667,0,0x8080,0xFFFF
10.659729291666666,0,0x200A,0xFFFF
10.659743375000000,0,0x4F4F,0xFFFF
10.659757458333333,0,0x6004,0xFFFF
10.659771666666666,0,0xEEEE,0x0000
10.659797416666667,0,0x6004,0xFFFF
10.659812000000001,0,0xEFEF,0x0000
10.659826250000000,0,0x2005,0xFFFF
10.659840291666667,0,0xA0A0,0xFFFF
10.659854125000001,0,0x2006,0xFFFF
10.659867875000000,0,0x0000,0xFFFF
10.659881750000000,0,0x2007,0xFFFF
10.659895541666666,0,0x5050,0xFFFF
10.659909416666666,0,0x2008,0xFFFF
10.659923375000000,0,0xEEEE,0xFFFF
10.659937250000000,0,0x2009,0xFFFF
10.659951000000000,0,0x2222,0xFFFF
10.659964833333333,0,0x200A,0xFFFF
10.659978708333334,0,0x4F4F,0xFFFF
10.659992583333333,0,0x6004,0xFFFF
10.660006875000001,0,0xF0F0,0x0000
10.660021333333333,0,0x6004,0xFFFF
10.660035625000001,0,0xF1F1,0x0000
10.660050000000000,0,0x2005,0xFFFF
10.660064083333333,0,0xA0A0,0xFFFF
10.660078000000000,0,0x2006,0xFFFF
10.660091833333333,0,0x0000,0xFFFF
10.660105625000000,0,0x2007,0xFFFF
10.660119458333334,0,0x3030,0xFFFF
10.660133500000001,0,0x2008,0xFFFF
10.660147374999999,0,0x6C6C,0xFFFF
10.660161374999999,0,0x2009,0xFFFF
10.660175166666667,0,0x9E9E,0xFFFF
10.660189000000001,0,0x200A,0xFFFF
10.660202875000000,0,0x4F4F,0xFFFF
10.660216666666667,0,0x6004,0xFFFF
10.660230958333333,0,0xF2F2,0x0000
10.660245375000001,0,0x6004,0xFFFF
10.660259666666667,0,0xF3F3,0x0000
10.660273999999999,0,0x2005,0xFFFF
10.660287791666667,0,0xA0A0,0xFFFF
10.660301583333334,0,0x2006,0xFFFF
10.660315375000000,0,0x0000,0xFFFF
10.660329208333334,0,0x2007,0xFFFF
10.660342999999999,0,0x5050,0xFFFF
10.660356833333333,0,0x2008,0xFFFF
10.660370625000001,0,0x6868,0xFFFF
10.660384416666666,0,0x2009,0xFFFF
10.660398291666667,0,0x4040,0xFFFF
10.660412000000001,0,0x200A,0xFFFF
10.660425875000000,0,0x4F4F,0xFFFF
10.660439666666667,0,0x6004,0xFFFF
10.660453833333333,0,0xF4F4,0x0000
10.660479499999999,0,0x6004,0xFFFF
10.660494041666666,0,0xF5F5,0x0000
10.660508458333334,0,0x2005,0xFFFF
10.660522458333332,0,0xA0A0,0xFFFF
10.660536208333333,0,0x2006,0xFFFF
10.660550000000001,0,0x0000,0xFFFF
10.660563874999999,0,0x2007,0xFFFF
10.660577583333334,0,0x1010,0xFFFF
10.660591374999999,0,0x2008,0xFFFF
10.660605041666667,0,0x0000,0xFFFF
10.660618916666667,0,0x2009,0xFFFF
10.660632708333333,0,0x8080,0xFFFF
10.660646583333333,0,0x200A,0xFFFF
10.660660666666667,0,0x4F4F,0xFFFF
10.660674500000001,0,0x6004,0xFFFF
10.660688750000000,0,0xF6F6,0x0000
10.660703000000000,0,0x6004,0xFFFF
10.660717208333333,0,0xF7F7,0x0000
10.660731708333334,0,0x2005,0xFFFF
10.660745625000001,0,0xA0A0,0xFFFF
10.660759541666666,0,0x2006,0xFFFF
10.660773458333333,0,0x0000,0xFFFF
10.660787375000000,0,0x2007,0xFFFF
10.660801166666667,0,0x5050,0xFFFF
10.660814999999999,0,0x2008,0xFFFF
10.660828625000001,0,0x8E8E,0xFFFF
10.660842416666666,0,0x2009,0xFFFF
10.660856250000000,0,0x2222,0xFFFF
10.660869958333333,0,0x200A,0xFFFF
10.660883833333333,0,0x4F4F,0xFFFF
10.660897666666667,0,0x6004,0xFFFF
10.660911833333333,0,0xF8F8,0x0000
10.660926541666667,0,0x6004,0xFFFF
10.660941291666667,0,0xF9F9,0x0000
10.660956208333333,0,0x2005,0xFFFF
10.660970250000000,0,0xA0A0,0xFFFF
10.660984125000001,0,0x2006,0xFFFF
10.660997833333333,0,0x0000,0xFFFF
10.661011666666667,0,0x2007,0xFFFF
10.661025583333334,0,0x3030,0xFFFF
10.661039291666667,0,0x2008,0xFFFF
10.661053125000000,0,0x8C8C,0xFFFF
10.661066874999999,0,0x2009,0xFFFF
10.661080541666667,0,0x9F9F,0xFFFF
10.661094374999999,0,0x200A,0xFFFF
10.661108208333333,0,0x4F4F,0xFFFF
10.661122083333334,0,0x6004,0xFFFF
10.661136333333333,0,0xFAFA,0x0000
10.661150583333333,0,0x6004,0xFFFF
10.661164708333333,0,0xFBFB,0x0000
10.661190333333334,0,0x2005,0xFFFF
10.661204416666667,0,0xA0A0,0xFFFF
10.661218249999999,0,0x2006,0xFFFF
10.661232166666666,0,0x0000,0xFFFF
10.661245833333334,0,0x2007,0xFFFF
10.661259749999999,0,0x5050,0xFFFF
10.661273749999999,0,0x2008,0xFFFF
10.661287583333333,0,0xA8A8,0xFFFF
10.661301291666666,0,0x2009,0xFFFF
10.661315000000000,0,0x4141,0xFFFF
10.661328958333334,0,0x200A,0xFFFF
10.661342875000001,0,0x4F4F,0xFFFF
10.661356791666666,0,0x6004,0xFFFF
10.661371000000001,0,0xFCFC,0x0000
10.661385250000000,0,0x6004,0xFFFF
10.661399375000000,0,0xFDFD,0x0000
10.661413500000000,0,0x2005,0xFFFF
10.661427458333334,0,0xA0A0,0xFFFF
10.661441416666667,0,0x2006,0xFFFF
10.661455166666666,0,0x0000,0xFFFF
10.661469083333333,0,0x2007,0xFFFF
10.661482875000001,0,0x5050,0xFFFF
10.661501041666666,0,0x2008,0xFFFF
10.661527500000000,0,0xA0A0,0xFFFF
10.661554000000001,0,0x2009,0xFFFF
10.661579124999999,0,0xA9A9,0xFFFF
10.661605208333333,0,0x200A,0xFFFF
10.661630750000000,0,0x4F4F,0xFFFF
10.661656291666667,0,0x6004,0xFFFF
10.661681708333333,0,0xFEFE,0x0000
10.661707375000001,0,0x6004,0xFFFF
10.661732666666667,0,0xFFFF,0x0000
10.661758375000000,0,0x2005,0xFFFF
10.661783541666667,0,0xA0A0,0xFFFF
10.661809000000000,0,0x2006,0xFFFF
10.661834125000000,0,0x0000,0xFFFF
10.661859708333333,0,0x2007,0xFFFF
10.661884541666666,0,0x5050,0xFFFF
10.661910166666667,0,0x2008,0xFFFF
10.661935124999999,0,0xA0A0,0xFFFF
10.661960583333334,0,0x2009,0xFFFF
10.661985458333334,0,0xA4A4,0xFFFF
10.662011041666666,0,0x200A,0xFFFF
10.662036041666667,0,0x4F4F,0xFFFF
10.662061416666667,0,0x6004,0xFFFF
10.662086666666667,0,0x0000,0x0000
10.662112291666666,0,0x6004,0xFFFF
10.662137708333333,0,0x0101,0x0000
10.662163124999999,0,0x2005,0xFFFF
10.662188208333333,0,0xA0A0,0xFFFF
10.662213583333333,0,0x2006,0xFFFF
10.662238666666667,0,0x0000,0xFFFF
10.662264125000000,0,0x2007,0xFFFF
10.662289083333333,0,0x5050,0xFFFF
10.662314500000001,0,0x2008,0xFFFF
10.662339291666667,0,0x4646,0xFFFF
10.662364541666667,0,0x2009,0xFFFF
10.662389416666667,0,0x3636,0xFFFF
10.662414958333333,0,0x200A,0xFFFF
10.662439958333334,0,0x4F4F,0xFFFF
10.662465375000000,0,0x6004,0xFFFF
10.662490500000001,0,0x0202,0x0000
10.662516249999999,0,0x6004,0xFFFF
10.662541333333333,0,0x0303,0x0000
10.662566958333333,0,0x2005,0xFFFF
10.662592249999999,0,0xA0A0,0xFFFF
10.662617583333333,0,0x2006,0xFFFF
10.662642416666667,0,0x0000,0xFFFF
10.662667624999999,0,0x2007,0xFFFF
10.662692500000000,0,0x5050,0xFFFF
10.662717791666667,0,0x2008,0xFFFF
10.662742666666666,0,0xA0A0,0xFFFF
10.662768124999999,0,0x2009,0xFFFF
10.662793125000000,0,0xA4A4,0xFFFF
10.662818458333334,0,0x200A,0xFFFF
10.662843416666666,0,0x4F4F,0xFFFF
10.662868666666666,0,0x6004,0xFFFF
10.662893750000000,0,0x0404,0x0000
10.662919291666666,0,0x6004,0xFFFF
10.662944458333333,0,0x0505,0x0000
10.662969791666667,0,0x2005,0xFFFF
10.662994791666666,0,0xA0A0,0xFFFF
10.663019999999999,0,0x2006,0xFFFF
10.663044624999999,0,0x0000,0xFFFF
10.663070125000001,0,0x2007,0xFFFF
10.663095708333334,0,0x1010,0xFFFF
10.663121708333334,0,0x2008,0xFFFF
10.663146833333334,0,0xA0A0,0xFFFF
10.663172375000000,0,0x2009,0xFFFF
10.663197541666667,0,0xA9A9,0xFFFF
10.663223333333333,0,0x200A,0xFFFF
10.663248541666666,0,0x4F4F,0xFFFF
10.663274041666666,0,0x6004,0xFFFF
10.663299083333333,0,0x0606,0x0000
10.663324749999999,0,0x6004,0xFFFF
10.663349875000000,0,0x0707,0x0000
10.663375500000001,0,0x2005,0xFFFF
10.663400458333333,0,0xA0A0,0xFFFF
10.663425791666667,0,0x2006,0xFFFF
10.663450666666666,0,0x0000,0xFFFF
10.663475916666666,0,0x2007,0xFFFF
10.663500708333334,0,0x3030,0xFFFF
10.663527791666667,0,0x2008,0xFFFF
10.663554749999999,0,0x0606,0xFFFF
10.663580541666667,0,0x2009,0xFFFF
10.663605416666666,0,0x3636,0xFFFF
10.663630791666666,0,0x200A,0xFFFF
10.663655916666666,0,0x4F4F,0xFFFF
10.663681208333333,0,0x6004,0xFFFF
10.663706375000000,0,0x0808,0x0000
10.663732000000000,0,0x6004,0xFFFF
10.663757208333333,0,0x0909,0x0000
10.663782749999999,0,0x2005,0xFFFF
10.663807708333334,0,0xA0A0,0xFFFF
10.663833083333333,0,0x2006,0xFFFF
10.663858125000001,0,0x0000,0xFFFF
10.663883374999999,0,0x2007,0xFFFF
10.663908125000001,0,0x3030,0xFFFF
10.663933666666667,0,0x2008,0xFFFF
10.663958541666666,0,0x2626,0xFFFF
10.663983750000000,0,0x2009,0xFFFF
10.664008666666666,0,0x3636,0xFFFF
10.664033916666666,0,0x200A,0xFFFF
10.664058791666667,0,0x4F4F,0xFFFF
10.664084083333334,0,0x6004,0xFFFF
10.664109333333334,0,0x0A0A,0x0000
10.664134916666667,0,0x6004,0xFFFF
10.664159916666666,0,0x0B0B,0x0000
10.664185249999999,0,0x2005,0xFFFF
10.664210333333333,0,0xA0A0,0xFFFF
10.664235666666666,0,0x2006,0xFFFF
10.664260541666666,0,0x0000,0xFFFF
10.664285958333334,0,0x2007,0xFFFF
10.664310791666667,0,0x4040,0xFFFF
10.664335958333334,0,0x2008,0xFFFF
10.664360958333333,0,0x0000,0xFFFF
10.664386250000000,0,0x2009,0xFFFF
10.664411125000001,0,0x8080,0xFFFF
10.664436374999999,0,0x200A,0xFFFF
10.664461250000000,0,0x4F4F,0xFFFF
10.664486750000000,0,0x6004,0xFFFF
10.664511958333334,0,0x0C0C,0x0000
10.664537416666667,0,0x6004,0xFFFF
10.664562458333334,0,0x0D0D,0x0000
10.664588083333333,0,0x2005,0xFFFF
10.664612958333333,0,0xA0A0,0xFFFF
10.664638291666666,0,0x2006,0xFFFF
10.664663333333333,0,0x0000,0xFFFF
10.664688708333333,0,0x2007,0xFFFF
10.664713791666667,0,0x5050,0xFFFF
10.664739083333334,0,0x2008,0xFFFF
10.664764166666666,0,0xEEEE,0xFFFF
10.664789458333333,0,0x2009,0xFFFF
10.664814291666668,0,0x2222,0xFFFF
10.664839750000001,0,0x200A,0xFFFF
10.664865083333334,0,0x4F4F,0xFFFF
10.664890666666667,0,0x6004,0xFFFF
10.664915916666667,0,0x0E0E,0x0000
10.664941708333334,0,0x6004,0xFFFF
10.664966958333334,0,0x0F0F,0x0000
10.664992249999999,0,0x2005,0xFFFF
10.665017166666667,0,0xA0A0,0xFFFF
10.665042291666667,0,0x2006,0xFFFF
10.665067250000000,0,0x0000,0xFFFF
10.665092666666666,0,0x2007,0xFFFF
10.665117416666666,0,0x3030,0xFFFF
10.665142708333333,0,0x2008,0xFFFF
10.665167625000000,0,0x6C6C,0xFFFF
10.665193125000000,0,0x2009,0xFFFF
10.665218125000001,0,0x9E9E,0xFFFF
10.665243583333334,0,0x200A,0xFFFF
10.665268458333333,0,0x4F4F,0xFFFF
10.665293958333333,0,0x6004,0xFFFF
10.665319083333333,0,0x1010,0x0000
10.665344583333333,0,0x6004,0xFFFF
10.665369958333333,0,0x1111,0x0000
10.665395458333334,0,0x2005,0xFFFF
10.665420375000000,0,0xA0A0,0xFFFF
10.665446083333334,0,0x2006,0xFFFF
10.665471000000000,0,0x0000,0xFFFF
10.665496291666667,0,0x2007,0xFFFF
10.665526750000000,0,0x5050,0xFFFF
10.665552500000000,0,0x2008,0xFFFF
10.665577791666667,0,0x6868,0xFFFF
10.665603333333333,0,0x2009,0xFFFF
10.665628291666666,0,0x4040,0xFFFF
10.665653750000001,0,0x200A,0xFFFF
10.665678708333333,0,0x4F4F,0xFFFF
10.665704166666666,0,0x6004,0xFFFF
10.665729416666666,0,0x1212,0x0000
10.665755125000000,0,0x6004,0xFFFF
10.665780249999999,0,0x1313,0x0000
10.665805708333334,0,0x2005,0xFFFF
10.665830750000000,0,0xA0A0,0xFFFF
10.665856166666666,0,0x2006,0xFFFF
10.665881166666667,0,0x0000,0xFFFF
10.665906541666667,0,0x2007,0xFFFF
10.665931541666666,0,0x1010,0xFFFF
10.665956833333333,0,0x2008,0xFFFF
10.665981791666667,0,0x0000,0xFFFF
10.666007416666666,0,0x2009,0xFFFF
10.666032500000000,0,0x8080,0xFFFF
10.666057666666667,0,0x200A,0xFFFF
10.666082583333333,0,0x4F4F,0xFFFF
10.666107833333333,0,0x6004,0xFFFF
10.666133000000000,0,0x1414,0x0000
10.666158583333333,0,0x6004,0xFFFF
10.666183666666667,0,0x1515,0x0000
10.666209166666667,0,0x2005,0xFFFF
10.666234291666667,0,0xA0A0,0xFFFF
10.666259750000000,0,0x2006,0xFFFF
10.666284666666666,0,0x0000,0xFFFF
10.666310041666666,0,0x2007,0xFFFF
10.666335041666667,0,0x5050,0xFFFF
10.666360583333333,0,0x2008,0xFFFF
10.666385583333334,0,0x8E8E,0xFFFF
10.666411000000000,0,0x2009,0xFFFF
10.666436083333334,0,0x2222,0xFFFF
10.666461625000000,0,0x200A,0xFFFF
10.666486666666666,0,0x4F4F,0xFFFF
10.666512166666667,0,0x6004,0xFFFF
10.666537416666667,0,0x1616,0x0000
10.666562833333334,0,0x6004,0xFFFF
10.666587874999999,0,0x1717,0x0000
10.666613500000000,0,0x2005,0xFFFF
10.666638333333333,0,0xA0A0,0xFFFF
10.666663583333333,0,0x2006,0xFFFF
10.666688708333334,0,0x0000,0xFFFF
10.666714125000000,0,0x2007,0xFFFF
10.666739041666666,0,0x3030,0xFFFF
10.666764291666667,0,0x2008,0xFFFF
10.666789541666667,0,0x8C8C,0xFFFF
10.666814833333333,0,0x2009,0xFFFF
10.666839791666666,0,0x9F9F,0xFFFF
10.666865124999999,0,0x200A,0xFFFF
10.666890250000000,0,0x4F4F,0xFFFF
10.666915749999999,0,0x6004,0xFFFF
10.666940916666666,0,0x1818,0x0000
10.666966374999999,0,0x6004,0xFFFF
10.666991749999999,0,0x1919,0x0000
10.667017333333334,0,0x2005,0xFFFF
10.667042250000000,0,0xA0A0,0xFFFF
10.667067583333333,0,0x2006,0xFFFF
10.667092291666666,0,0x0000,0xFFFF
10.667117666666666,0,0x2007,0xFFFF
10.667142750000000,0,0x5050,0xFFFF
10.667168125000000,0,0x2008,0xFFFF
10.667193041666666,0,0xA8A8,0xFFFF
10.667218208333333,0,0x2009,0xFFFF
10.667243166666667,0,0x2F2F,0xFFFF
10.667268458333334,0,0x200A,0xFFFF
10.667293250000000,0,0x4F4F,0xFFFF
10.667318625000000,0,0x6004,0xFFFF
10.667344041666666,0,0x1A1A,0x0000
10.667369375000000,0,0x6004,0xFFFF
10.667394375000001,0,0x1B1B,0x0000
10.667419916666667,0,0x2005,0xFFFF
10.667444874999999,0,0xA0A0,0xFFFF
10.667470124999999,0,0x2006,0xFFFF
10.667495083333334,0,0x0000,0xFFFF
10.667520458333334,0,0x2007,0xFFFF
10.667545416666666,0,0x1010,0xFFFF
10.667570958333334,0,0x2008,0xFFFF
10.667595833333333,0,0x0000,0xFFFF
10.667621208333333,0,0x2009,0xFFFF
10.667645916666666,0,0x8080,0xFFFF
10.667671083333333,0,0x200A,0xFFFF
10.667696125000001,0,0x4F4F,0xFFFF
10.667721416666666,0,0x6004,0xFFFF
10.667746541666666,0,0x1C1C,0x0000
10.667772125000001,0,0x6004,0xFFFF
10.667797291666666,0,0x1D1D,0x0000
10.667822749999999,0,0x2005,0xFFFF
10.667848083333332,0,0xA0A0,0xFFFF
10.667873291666666,0,0x2006,0xFFFF
10.667898208333334,0,0x0000,0xFFFF
10.667923416666667,0,0x2007,0xFFFF
10.667948375000000,0,0x5050,0xFFFF
10.667973541666667,0,0x2008,0xFFFF
10.667998250000000,0,0xA0A0,0xFFFF
10.668023583333333,0,0x2009,0xFFFF
10.668048458333333,0,0xA9A9,0xFFFF
10.668073874999999,0,0x200A,0xFFFF
10.668099000000000,0,0x4F4F,0xFFFF
10.668124541666666,0,0x6004,0xFFFF
10.668149708333333,0,0x1E1E,0x0000
10.668175166666666,0,0x6004,0xFFFF
10.668200333333333,0,0x1F1F,0x0000
10.668226041666667,0,0x2005,0xFFFF
10.668251083333333,0,0xA0A0,0xFFFF
10.668276416666666,0,0x2006,0xFFFF
10.668301291666667,0,0x0000,0xFFFF
10.668326416666666,0,0x2007,0xFFFF
10.668351250000001,0,0x5050,0xFFFF
10.668376541666667,0,0x2008,0xFFFF
10.668401458333333,0,0xA0A0,0xFFFF
10.668426541666667,0,0x2009,0xFFFF
10.668451416666667,0,0xA4A4,0xFFFF
10.668476750000000,0,0x200A,0xFFFF
10.668501583333333,0,0x4F4F,0xFFFF
10.668526958333333,0,0x6004,0xFFFF
10.668552249999999,0,0x2020,0x0000
10.668577833333334,0,0x6004,0xFFFF
10.668602958333333,0,0x2121,0x0000
10.668628416666667,0,0x2005,0xFFFF
10.668653333333333,0,0xA0A0,0xFFFF
10.668678500000000,0,0x2006,0xFFFF
10.668703416666666,0,0x0000,0xFFFF
10.668728625000000,0,0x2007,0xFFFF
10.668753541666666,0,0x5050,0xFFFF
10.668778874999999,0,0x2008,0xFFFF
10.668803625000001,0,0x6060,0xFFFF
10.668828749999999,0,0x2009,0xFFFF
10.668853625000001,0,0x1C1C,0xFFFF
10.668878958333334,0,0x200A,0xFFFF
10.668903999999999,0,0x4F4F,0xFFFF
10.668929625000001,0,0x6004,0xFFFF
10.668954875000001,0,0x2222,0x0000
10.668980583333333,0,0x6004,0xFFFF
10.669005708333334,0,0x2323,0x0000
10.669031291666666,0,0x2005,0xFFFF
10.669056333333334,0,0xA0A0,0xFFFF
10.669081708333334,0,0x2006,0xFFFF
10.669106625000000,0,0x0000,0xFFFF
10.669131833333333,0,0x2007,0xFFFF
10.669156750000001,0,0x5050,0xFFFF
10.669182208333334,0,0x2008,0xFFFF
10.669207041666667,0,0xA0A0,0xFFFF
10.669232458333333,0,0x2009,0xFFFF
10.669257500000001,0,0xA4A4,0xFFFF
10.669282708333334,0,0x200A,0xFFFF
10.669307500000000,0,0x4F4F,0xFFFF
10.669332875000000,0,0x6004,0xFFFF
10.669358125000000,0,0x2424,0x0000
10.669383625000000,0,0x6004,0xFFFF
10.669408750000001,0,0x2525,0x0000
10.669434250000000,0,0x2005,0xFFFF
10.669459083333333,0,0xA0A0,0xFFFF
10.669484416666666,0,0x2006,0xFFFF
10.669516458333334,0,0x0000,0xFFFF
10.669543000000001,0,0x2007,0xFFFF
10.669568541666667,0,0x0000,0xFFFF
10.669594041666667,0,0x2008,0xFFFF
10.669619000000001,0,0xA0A0,0xFFFF
10.669644208333333,0,0x2009,0xFFFF
10.669669083333334,0,0xA9A9,0xFFFF
10.669694458333334,0,0x200A,0xFFFF
10.669719750000001,0,0x4F4F,0xFFFF
10.669745291666667,0,0x6004,0xFFFF
10.669770708333333,0,0x2626,0x0000
10.669796375000001,0,0x6004,0xFFFF
10.669821666666667,0,0x2727,0x0000
10.669847250000000,0,0x2005,0xFFFF
10.669872083333333,0,0xA0A0,0xFFFF
10.669897583333332,0,0x2006,0xFFFF
10.669922416666667,0,0x0000,0xFFFF
10.669947958333333,0,0x2007,0xFFFF
10.669973000000001,0,0x5050,0xFFFF
10.669998166666666,0,0x2008,0xFFFF
10.670023250000000,0,0x4040,0xFFFF
10.670048500000000,0,0x2009,0xFFFF
10.670073500000001,0,0x3636,0xFFFF
10.670098749999999,0,0x200A,0xFFFF
10.670123541666667,0,0x4F4F,0xFFFF
10.670148791666668,0,0x6004,0xFFFF
10.670174083333333,0,0x2828,0x0000
10.670199750000000,0,0x6004,0xFFFF
10.670224791666667,0,0x2929,0x0000
10.670250333333334,0,0x2005,0xFFFF
10.670275208333333,0,0xA0A0,0xFFFF
10.670300583333333,0,0x2006,0xFFFF
10.670325708333333,0,0x0000,0xFFFF
10.670351250000000,0,0x2007,0xFFFF
10.670376250000000,0,0x5050,0xFFFF
10.670401583333334,0,0x2008,0xFFFF
10.670426541666666,0,0xC0C0,0xFFFF
10.670451916666666,0,0x2009,0xFFFF
10.670476958333333,0,0xCDCD,0xFFFF
10.670502125000001,0,0x200A,0xFFFF
10.670527125000000,0,0x4F4F,0xFFFF
10.670552541666666,0,0x6004,0xFFFF
10.670577708333333,0,0x2A2A,0x0000
10.670603083333333,0,0x6004,0xFFFF
10.670628250000000,0,0x2B2B,0x0000
10.670653874999999,0,0x2005,0xFFFF
10.670678916666667,0,0xA0A0,0xFFFF
10.670704208333333,0,0x2006,0xFFFF
10.670729208333332,0,0x0000,0xFFFF
10.670754416666666,0,0x2007,0xFFFF
10.670779250000001,0,0x5050,0xFFFF
10.670804541666667,0,0x2008,0xFFFF
10.670829458333333,0,0xA0A0,0xFFFF
10.670854541666667,0,0x2009,0xFFFF
10.670879500000000,0,0x3636,0xFFFF
10.670904916666666,0,0x200A,0xFFFF
10.670929791666667,0,0x4F4F,0xFFFF
10.670955125000001,0,0x6004,0xFFFF
10.670980291666666,0,0x2C2C,0x0000
10.671005750000001,0,0x6004,0xFFFF
10.671031291666667,0,0x2D2D,0x0000
10.671057375000000,0,0x2005,0xFFFF
10.671082500000001,0,0xA0A0,0xFFFF
10.671108000000000,0,0x2006,0xFFFF
10.671132833333333,0,0x0000,0xFFFF
10.671158083333333,0,0x2007,0xFFFF
10.671183166666667,0,0x5050,0xFFFF
10.671208416666667,0,0x2008,0xFFFF
10.671233375000000,0,0x8E8E,0xFFFF
10.671258625000000,0,0x2009,0xFFFF
10.671283708333334,0,0x2222,0xFFFF
10.671309166666667,0,0x200A,0xFFFF
10.671334375000001,0,0x4F4F,0xFFFF
10.671360125000000,0,0x6004,0xFFFF
10.671385208333334,0,0x2E2E,0x0000
10.671410666666667,0,0x6004,0xFFFF
10.671435875000000,0,0x2F2F,0x0000
10.671461333333333,0,0x2005,0xFFFF
10.671486291666668,0,0xA0A0,0xFFFF
10.671511458333333,0,0x2006,0xFFFF
10.671536500000000,0,0x0000,0xFFFF
10.671561666666667,0,0x2007,0xFFFF
10.671586416666667,0,0x3030,0xFFFF
10.671611625000001,0,0x2008,0xFFFF
10.671636500000000,0,0x6C6C,0xFFFF
10.671661625000000,0,0x2009,0xFFFF
10.671686541666666,0,0xA8A8,0xFFFF
10.671712125000001,0,0x200A,0xFFFF
10.671737374999999,0,0x4F4F,0xFFFF
10.671762708333333,0,0x6004,0xFFFF
10.671787875000000,0,0x3030,0x0000
10.671813250000000,0,0x6004,0xFFFF
10.671838375000000,0,0x3131,0x0000
10.671863666666667,0,0x2005,0xFFFF
10.671888583333333,0,0xA0A0,0xFFFF
10.671913875000000,0,0x2006,0xFFFF
10.671938750000001,0,0x0000,0xFFFF
10.671964041666667,0,0x2007,0xFFFF
10.671989041666667,0,0x0000,0xFFFF
10.672014541666666,0,0x2008,0xFFFF
10.672039791666666,0,0xEEEE,0xFFFF
10.672065125000000,0,0x2009,0xFFFF
10.672090291666667,0,0x9999,0xFFFF
10.672115625000000,0,0x200A,0xFFFF
10.672140666666667,0,0x4F4F,0xFFFF
10.672165958333334,0,0x6004,0xFFFF
10.672191166666666,0,0x3232,0x0000
10.672216583333332,0,0x6004,0xFFFF
10.672241916666668,0,0x3333,0x0000
10.672267416666667,0,0x2005,0xFFFF
10.672292333333333,0,0xA0A0,0xFFFF
10.672317583333333,0,0x2006,0xFFFF
10.672342666666667,0,0x0000,0xFFFF
10.672367791666666,0,0x2007,0xFFFF
10.672392708333334,0,0x3030,0xFFFF
10.672417958333334,0,0x2008,0xFFFF
10.672442875000000,0,0x8C8C,0xFFFF
10.672468083333333,0,0x2009,0xFFFF
10.672492875000000,0,0xA1A1,0xFFFF
10.672518166666666,0,0x200A,0xFFFF
10.672542916666666,0,0x4F4F,0xFFFF
10.672568166666666,0,0x6004,0xFFFF
10.672593291666667,0,0x3434,0x0000
10.672618791666666,0,0x6004,0xFFFF
10.672643958333333,0,0x3535,0x0000
10.672669583333333,0,0x2005,0xFFFF
10.672694500000000,0,0xA0A0,0xFFFF
10.672719875000000,0,0x2006,0xFFFF
10.672744833333333,0,0x0000,0xFFFF
10.672770000000000,0,0x2007,0xFFFF
10.672794874999999,0,0x5050,0xFFFF
10.672820124999999,0,0x2008,0xFFFF
10.672845000000001,0,0x4040,0xFFFF
10.672870250000001,0,0x2009,0xFFFF
10.672895166666667,0,0x3636,0xFFFF
10.672920458333333,0,0x200A,0xFFFF
10.672945750000000,0,0x4F4F,0xFFFF
10.672971250000000,0,0x6004,0xFFFF
10.672996333333334,0,0x3636,0x0000
10.673021833333333,0,0x6004,0xFFFF
10.673047000000000,0,0x3737,0x0000
10.673072416666667,0,0x2005,0xFFFF
10.673097458333332,0,0xA0A0,0xFFFF
10.673122583333333,0,0x2006,0xFFFF
10.673147666666667,0,0x0000,0xFFFF
10.673173333333333,0,0x2007,0xFFFF
10.673199041666667,0,0x5050,0xFFFF
10.673224541666666,0,0x2008,0xFFFF
10.673249625000000,0,0xC0C0,0xFFFF
10.673275041666667,0,0x2009,0xFFFF
10.673299916666666,0,0xCDCD,0xFFFF
10.673325208333333,0,0x200A,0xFFFF
10.673350041666666,0,0x4F4F,0xFFFF
10.673375333333333,0,0x6004,0xFFFF
10.673400500000000,0,0x3838,0x0000
10.673425916666666,0,0x6004,0xFFFF
10.673451000000000,0,0x3939,0x0000
10.673476416666666,0,0x2005,0xFFFF
10.673501333333334,0,0xA0A0,0xFFFF
10.673532124999999,0,0x2006,0xFFFF
10.673557958333333,0,0x0000,0xFFFF
10.673583583333333,0,0x2007,0xFFFF
10.673608500000000,0,0x5050,0xFFFF
10.673634833333333,0,0x2008,0xFFFF
10.673660291666666,0,0xA0A0,0xFFFF
10.673686083333333,0,0x2009,0xFFFF
10.673711333333333,0,0xA9A9,0xFFFF
10.673736666666667,0,0x200A,0xFFFF
10.673761708333334,0,0x4F4F,0xFFFF
10.673787250000000,0,0x6004,0xFFFF
10.673812500000000,0,0x3A3A,0x0000
10.673838083333333,0,0x6004,0xFFFF
10.673863125000000,0,0x3B3B,0x0000
10.673888416666667,0,0x2005,0xFFFF
10.673913458333333,0,0xA0A0,0xFFFF
10.673938708333333,0,0x2006,0xFFFF
10.673963541666666,0,0x0000,0xFFFF
10.673989083333334,0,0x2007,0xFFFF
10.674014000000000,0,0x5050,0xFFFF
10.674039416666666,0,0x2008,0xFFFF
10.674064208333334,0,0xA0A0,0xFFFF
10.674089458333333,0,0x2009,0xFFFF
10.674114291666667,0,0xA4A4,0xFFFF
10.674139875000000,0,0x200A,0xFFFF
10.674165083333333,0,0x4F4F,0xFFFF
10.674190333333334,0,0x6004,0xFFFF
10.674215500000001,0,0x3C3C,0x0000
10.674241083333333,0,0x6004,0xFFFF
10.674266333333334,0,0x3D3D,0x0000
10.674291708333334,0,0x2005,0xFFFF
10.674316708333333,0,0xA0A0,0xFFFF
10.674341875000000,0,0x2006,0xFFFF
10.674366750000001,0,0x0000,0xFFFF
10.674392083333334,0,0x2007,0xFFFF
10.674416958333333,0,0x5050,0xFFFF
10.674442416666666,0,0x2008,0xFFFF
10.674467291666666,0,0x4040,0xFFFF
10.674492499999999,0,0x2009,0xFFFF
10.674517416666667,0,0x3636,0xFFFF
10.674542875000000,0,0x200A,0xFFFF
10.674568291666667,0,0x4F4F,0xFFFF
10.674593625000000,0,0x6004,0xFFFF
10.674618875000000,0,0x3E3E,0x0000
10.674644375000000,0,0x6004,0xFFFF
10.674669375000001,0,0x3F3F,0x0000
10.674694833333334,0,0x2005,0xFFFF
10.674719916666668,0,0xA0A0,0xFFFF
10.674745333333334,0,0x2006,0xFFFF
10.674770333333333,0,0x0000,0xFFFF
10.674795625000000,0,0x2007,0xFFFF
10.674820499999999,0,0x5050,0xFFFF
10.674845916666667,0,0x2008,0xFFFF
10.674870833333333,0,0xA0A0,0xFFFF
10.674896166666667,0,0x2009,0xFFFF
10.674921166666667,0,0xA4A4,0xFFFF
10.674946541666667,0,0x200A,0xFFFF
10.674971625000000,0,0x4F4F,0xFFFF
10.674996875000000,0,0x6004,0xFFFF
10.675021958333334,0,0x4040,0x0000
10.675047500000000,0,0x6004,0xFFFF
10.675072666666667,0,0x4141,0x0000
10.675098458333334,0,0x2005,0xFFFF
10.675123458333333,0,0xA0A0,0xFFFF
10.675148708333333,0,0x2006,0xFFFF
10.675173791666667,0,0x0000,0xFFFF
10.675198916666666,0,0x2007,0xFFFF
10.675224083333333,0,0x5050,0xFFFF
10.675249250000000,0,0x2008,0xFFFF
10.675274458333334,0,0xA0A0,0xFFFF
10.675299791666667,0,0x2009,0xFFFF
10.675324791666666,0,0xA9A9,0xFFFF
10.675350000000000,0,0x200A,0xFFFF
10.675374874999999,0,0x4F4F,0xFFFF
10.675400041666666,0,0x6004,0xFFFF
10.675425125000000,0,0x4242,0x0000
10.675450500000000,0,0x6004,0xFFFF
10.675475791666667,0,0x4343,0x0000
10.675501083333334,0,0x2005,0xFFFF
10.675526124999999,0,0xA0A0,0xFFFF
10.675551208333333,0,0x2006,0xFFFF
10.675576041666666,0,0x0000,0xFFFF
10.675601125000000,0,0x2007,0xFFFF
10.675626041666666,0,0x5050,0xFFFF
10.675651333333333,0,0x2008,0xFFFF
10.675676250000000,0,0xCECE,0xFFFF
10.675701500000001,0,0x2009,0xFFFF
10.675726583333333,0,0x0202,0xFFFF
10.675751958333333,0,0x200A,0xFFFF
10.675776916666667,0,0x4F4F,0xFFFF
10.675802166666667,0,0x6004,0xFFFF
10.675827125000000,0,0x4444,0x0000
10.675852583333333,0,0x6004,0xFFFF
10.675877708333333,0,0x4545,0x0000
10.675903291666666,0,0x2005,0xFFFF
10.675928208333334,0,0xA0A0,0xFFFF
10.675953666666667,0,0x2006,0xFFFF
10.675978499999999,0,0x0000,0xFFFF
10.676003874999999,0,0x2007,0xFFFF
10.676028625000001,0,0x2020,0xFFFF
10.676054083333334,0,0x2008,0xFFFF
10.676078916666667,0,0xCCCC,0xFFFF
10.676104250000000,0,0x2009,0xFFFF
10.676129041666666,0,0x0404,0xFFFF
10.676154291666666,0,0x200A,0xFFFF
10.676179375000000,0,0x4F4F,0xFFFF
10.676204916666666,0,0x6004,0xFFFF
10.676230083333333,0,0x4646,0x0000
10.676255833333334,0,0x6004,0xFFFF
10.676281124999999,0,0x4747,0x0000
10.676306666666667,0,0x2005,0xFFFF
10.676331749999999,0,0xA0A0,0xFFFF
10.676357124999999,0,0x2006,0xFFFF
10.676382125000000,0,0x0000,0xFFFF
10.676407500000000,0,0x2007,0xFFFF
10.676432583333334,0,0x5050,0xFFFF
10.676457958333334,0,0x2008,0xFFFF
10.676482833333333,0,0xEEEE,0xFFFF
10.676508208333333,0,0x2009,0xFFFF
10.676533166666667,0,0x1919,0xFFFF
10.676558375000001,0,0x200A,0xFFFF
10.676583125000001,0,0x4F4F,0xFFFF
10.676608458333334,0,0x6004,0xFFFF
10.676633666666667,0,0x4848,0x0000
10.676659208333334,0,0x6004,0xFFFF
10.676684500000000,0,0x4949,0x0000
10.676709958333333,0,0x2005,0xFFFF
10.676734916666666,0,0xA0A0,0xFFFF
10.676760166666666,0,0x2006,0xFFFF
10.676785208333333,0,0x0000,0xFFFF
10.676810458333334,0,0x2007,0xFFFF
10.676835375000000,0,0x3030,0xFFFF
10.676860708333333,0,0x2008,0xFFFF
10.676885583333334,0,0x6C6C,0xFFFF
10.676910833333332,0,0x2009,0xFFFF
10.676935833333333,0,0xA8A8,0xFFFF
10.676961125000000,0,0x200A,0xFFFF
10.676986208333334,0,0x4F4F,0xFFFF
10.677011458333334,0,0x6004,0xFFFF
10.677036583333333,0,0x4A4A,0x0000
10.677062083333333,0,0x6004,0xFFFF
10.677087125000000,0,0x4B4B,0x0000
10.677112500000000,0,0x2005,0xFFFF
10.677137458333334,0,0xA0A0,0xFFFF
10.677162708333332,0,0x2006,0xFFFF
10.677187666666667,0,0x0000,0xFFFF
10.677212875000000,0,0x2007,0xFFFF
10.677237833333333,0,0x5050,0xFFFF
10.677263166666666,0,0x2008,0xFFFF
10.677288208333334,0,0x8686,0xFFFF
10.677313500000000,0,0x2009,0xFFFF
10.677338416666666,0,0x1B1B,0xFFFF
10.677363750000000,0,0x200A,0xFFFF
10.677388666666667,0,0x4F4F,0xFFFF
10.677414000000001,0,0x6004,0xFFFF
10.677439333333334,0,0x4C4C,0x0000
10.677464791666667,0,0x6004,0xFFFF
10.677490000000001,0,0x4D4D,0x0000
10.677515458333334,0,0x2005,0xFFFF
10.677541416666667,0,0xA0A0,0xFFFF
10.677567208333333,0,0x2006,0xFFFF
10.677592416666666,0,0x0000,0xFFFF
10.677617750000000,0,0x2007,0xFFFF
10.677642833333334,0,0x2020,0xFFFF
10.677667958333334,0,0x2008,0xFFFF
10.677692708333334,0,0x6868,0xFFFF
10.677717666666666,0,0x2009,0xFFFF
10.677742708333334,0,0x4040,0xFFFF
10.677767875000001,0,0x200A,0xFFFF
10.677793333333334,0,0x4F4F,0xFFFF
10.677818625000000,0,0x6004,0xFFFF
10.677843916666667,0,0x4E4E,0x0000
10.677869583333333,0,0x6004,0xFFFF
10.677894750000000,0,0x4F4F,0x0000
10.677920333333333,0,0x2005,0xFFFF
10.677945375000000,0,0xA0A0,0xFFFF
10.677970541666667,0,0x2006,0xFFFF
10.677995458333333,0,0x0000,0xFFFF
10.678020666666667,0,0x2007,0xFFFF
10.678045583333333,0,0x1010,0xFFFF
10.678070875000000,0,0x2008,0xFFFF
10.678095708333334,0,0xCECE,0xFFFF
10.678120958333333,0,0x2009,0xFFFF
10.678146041666666,0,0x2222,0xFFFF
10.678171375000000,0,0x200A,0xFFFF
10.678196458333334,0,0x4F4F,0xFFFF
10.678221708333334,0,0x6004,0xFFFF
10.678246958333334,0,0x5050,0x0000
10.678272541666667,0,0x6004,0xFFFF
10.678297791666667,0,0x5151,0x0000
10.678323291666667,0,0x2005,0xFFFF
10.678348666666666,0,0xA0A0,0xFFFF
10.678374041666666,0,0x2006,0xFFFF
10.678398958333334,0,0x0000,0xFFFF
10.678424124999999,0,0x2007,0xFFFF
10.678448916666667,0,0x3030,0xFFFF
10.678474166666666,0,0x2008,0xFFFF
10.678499000000000,0,0x2C2C,0xFFFF
10.678524208333334,0,0x2009,0xFFFF
10.678549250000000,0,0xA2A2,0xFFFF
10.678574708333333,0,0x200A,0xFFFF
10.678599708333333,0,0x4F4F,0xFFFF
10.678624916666667,0,0x6004,0xFFFF
10.678650250000000,0,0x5252,0x0000
10.678675791666667,0,0x6004,0xFFFF
10.678701000000000,0,0x5353,0x0000
10.678726416666667,0,0x2005,0xFFFF
10.678751291666666,0,0xA0A0,0xFFFF
10.678776541666666,0,0x2006,0xFFFF
10.678801583333334,0,0x0000,0xFFFF
10.678826750000001,0,0x2007,0xFFFF
10.678851625000000,0,0x0000,0xFFFF
10.678876875000000,0,0x2008,0xFFFF
10.678901708333333,0,0x4040,0xFFFF
10.678927041666666,0,0x2009,0xFFFF
10.678951916666668,0,0x3838,0xFFFF
10.678977166666666,0,0x200A,0xFFFF
10.679002125000000,0,0x4F4F,0xFFFF
10.679027416666667,0,0x6004,0xFFFF
10.679052583333334,0,0x5454,0x0000
10.679078125000000,0,0x6004,0xFFFF
10.679103166666666,0,0x5555,0x0000
10.679128583333334,0,0x2005,0xFFFF
10.679153500000000,0,0xA0A0,0xFFFF
10.679178750000000,0,0x2006,0xFFFF
10.679203958333334,0,0x0000,0xFFFF
10.679229333333334,0,0x2007,0xFFFF
10.679254333333333,0,0x5050,0xFFFF
10.679279541666666,0,0x2008,0xFFFF
10.679304500000001,0,0x4646,0xFFFF
10.679329791666667,0,0x2009,0xFFFF
10.679354791666666,0,0x3838,0xFFFF
10.679380208333333,0,0x200A,0xFFFF
10.679405458333333,0,0x4F4F,0xFFFF
10.679430875000000,0,0x6004,0xFFFF
10.679456041666667,0,0x5656,0x0000
10.679481500000000,0,0x6004,0xFFFF
10.679506625000000,0,0x5757,0x0000
10.679532125000000,0,0x2005,0xFFFF
10.679557125000001,0,0xA0A0,0xFFFF
10.679582249999999,0,0x2006,0xFFFF
10.679607166666667,0,0x0000,0xFFFF
10.679632416666667,0,0x2007,0xFFFF
10.679657208333333,0,0x2020,0xFFFF
10.679682458333334,0,0x2008,0xFFFF
10.679707291666666,0,0x8686,0xFFFF
10.679732583333333,0,0x2009,0xFFFF
10.679757416666666,0,0x1B1B,0xFFFF
10.679782708333333,0,0x200A,0xFFFF
10.679807750000000,0,0x4F4F,0xFFFF
10.679833041666667,0,0x6004,0xFFFF
10.679857958333333,0,0x5858,0x0000
10.679883374999999,0,0x6004,0xFFFF
10.679908500000000,0,0x5959,0x0000
10.679933958333333,0,0x2005,0xFFFF
10.679958833333334,0,0xA0A0,0xFFFF
10.679984083333334,0,0x2006,0xFFFF
10.680008833333334,0,0x0000,0xFFFF
10.680034250000000,0,0x2007,0xFFFF
10.680059291666666,0,0x2020,0xFFFF
10.680084416666666,0,0x2008,0xFFFF
10.680109249999999,0,0xEEEE,0xFFFF
10.680134583333333,0,0x2009,0xFFFF
10.680159416666667,0,0x2222,0xFFFF
10.680184708333334,0,0x200A,0xFFFF
10.680209541666667,0,0x4F4F,0xFFFF
10.680234875000000,0,0x6004,0xFFFF
10.680259875000001,0,0x5A5A,0x0000
10.680285416666667,0,0x6004,0xFFFF
10.680310541666667,0,0x5B5B,0x0000
10.680336041666667,0,0x2005,0xFFFF
10.680361083333333,0,0xA0A0,0xFFFF
10.680386416666666,0,0x2006,0xFFFF
10.680411166666667,0,0x0000,0xFFFF
10.680436500000001,0,0x2007,0xFFFF
10.680461708333333,0,0x3030,0xFFFF
10.680486875000000,0,0x2008,0xFFFF
10.680511750000001,0,0x2C2C,0xFFFF
10.680536958333333,0,0x2009,0xFFFF
10.680561875000000,0,0xA3A3,0xFFFF
10.680587375000000,0,0x200A,0xFFFF
10.680612291666666,0,0x4F4F,0xFFFF
10.680637583333333,0,0x6004,0xFFFF
10.680662625000000,0,0x5C5C,0x0000
10.680688041666667,0,0x6004,0xFFFF
10.680713208333334,0,0x5D5D,0x0000
10.680738791666666,0,0x2005,0xFFFF
10.680763625000001,0,0xA0A0,0xFFFF
10.680788833333333,0,0x2006,0xFFFF
10.680813791666667,0,0x0000,0xFFFF
10.680839250000000,0,0x2007,0xFFFF
10.680864333333334,0,0x0000,0xFFFF
10.680889708333334,0,0x2008,0xFFFF
10.680914625000000,0,0x4E4E,0xFFFF
10.680939916666667,0,0x2009,0xFFFF
10.680964833333332,0,0x2323,0xFFFF
10.680990041666666,0,0x200A,0xFFFF
10.681015208333333,0,0x4F4F,0xFFFF
10.681040541666666,0,0x6004,0xFFFF
10.681065541666667,0,0x5E5E,0x0000
10.681091000000000,0,0x6004,0xFFFF
10.681116458333333,0,0x5F5F,0x0000
10.681143041666667,0,0x2005,0xFFFF
10.681168458333334,0,0xA0A0,0xFFFF
10.681193875000000,0,0x2006,0xFFFF
10.681218875000001,0,0x0000,0xFFFF
10.681244291666667,0,0x2007,0xFFFF
10.681269374999999,0,0x3030,0xFFFF
10.681294666666666,0,0x2008,0xFFFF
10.681319666666667,0,0x2C2C,0xFFFF
10.681344875000001,0,0x2009,0xFFFF
10.681369916666666,0,0xA3A3,0xFFFF
10.681395166666666,0,0x200A,0xFFFF
10.681419958333333,0,0x4F4F,0xFFFF
10.681445166666666,0,0x6004,0xFFFF
10.681470333333333,0,0x6060,0x0000
10.681495833333333,0,0x6004,0xFFFF
10.681521083333333,0,0x6161,0x0000
10.681547958333333,0,0x2005,0xFFFF
10.681573166666666,0,0xA0A0,0xFFFF
10.681598458333333,0,0x2006,0xFFFF
10.681623333333333,0,0x0000,0xFFFF
10.681648583333333,0,0x2007,0xFFFF
10.681673583333334,0,0x5050,0xFFFF
10.681698750000001,0,0x2008,0xFFFF
10.681723750000000,0,0x4040,0xFFFF
10.681748958333333,0,0x2009,0xFFFF
10.681773916666666,0,0x3838,0xFFFF
10.681799083333333,0,0x200A,0xFFFF
10.681824000000001,0,0x4F4F,0xFFFF
10.681849166666666,0,0x6004,0xFFFF
10.681874375000000,0,0x6262,0x0000
10.681899708333333,0,0x6004,0xFFFF
10.681924833333333,0,0x6363,0x0000
10.681950375000000,0,0x2005,0xFFFF
10.681975416666667,0,0xA0A0,0xFFFF
10.682001250000001,0,0x2006,0xFFFF
10.682026166666667,0,0x0000,0xFFFF
10.682051458333333,0,0x2007,0xFFFF
10.682076458333333,0,0x5050,0xFFFF
10.682102000000000,0,0x2008,0xFFFF
10.682127041666666,0,0x4040,0xFFFF
10.682152333333333,0,0x2009,0xFFFF
10.682177416666667,0,0x3636,0xFFFF
10.682202833333333,0,0x200A,0xFFFF
10.682227624999999,0,0x4F4F,0xFFFF
10.682252791666667,0,0x6004,0xFFFF
10.682278000000000,0,0x6464,0x0000
10.682303333333333,0,0x6004,0xFFFF
10.682328375000001,0,0x6565,0x0000
10.682353875000000,0,0x2005,0xFFFF
10.682378750000000,0,0xA0A0,0xFFFF
10.682403875000000,0,0x2006,0xFFFF
10.682428791666666,0,0x0000,0xFFFF
10.682454166666666,0,0x2007,0xFFFF
10.682479166666667,0,0x5050,0xFFFF
10.682504333333334,0,0x2008,0xFFFF
10.682529208333333,0,0x6E6E,0xFFFF
10.682554458333334,0,0x2009,0xFFFF
10.682579375000000,0,0x2020,0xFFFF
10.682604625000000,0,0x200A,0xFFFF
10.682630000000000,0,0x4F4F,0xFFFF
10.682655499999999,0,0x6004,0xFFFF
10.682680666666666,0,0x6666,0x0000
10.682706166666666,0,0x6004,0xFFFF
10.682731291666666,0,0x6767,0x0000
10.682756708333333,0,0x2005,0xFFFF
10.682781583333334,0,0xA0A0,0xFFFF
10.682806833333334,0,0x2006,0xFFFF
10.682831708333334,0,0x0000,0xFFFF
10.682857041666667,0,0x2007,0xFFFF
10.682882166666667,0,0x3030,0xFFFF
10.682907291666666,0,0x2008,0xFFFF
10.682932166666667,0,0x6C6C,0xFFFF
10.682957500000001,0,0x2009,0xFFFF
10.682982291666667,0,0xA5A5,0xFFFF
10.683007416666667,0,0x200A,0xFFFF
10.683032416666666,0,0x4F4F,0xFFFF
10.683057541666667,0,0x6004,0xFFFF
10.683082458333333,0,0x6868,0x0000
10.683107833333333,0,0x6004,0xFFFF
10.683132958333333,0,0x6969,0x0000
10.683158333333333,0,0x2005,0xFFFF
10.683183291666667,0,0xA0A0,0xFFFF
10.683208499999999,0,0x2006,0xFFFF
10.683233291666667,0,0x0000,0xFFFF
10.683259166666666,0,0x2007,0xFFFF
10.683284625000001,0,0x0000,0xFFFF
10.683310083333334,0,0x2008,0xFFFF
10.683334791666667,0,0xA8A8,0xFFFF
10.683360041666667,0,0x2009,0xFFFF
10.683384958333333,0,0x4141,0xFFFF
10.683410166666667,0,0x200A,0xFFFF
10.683435083333332,0,0x4F4F,0xFFFF
10.683460374999999,0,0x6004,0xFFFF
10.683485500000000,0,0x6A6A,0x0000
10.683510791666667,0,0x6004,0xFFFF
10.683536125000000,0,0x6B6B,0x0000
10.683561583333333,0,0x2005,0xFFFF
10.683586625000000,0,0xA0A0,0xFFFF
10.683612083333333,0,0x2006,0xFFFF
10.683636958333333,0,0x0000,0xFFFF
10.683662333333332,0,0x2007,0xFFFF
10.683687333333333,0,0x1010,0xFFFF
10.683713166666667,0,0x2008,0xFFFF
10.683738833333333,0,0x4646,0xFFFF
10.683764416666667,0,0x2009,0xFFFF
10.683789416666666,0,0x3636,0xFFFF
10.683814583333334,0,0x200A,0xFFFF
10.683839666666668,0,0x4F4F,0xFFFF
10.683864750000000,0,0x6004,0xFFFF
10.683889916666667,0,0x6C6C,0x0000
10.683915416666666,0,0x6004,0xFFFF
10.683940625000000,0,0x6D6D,0x0000
10.683966041666666,0,0x2005,0xFFFF
10.683991083333334,0,0xA0A0,0xFFFF
10.684016416666667,0,0x2006,0xFFFF
10.684041208333333,0,0x0000,0xFFFF
10.684066416666667,0,0x2007,0xFFFF
10.684091416666666,0,0x3030,0xFFFF
10.684116541666667,0,0x2008,0xFFFF
10.684141416666666,0,0x0000,0xFFFF
10.684166666666666,0,0x2009,0xFFFF
10.684191666666667,0,0x8080,0xFFFF
10.684217458333332,0,0x200A,0xFFFF
10.684242749999999,0,0x4F4F,0xFFFF
10.684268166666667,0,0x6004,0xFFFF
10.684293416666666,0,0x6E6E,0x0000
10.684318958333334,0,0x6004,0xFFFF
10.684344250000001,0,0x6F6F,0x0000
10.684369750000000,0,0x2005,0xFFFF
10.684394749999999,0,0xA0A0,0xFFFF
10.684419875000000,0,0x2006,0xFFFF
10.684444791666667,0,0x0000,0xFFFF
10.684469958333333,0,0x2007,0xFFFF
10.684495083333333,0,0x5050,0xFFFF
10.684520291666667,0,0x2008,0xFFFF
10.684545375000001,0,0x4040,0xFFFF
10.684570624999999,0,0x2009,0xFFFF
10.684595666666667,0,0x3636,0xFFFF
10.684620833333334,0,0x200A,0xFFFF
10.684646125000000,0,0x4F4F,0xFFFF
10.684671458333334,0,0x6004,0xFFFF
10.684696666666667,0,0x7070,0x0000
10.684722125000000,0,0x6004,0xFFFF
10.684747249999999,0,0x7171,0x0000
10.684772750000000,0,0x2005,0xFFFF
10.684797791666666,0,0xA0A0,0xFFFF
10.684822958333333,0,0x2006,0xFFFF
10.684847958333334,0,0x0000,0xFFFF
10.684873250000001,0,0x2007,0xFFFF
10.684898125000000,0,0x5050,0xFFFF
10.684923250000001,0,0x2008,0xFFFF
10.684948166666667,0,0xC0C0,0xFFFF
10.684973250000001,0,0x2009,0xFFFF
10.684998125000000,0,0xCDCD,0xFFFF
10.685023333333334,0,0x200A,0xFFFF
10.685048166666666,0,0x4F4F,0xFFFF
10.685073375000000,0,0x6004,0xFFFF
10.685098583333334,0,0x7272,0x0000
10.685123958333334,0,0x6004,0xFFFF
10.685149166666667,0,0x7373,0x0000
10.685174916666666,0,0x2005,0xFFFF
10.685199958333333,0,0xA0A0,0xFFFF
10.685225333333333,0,0x2006,0xFFFF
10.685250416666667,0,0x0000,0xFFFF
10.685275499999999,0,0x2007,0xFFFF
10.685300416666667,0,0x5050,0xFFFF
10.685325791666667,0,0x2008,0xFFFF
10.685350833333333,0,0x4E4E,0xFFFF
10.685376083333333,0,0x2009,0xFFFF
10.685401041666667,0,0x2323,0xFFFF
10.685426250000001,0,0x200A,0xFFFF
10.685451208333333,0,0x4F4F,0xFFFF
10.685476500000000,0,0x6004,0xFFFF
10.685501750000000,0,0x7474,0x0000
10.685527208333333,0,0x6004,0xFFFF
10.685553125000000,0,0x7575,0x0000
10.685579250000000,0,0x2005,0xFFFF
10.685604416666667,0,0xA0A0,0xFFFF
10.685629666666667,0,0x2006,0xFFFF
10.685654541666667,0,0x0000,0xFFFF
10.685679708333334,0,0x2007,0xFFFF
10.685704749999999,0,0x3030,0xFFFF
10.685729875000000,0,0x2008,0xFFFF
10.685754749999999,0,0x8C8C,0xFFFF
10.685779999999999,0,0x2009,0xFFFF
10.685804875000001,0,0xAAAA,0xFFFF
10.685830208333334,0,0x200A,0xFFFF
10.685855374999999,0,0x4F4F,0xFFFF
10.685880750000001,0,0x6004,0xFFFF
10.685905875000000,0,0x7676,0x0000
10.685931416666667,0,0x6004,0xFFFF
10.685956541666666,0,0x7777,0x0000
10.685981875000000,0,0x2005,0xFFFF
10.686006666666668,0,0xA0A0,0xFFFF
10.686031833333333,0,0x2006,0xFFFF
10.686056916666667,0,0x0000,0xFFFF
10.686082166666667,0,0x2007,0xFFFF
10.686106875000000,0,0x0000,0xFFFF
10.686132000000001,0,0x2008,0xFFFF
10.686157041666666,0,0x2626,0xFFFF
10.686182416666666,0,0x2009,0xFFFF
10.686207375000000,0,0x3636,0xFFFF
10.686232541666667,0,0x200A,0xFFFF
10.686257416666667,0,0x4F4F,0xFFFF
10.686282666666667,0,0x6004,0xFFFF
10.686307749999999,0,0x7878,0x0000
10.686333041666666,0,0x6004,0xFFFF
10.686358333333333,0,0x7979,0x0000
10.686383708333333,0,0x2005,0xFFFF
10.686408541666667,0,0xA0A0,0xFFFF
10.686433750000001,0,0x2006,0xFFFF
10.686458583333334,0,0x0000,0xFFFF
10.686483750000001,0,0x2007,0xFFFF
10.686508708333333,0,0x2020,0xFFFF
10.686533958333333,0,0x2008,0xFFFF
10.686558874999999,0,0x0000,0xFFFF
10.686584291666666,0,0x2009,0xFFFF
10.686609125000000,0,0x8080,0xFFFF
10.686634583333333,0,0x200A,0xFFFF
10.686659541666666,0,0x4F4F,0xFFFF
10.686684791666666,0,0x6004,0xFFFF
10.686709833333333,0,0x7A7A,0x0000
10.686735166666667,0,0x6004,0xFFFF
10.686760583333333,0,0x7B7B,0x0000
10.686785875000000,0,0x2005,0xFFFF
10.686810875000001,0,0xA0A0,0xFFFF
10.686836166666666,0,0x2006,0xFFFF
10.686860916666667,0,0x0000,0xFFFF
10.686886208333334,0,0x2007,0xFFFF
10.686911166666667,0,0x5050,0xFFFF
10.686936500000000,0,0x2008,0xFFFF
10.686961708333333,0,0x4040,0xFFFF
10.686986791666667,0,0x2009,0xFFFF
10.687011833333333,0,0x3636,0xFFFF
10.687037041666667,0,0x200A,0xFFFF
10.687062083333334,0,0x4F4F,0xFFFF
10.687087541666667,0,0x6004,0xFFFF
10.687112750000001,0,0x7C7C,0x0000
10.687138125000001,0,0x6004,0xFFFF
10.687163249999999,0,0x7D7D,0x0000
10.687188541666666,0,0x2005,0xFFFF
10.687213583333333,0,0xA0A0,0xFFFF
10.687238875000000,0,0x2006,0xFFFF
10.687263791666666,0,0x0000,0xFFFF
10.687289125000000,0,0x2007,0xFFFF
10.687314000000001,0,0x5050,0xFFFF
10.687339124999999,0,0x2008,0xFFFF
10.687364000000001,0,0xEEEE,0xFFFF
10.687389083333333,0,0x2009,0xFFFF
10.687413916666667,0,0x0505,0xFFFF
10.687439083333333,0,0x200A,0xFFFF
10.687464250000000,0,0x4F4F,0xFFFF
10.687489583333333,0,0x6004,0xFFFF
10.687514791666667,0,0x7E7E,0x0000
10.687540083333333,0,0x6004,0xFFFF
10.687565166666667,0,0x7F7F,0x0000
10.687590541666667,0,0x2005,0xFFFF
10.687615624999999,0,0xA0A0,0xFFFF
10.687640916666666,0,0x2006,0xFFFF
10.687665875000000,0,0x0000,0xFFFF
10.687690916666666,0,0x2007,0xFFFF
10.687715791666667,0,0x3030,0xFFFF
10.687741000000001,0,0x2008,0xFFFF
10.687766000000000,0,0x8C8C,0xFFFF
10.687791291666667,0,0x2009,0xFFFF
10.687816375000001,0,0xAAAA,0xFFFF
10.687841750000000,0,0x200A,0xFFFF
10.687866833333333,0,0x4F4F,0xFFFF
10.687892124999999,0,0x6004,0xFFFF
10.687917125000000,0,0x8080,0x0000
10.687942749999999,0,0x6004,0xFFFF
10.687967916666667,0,0x8181,0x0000
10.687993250000000,0,0x2005,0xFFFF
10.688018124999999,0,0xA0A0,0xFFFF
10.688043333333333,0,0x2006,0xFFFF
10.688068124999999,0,0x0000,0xFFFF
10.688093250000000,0,0x2007,0xFFFF
10.688118208333334,0,0x5050,0xFFFF
10.688143374999999,0,0x2008,0xFFFF
10.688168250000000,0,0x4E4E,0xFFFF
10.688193291666666,0,0x2009,0xFFFF
10.688218291666667,0,0x1919,0xFFFF
10.688243625000000,0,0x200A,0xFFFF
10.688268458333333,0,0x4F4F,0xFFFF
10.688293583333333,0,0x6004,0xFFFF
10.688318750000001,0,0x8282,0x0000
10.688344208333334,0,0x6004,0xFFFF
10.688369291666667,0,0x8383,0x0000
10.688394458333333,0,0x2005,0xFFFF
10.688419416666667,0,0xA0A0,0xFFFF
10.688444583333334,0,0x2006,0xFFFF
10.688469458333334,0,0x0000,0xFFFF
10.688494666666667,0,0x2007,0xFFFF
10.688519500000000,0,0x3030,0xFFFF
10.688544708333334,0,0x2008,0xFFFF
10.688569500000000,0,0x8C8C,0xFFFF
10.688594875000000,0,0x2009,0xFFFF
10.688619833333334,0,0xAAAA,0xFFFF
10.688645166666667,0,0x200A,0xFFFF
10.688670000000000,0,0x4F4F,0xFFFF
10.688695333333333,0,0x6004,0xFFFF
10.688720541666667,0,0x8484,0x0000
10.688746166666666,0,0x6004,0xFFFF
10.688771416666667,0,0x8585,0x0000
10.688796708333333,0,0x2005,0xFFFF
10.688821624999999,0,0xA0A0,0xFFFF
10.688846750000000,0,0x2006,0xFFFF
10.688871583333333,0,0x0000,0xFFFF
10.688896666666666,0,0x2007,0xFFFF
10.688921625000001,0,0x5050,0xFFFF
10.688947083333334,0,0x2008,0xFFFF
10.688972041666666,0,0x8E8E,0xFFFF
10.688997416666666,0,0x2009,0xFFFF
10.689022375000000,0,0x2222,0xFFFF
10.689047708333334,0,0x200A,0xFFFF
10.689072875000001,0,0x4F4F,0xFFFF
10.689098250000001,0,0x6004,0xFFFF
10.689123458333333,0,0x8686,0x0000
10.689149083333334,0,0x6004,0xFFFF
10.689174291666667,0,0x8787,0x0000
10.689199916666666,0,0x2005,0xFFFF
10.689224833333334,0,0xA0A0,0xFFFF
10.689250083333333,0,0x2006,0xFFFF
10.689275041666667,0,0x0000,0xFFFF
10.689300500000000,0,0x2007,0xFFFF
10.689325416666666,0,0x3030,0xFFFF
10.689350875000001,0,0x2008,0xFFFF
10.689375833333333,0,0x6C6C,0xFFFF
10.689401125000000,0,0x2009,0xFFFF
10.689426125000001,0,0xA8A8,0xFFFF
10.689451208333333,0,0x200A,0xFFFF
10.689476250000000,0,0x4F4F,0xFFFF
10.689501500000000,0,0x6004,0xFFFF
10.689526624999999,0,0x8888,0x0000
10.689557458333333,0,0x6004,0xFFFF
10.689582583333333,0,0x8989,0x0000
10.689607625000001,0,0x2005,0xFFFF
10.689631916666666,0,0xA0A0,0xFFFF
10.689656500000000,0,0x2006,0xFFFF
10.689680791666667,0,0x0000,0xFFFF
10.689705500000001,0,0x2007,0xFFFF
10.689729708333333,0,0x0000,0xFFFF
10.689754166666667,0,0x2008,0xFFFF
10.689778333333333,0,0xC6C6,0xFFFF
10.689802833333333,0,0x2009,0xFFFF
10.689826916666666,0,0xCDCD,0xFFFF
10.689851458333333,0,0x200A,0xFFFF
10.689875666666667,0,0x4F4F,0xFFFF
10.689900291666667,0,0x6004,0xFFFF
10.689924708333333,0,0x8A8A,0x0000
10.689949625000001,0,0x6004,0xFFFF
10.689973999999999,0,0x8B8B,0x0000
10.689998666666666,0,0x2005,0xFFFF
10.690022875000000,0,0xA0A0,0xFFFF
10.690047291666666,0,0x2006,0xFFFF
10.690071416666667,0,0x0000,0xFFFF
10.690095958333334,0,0x2007,0xFFFF
10.690120166666667,0,0x2020,0xFFFF
10.690144666666667,0,0x2008,0xFFFF
10.690168874999999,0,0x0606,0xFFFF
10.690193416666666,0,0x2009,0xFFFF
10.690217625000001,0,0x3636,0xFFFF
10.690242041666666,0,0x200A,0xFFFF
10.690266416666667,0,0x4F4F,0xFFFF
10.690290791666667,0,0x6004,0xFFFF
10.690315166666666,0,0x8C8C,0x0000
10.690339916666666,0,0x6004,0xFFFF
10.690364166666667,0,0x8D8D,0x0000
10.690388750000000,0,0x2005,0xFFFF
10.690412999999999,0,0xA0A0,0xFFFF
10.690437666666666,0,0x2006,0xFFFF
10.690461875000000,0,0x0000,0xFFFF
10.690486333333334,0,0x2007,0xFFFF
10.690510416666667,0,0x3030,0xFFFF
10.690534916666667,0,0x2008,0xFFFF
10.690559041666667,0,0x2626,0xFFFF
10.690583416666666,0,0x2009,0xFFFF
10.690607500000000,0,0x3636,0xFFFF
10.690632041666667,0,0x200A,0xFFFF
10.690656375000000,0,0x4F4F,0xFFFF
10.690681041666666,0,0x6004,0xFFFF
10.690705458333333,0,0x8E8E,0x0000
10.690730250000000,0,0x6004,0xFFFF
10.690754666666667,0,0x8F8F,0x0000
10.690779250000000,0,0x2005,0xFFFF
10.690803416666666,0,0xA0A0,0xFFFF
10.690828041666666,0,0x2006,0xFFFF
10.690852250000001,0,0x0000,0xFFFF
10.690876916666667,0,0x2007,0xFFFF
10.690901041666667,0,0x4040,0xFFFF
10.690925458333334,0,0x2008,0xFFFF
10.690950041666667,0,0xA8A8,0xFFFF
10.690974499999999,0,0x2009,0xFFFF
10.690998791666667,0,0x4141,0xFFFF
10.691023208333334,0,0x200A,0xFFFF
10.691047333333334,0,0x4F4F,0xFFFF
10.691071916666667,0,0x6004,0xFFFF
10.691096208333333,0,0x9090,0x0000
10.691121083333334,0,0x6004,0xFFFF
10.691145333333333,0,0x9191,0x0000
10.691170083333333,0,0x2005,0xFFFF
10.691194291666667,0,0xA0A0,0xFFFF
10.691219750000000,0,0x2006,0xFFFF
10.691244541666666,0,0x0000,0xFFFF
10.691269333333333,0,0x2007,0xFFFF
10.691293458333334,0,0x5050,0xFFFF
10.691317958333334,0,0x2008,0xFFFF
10.691342166666667,0,0xEEEE,0xFFFF
10.691366750000000,0,0x2009,0xFFFF
10.691390958333333,0,0x2222,0xFFFF
10.691415416666667,0,0x200A,0xFFFF
10.691439583333333,0,0x4F4F,0xFFFF
10.691464083333333,0,0x6004,0xFFFF
10.691488416666667,0,0x9292,0x0000
10.691513125000000,0,0x6004,0xFFFF
10.691537500000001,0,0x9393,0x0000
10.691562291666667,0,0x2005,0xFFFF
10.691586375000000,0,0xA0A0,0xFFFF
10.691610833333334,0,0x2006,0xFFFF
10.691635000000000,0,0x0000,0xFFFF
10.691659375000000,0,0x2007,0xFFFF
10.691683458333333,0,0x3030,0xFFFF
10.691707875000001,0,0x2008,0xFFFF
10.691731958333333,0,0x4C4C,0xFFFF
10.691756458333334,0,0x2009,0xFFFF
10.691780500000000,0,0xA7A7,0xFFFF
10.691805041666667,0,0x200A,0xFFFF
10.691829250000000,0,0x4F4F,0xFFFF
10.691853791666666,0,0x6004,0xFFFF
10.691878250000000,0,0x9494,0x0000
10.691903166666666,0,0x6004,0xFFFF
10.691927500000000,0,0x9595,0x0000
10.691952166666667,0,0x2005,0xFFFF
10.691976291666666,0,0xA0A0,0xFFFF
10.692000791666667,0,0x2006,0xFFFF
10.692024958333333,0,0x0000,0xFFFF
10.692049500000000,0,0x2007,0xFFFF
10.692073708333334,0,0x1010,0xFFFF
10.692098291666667,0,0x2008,0xFFFF
10.692122458333333,0,0x4646,0xFFFF
10.692146875000001,0,0x2009,0xFFFF
10.692162958333334,0,0x3636,0xFFFF
10.692189708333334,0,0x200A,0xFFFF
10.692214666666667,0,0x4F4F,0xFFFF
10.692239541666666,0,0x6004,0xFFFF
10.692263875000000,0,0x9696,0x0000
10.692288583333333,0,0x6004,0xFFFF
10.692312875000001,0,0x9797,0x0000
10.692337416666666,0,0x2005,0xFFFF
10.692361625000000,0,0xA0A0,0xFFFF
10.692385916666666,0,0x2006,0xFFFF
10.692409916666668,0,0x0000,0xFFFF
10.692434291666666,0,0x2007,0xFFFF
10.692458291666666,0,0x3030,0xFFFF
10.692482708333333,0,0x2008,0xFFFF
10.692506625000000,0,0x2626,0xFFFF
10.692531000000001,0,0x2009,0xFFFF
10.692555000000000,0,0x3636,0xFFFF
10.692579500000001,0,0x200A,0xFFFF
10.692603541666667,0,0x4F4F,0xFFFF
10.692628125000001,0,0x6004,0xFFFF
10.692652583333333,0,0x9898,0x0000
10.692677249999999,0,0x6004,0xFFFF
10.692701583333333,0,0x9999,0x0000
10.692726374999999,0,0x2005,0xFFFF
10.692750333333333,0,0xA0A0,0xFFFF
10.692774750000000,0,0x2006,0xFFFF
10.692798791666666,0,0x0000,0xFFFF
10.692823166666667,0,0x2007,0xFFFF
10.692847083333334,0,0x5050,0xFFFF
10.692871708333334,0,0x2008,0xFFFF
10.692895583333334,0,0x4040,0xFFFF
10.692920000000001,0,0x2009,0xFFFF
10.692944250000000,0,0x3636,0xFFFF
10.692968875000000,0,0x200A,0xFFFF
10.692992916666666,0,0x4F4F,0xFFFF
10.693017375000000,0,0x6004,0xFFFF
10.693041666666666,0,0x9A9A,0x0000
10.693066333333332,0,0x6004,0xFFFF
10.693090666666667,0,0x9B9B,0x0000
10.693115541666666,0,0x2005,0xFFFF
10.693139625000001,0,0xA0A0,0xFFFF
10.693164083333333,0,0x2006,0xFFFF
10.693188041666666,0,0x0000,0xFFFF
10.693212583333333,0,0x2007,0xFFFF
10.693236666666667,0,0x5050,0xFFFF
10.693261083333333,0,0x2008,0xFFFF
10.693285166666668,0,0x4E4E,0xFFFF
10.693309583333333,0,0x2009,0xFFFF
10.693333708333334,0,0x2323,0xFFFF
10.693358916666666,0,0x200A,0xFFFF
10.693383541666666,0,0x4F4F,0xFFFF
10.693408416666667,0,0x6004,0xFFFF
10.693432833333333,0,0x9C9C,0x0000
10.693457708333334,0,0x6004,0xFFFF
10.693481916666666,0,0x9D9D,0x0000
10.693506666666666,0,0x2005,0xFFFF
10.693530666666666,0,0xA0A0,0xFFFF
10.693560500000000,0,0x2006,0xFFFF
10.693585333333333,0,0x0000,0xFFFF
10.693610291666667,0,0x2007,0xFFFF
10.693634416666667,0,0x3030,0xFFFF
10.693659041666667,0,0x2008,0xFFFF
10.693683208333333,0,0x8C8C,0xFFFF
10.693707833333333,0,0x2009,0xFFFF
10.693731958333334,0,0xAAAA,0xFFFF
10.693756666666667,0,0x200A,0xFFFF
10.693781000000000,0,0x4F4F,0xFFFF
10.693806250000000,0,0x6004,0xFFFF
10.693831250000001,0,0x9E9E,0x0000
10.693856291666666,0,0x6004,0xFFFF
10.693880791666666,0,0x9F9F,0x0000
10.693905458333333,0,0x2005,0xFFFF
10.693929375000000,0,0xA0A0,0xFFFF
10.693954041666666,0,0x2006,0xFFFF
10.693978166666666,0,0x0000,0xFFFF
10.694002541666666,0,0x2007,0xFFFF
10.694026500000000,0,0x2020,0xFFFF
10.694051083333333,0,0x2008,0xFFFF
10.694075166666666,0,0x0000,0xFFFF
10.694099583333333,0,0x2009,0xFFFF
10.694124041666667,0,0x8080,0xFFFF
10.694148541666667,0,0x200A,0xFFFF
10.694172541666667,0,0x4F4F,0xFFFF
10.694197000000001,0,0x6004,0xFFFF
10.694221333333333,0,0xA0A0,0x0000
10.694246083333333,0,0x6004,0xFFFF
10.694270416666667,0,0xA1A1,0x0000
10.694295000000000,0,0x2005,0xFFFF
10.694319125000000,0,0xA0A0,0xFFFF
10.694343500000000,0,0x2006,0xFFFF
10.694367416666667,0,0x0000,0xFFFF
10.694391791666666,0,0x2007,0xFFFF
10.694415708333333,0,0x5050,0xFFFF
10.694440125000000,0,0x2008,0xFFFF
10.694464208333333,0,0x4040,0xFFFF
10.694488625000000,0,0x2009,0xFFFF
10.694512541666667,0,0x3636,0xFFFF
10.694536958333334,0,0x200A,0xFFFF
10.694560916666667,0,0x4F4F,0xFFFF
10.694585291666666,0,0x6004,0xFFFF
10.694609708333333,0,0xA2A2,0x0000
10.694634375000000,0,0x6004,0xFFFF
10.694658666666667,0,0xA3A3,0x0000
10.694683416666667,0,0x2005,0xFFFF
10.694707458333333,0,0xA0A0,0xFFFF
10.694731958333334,0,0x2006,0xFFFF
10.694756166666666,0,0x0000,0xFFFF
10.694780708333333,0,0x2007,0xFFFF
10.694804749999999,0,0x5050,0xFFFF
10.694829166666667,0,0x2008,0xFFFF
10.694853291666666,0,0x8E8E,0xFFFF
10.694877708333333,0,0x2009,0xFFFF
10.694901583333333,0,0x2222,0xFFFF
10.694926125000000,0,0x200A,0xFFFF
10.694950208333333,0,0x4F4F,0xFFFF
10.694974750000000,0,0x6004,0xFFFF
10.694998999999999,0,0xA4A4,0x0000
10.695023750000001,0,0x6004,0xFFFF
10.695047916666667,0,0xA5A5,0x0000
10.695072708333333,0,0x2005,0xFFFF
10.695096749999999,0,0xA0A0,0xFFFF
10.695121208333333,0,0x2006,0xFFFF
10.695145000000000,0,0x0000,0xFFFF
10.695169625000000,0,0x2007,0xFFFF
10.695193625000000,0,0x3030,0xFFFF
10.695218041666667,0,0x2008,0xFFFF
10.695241875000001,0,0x8C8C,0xFFFF
10.695266333333333,0,0x2009,0xFFFF
10.695290375000001,0,0xAAAA,0xFFFF
10.695315041666667,0,0x200A,0xFFFF
10.695339166666667,0,0x4F4F,0xFFFF
10.695363625000001,0,0x6004,0xFFFF
10.695387708333334,0,0xA6A6,0x0000
10.695412500000000,0,0x6004,0xFFFF
10.695436708333334,0,0xA7A7,0x0000
10.695461333333334,0,0x2005,0xFFFF
10.695485458333334,0,0xA0A0,0xFFFF
10.695509833333332,0,0x2006,0xFFFF
10.695533791666668,0,0x0000,0xFFFF
10.695558249999999,0,0x2007,0xFFFF
10.695582375000001,0,0x0000,0xFFFF
10.695606874999999,0,0x2008,0xFFFF
10.695630958333334,0,0x0606,0xFFFF
10.695655458333333,0,0x2009,0xFFFF
10.695679500000001,0,0x3636,0xFFFF
10.695703916666666,0,0x200A,0xFFFF
10.695727874999999,0,0x4F4F,0xFFFF
10.695752333333333,0,0x6004,0xFFFF
10.695776499999999,0,0xA8A8,0x0000
10.695801250000001,0,0x6004,0xFFFF
10.695825541666666,0,0xA9A9,0x0000
10.695850374999999,0,0x2005,0xFFFF
10.695874541666667,0,0xA0A0,0xFFFF
10.695899000000001,0,0x2006,0xFFFF
10.695923041666667,0,0x0000,0xFFFF
10.695947500000001,0,0x2007,0xFFFF
10.695971541666667,0,0x2020,0xFFFF
10.695995999999999,0,0x2008,0xFFFF
10.696020000000001,0,0x0000,0xFFFF
10.696044499999999,0,0x2009,0xFFFF
10.696068583333334,0,0x8080,0xFFFF
10.696092999999999,0,0x200A,0xFFFF
10.696117083333334,0,0x4F4F,0xFFFF
10.696141666666668,0,0x6004,0xFFFF
10.696165833333334,0,0xAAAA,0x0000
10.696190458333334,0,0x6004,0xFFFF
10.696215000000000,0,0xABAB,0x0000
10.696239791666667,0,0x2005,0xFFFF
10.696264083333332,0,0xA0A0,0xFFFF
10.696288500000000,0,0x2006,0xFFFF
10.696312583333333,0,0x0000,0xFFFF
10.696337041666666,0,0x2007,0xFFFF
10.696360958333333,0,0x5050,0xFFFF
10.696385375000000,0,0x2008,0xFFFF
10.696409458333333,0,0x4040,0xFFFF
10.696433875000000,0,0x2009,0xFFFF
10.696458041666666,0,0x3636,0xFFFF
10.696482749999999,0,0x200A,0xFFFF
10.696506875000001,0,0x4F4F,0xFFFF
10.696531291666666,0,0x6004,0xFFFF
10.696555791666666,0,0xACAC,0x0000
10.696580375000000,0,0x6004,0xFFFF
10.696604708333334,0,0xADAD,0x0000
10.696629375000001,0,0x2005,0xFFFF
10.696653458333333,0,0xA0A0,0xFFFF
10.696677916666667,0,0x2006,0xFFFF
10.696702166666666,0,0x0000,0xFFFF
10.696726625000000,0,0x2007,0xFFFF
10.696750500000000,0,0x5050,0xFFFF
10.696774874999999,0,0x2008,0xFFFF
10.696798916666667,0,0xEEEE,0xFFFF
10.696823333333333,0,0x2009,0xFFFF
10.696847416666667,0,0x0505,0xFFFF
10.696872000000001,0,0x200A,0xFFFF
10.696896041666667,0,0x4F4F,0xFFFF
10.696920583333334,0,0x6004,0xFFFF
10.696944875000000,0,0xAEAE,0x0000
10.696969624999999,0,0x6004,0xFFFF
10.696994083333333,0,0xAFAF,0x0000
10.697018916666666,0,0x2005,0xFFFF
10.697043041666667,0,0xA0A0,0xFFFF
10.697067499999999,0,0x2006,0xFFFF
10.697091416666666,0,0x0000,0xFFFF
10.697115916666666,0,0x2007,0xFFFF
10.697139958333333,0,0x3030,0xFFFF
10.697164375000000,0,0x2008,0xFFFF
10.697188291666667,0,0x8C8C,0xFFFF
10.697212916666667,0,0x2009,0xFFFF
10.697236750000000,0,0xAAAA,0xFFFF
10.697261375000000,0,0x200A,0xFFFF
10.697285375000000,0,0x4F4F,0xFFFF
10.697309750000001,0,0x6004,0xFFFF
10.697334000000000,0,0xB0B0,0x0000
10.697358749999999,0,0x6004,0xFFFF
10.697383208333333,0,0xB1B1,0x0000
10.697408041666666,0,0x2005,0xFFFF
10.697432166666667,0,0xA0A0,0xFFFF
10.697456791666667,0,0x2006,0xFFFF
10.697480750000000,0,0x0000,0xFFFF
10.697505291666667,0,0x2007,0xFFFF
10.697529291666667,0,0x5050,0xFFFF
10.697562083333333,0,0x2008,0xFFFF
10.697588791666666,0,0x4E4E,0xFFFF
10.697614750000000,0,0x2009,0xFFFF
10.697639791666667,0,0x1919,0xFFFF
10.697665375000000,0,0x200A,0xFFFF
10.697690375000001,0,0x4F4F,0xFFFF
10.697715625000001,0,0x6004,0xFFFF
10.697740583333333,0,0xB2B2,0x0000
10.697766166666666,0,0x6004,0xFFFF
10.697791583333334,0,0xB3B3,0x0000
10.697817166666667,0,0x2005,0xFFFF
10.697842000000000,0,0xA0A0,0xFFFF
10.697867499999999,0,0x2006,0xFFFF
10.697892458333333,0,0x0000,0xFFFF
10.697917833333333,0,0x2007,0xFFFF
10.697942791666666,0,0x3030,0xFFFF
10.697968291666667,0,0x2008,0xFFFF
10.697992916666667,0,0x8C8C,0xFFFF
10.698018375000000,0,0x2009,0xFFFF
10.698043500000001,0,0xAAAA,0xFFFF
10.698068666666666,0,0x200A,0xFFFF
10.698093458333334,0,0x4F4F,0xFFFF
10.698118791666667,0,0x6004,0xFFFF
10.698143833333333,0,0xB4B4,0x0000
10.698169375000001,0,0x6004,0xFFFF
10.698194458333333,0,0xB5B5,0x0000
10.698220250000000,0,0x2005,0xFFFF
10.698245000000000,0,0xA0A0,0xFFFF
10.698270333333333,0,0x2006,0xFFFF
10.698295333333334,0,0x0000,0xFFFF
10.698320875000000,0,0x2007,0xFFFF
10.698345666666667,0,0x5050,0xFFFF
10.698371208333333,0,0x2008,0xFFFF
10.698396166666667,0,0x8E8E,0xFFFF
10.698421666666666,0,0x2009,0xFFFF
10.698446499999999,0,0x2222,0xFFFF
10.698472208333333,0,0x200A,0xFFFF
10.698497041666666,0,0x4F4F,0xFFFF
10.698522499999999,0,0x6004,0xFFFF
10.698547708333333,0,0xB6B6,0x0000
10.698573083333333,0,0x6004,0xFFFF
10.698598375000000,0,0xB7B7,0x0000
10.698623958333334,0,0x2005,0xFFFF
10.698648833333333,0,0xA0A0,0xFFFF
10.698674000000000,0,0x2006,0xFFFF
10.698698916666666,0,0x0000,0xFFFF
10.698724083333333,0,0x2007,0xFFFF
10.698748791666667,0,0x3030,0xFFFF
10.698774083333333,0,0x2008,0xFFFF
10.698798958333333,0,0x6C6C,0xFFFF
10.698824249999999,0,0x2009,0xFFFF
10.698848916666666,0,0xA8A8,0xFFFF
10.698874208333333,0,0x200A,0xFFFF
10.698899250000000,0,0x4F4F,0xFFFF
10.698924541666667,0,0x6004,0xFFFF
10.698949791666667,0,0xB8B8,0x0000
10.698975166666667,0,0x6004,0xFFFF
10.699000291666668,0,0xB9B9,0x0000
10.699025875000000,0,0x2005,0xFFFF
10.699050791666666,0,0xA0A0,0xFFFF
10.699076083333333,0,0x2006,0xFFFF
10.699100916666668,0,0x0000,0xFFFF
10.699126124999999,0,0x2007,0xFFFF
10.699150958333334,0,0x5050,0xFFFF
10.699176124999999,0,0x2008,0xFFFF
10.699201000000000,0,0xA8A8,0xFFFF
10.699226166666667,0,0x2009,0xFFFF
10.699251041666667,0,0x2F2F,0xFFFF
10.699276166666667,0,0x200A,0xFFFF
10.699301000000000,0,0x4F4F,0xFFFF
10.699326208333334,0,0x6004,0xFFFF
10.699351291666666,0,0xBABA,0x0000
10.699376958333334,0,0x6004,0xFFFF
10.699402125000001,0,0xBBBB,0x0000
10.699427583333334,0,0x2005,0xFFFF
10.699452458333333,0,0xA0A0,0xFFFF
10.699477750000000,0,0x2006,0xFFFF
10.699502499999999,0,0x0000,0xFFFF
10.699527708333333,0,0x2007,0xFFFF
10.699552458333333,0,0x1010,0xFFFF
10.699577458333334,0,0x2008,0xFFFF
10.699602291666666,0,0xA6A6,0xFFFF
10.699627416666667,0,0x2009,0xFFFF
10.699652208333333,0,0x6969,0xFFFF
10.699677291666667,0,0x200A,0xFFFF
10.699702125000000,0,0x4F4F,0xFFFF
10.699727333333334,0,0x6004,0xFFFF
10.699752416666668,0,0xBCBC,0x0000
10.699777875000001,0,0x6004,0xFFFF
10.699802958333333,0,0xBDBD,0x0000
10.699828458333334,0,0x2005,0xFFFF
10.699853458333333,0,0xA0A0,0xFFFF
10.699878666666667,0,0x2006,0xFFFF
10.699903416666666,0,0x0000,0xFFFF
10.699928541666667,0,0x2007,0xFFFF
10.699953375000000,0,0x5050,0xFFFF
10.699978583333333,0,0x2008,0xFFFF
10.700003499999999,0,0x6060,0xFFFF
10.700028791666666,0,0x2009,0xFFFF
10.700053499999999,0,0x1C1C,0xFFFF
10.700078916666667,0,0x200A,0xFFFF
10.700103666666667,0,0x4F4F,0xFFFF
10.700129041666667,0,0x6004,0xFFFF
10.700154166666668,0,0xBEBE,0x0000
10.700179541666667,0,0x6004,0xFFFF
10.700204500000000,0,0xBFBF,0x0000
10.700229999999999,0,0x2005,0xFFFF
10.700254875000001,0,0xA0A0,0xFFFF
10.700280333333334,0,0x2006,0xFFFF
10.700305374999999,0,0x0000,0xFFFF
10.700330583333333,0,0x2007,0xFFFF
10.700355583333334,0,0x0000,0xFFFF
10.700380916666667,0,0x2008,0xFFFF
10.700405875000000,0,0x4444,0xFFFF
10.700431416666667,0,0x2009,0xFFFF
10.700456375000000,0,0x1B1B,0xFFFF
10.700481583333334,0,0x200A,0xFFFF
10.700506666666667,0,0x4F4F,0xFFFF
10.700531750000000,0,0x6004,0xFFFF
10.700556791666667,0,0xC0C0,0x0000
10.700582291666667,0,0x6004,0xFFFF
10.700607458333334,0,0xC1C1,0x0000
10.700633083333333,0,0x2005,0xFFFF
10.700657833333333,0,0xA0A0,0xFFFF
10.700683208333333,0,0x2006,0xFFFF
10.700708166666667,0,0x0000,0xFFFF
10.700733458333334,0,0x2007,0xFFFF
10.700758208333333,0,0x5050,0xFFFF
10.700783458333333,0,0x2008,0xFFFF
10.700808333333333,0,0x6464,0xFFFF
10.700833541666666,0,0x2009,0xFFFF
10.700858541666667,0,0x1B1B,0xFFFF
10.700883666666666,0,0x200A,0xFFFF
10.700908583333334,0,0x4F4F,0xFFFF
10.700933583333333,0,0x6004,0xFFFF
10.700958625000000,0,0xC2C2,0x0000
10.700984000000000,0,0x6004,0xFFFF
10.701008916666666,0,0xC3C3,0x0000
10.701034291666666,0,0x2005,0xFFFF
10.701059250000000,0,0xA0A0,0xFFFF
10.701084541666667,0,0x2006,0xFFFF
10.701109291666667,0,0x0000,0xFFFF
10.701134458333334,0,0x2007,0xFFFF
10.701159250000000,0,0x5050,0xFFFF
10.701184333333334,0,0x2008,0xFFFF
10.701209125000000,0,0x8080,0xFFFF
10.701234333333334,0,0x2009,0xFFFF
10.701259250000000,0,0x1B1B,0xFFFF
10.701284541666666,0,0x200A,0xFFFF
10.701309958333333,0,0x4F4F,0xFFFF
10.701335625000000,0,0x6004,0xFFFF
10.701361000000000,0,0xC4C4,0x0000
10.701386666666666,0,0x6004,0xFFFF
10.701411791666667,0,0xC5C5,0x0000
10.701437291666666,0,0x2005,0xFFFF
10.701462500000000,0,0xA0A0,0xFFFF
10.701487916666666,0,0x2006,0xFFFF
10.701512624999999,0,0x0000,0xFFFF
10.701537750000000,0,0x2007,0xFFFF
10.701567666666667,0,0x5050,0xFFFF
10.701593791666667,0,0x2008,0xFFFF
10.701618874999999,0,0xA0A0,0xFFFF
10.701644333333334,0,0x2009,0xFFFF
10.701669083333334,0,0x1B1B,0xFFFF
10.701694708333333,0,0x200A,0xFFFF
10.701719750000001,0,0x4F4F,0xFFFF
10.701744916666666,0,0x6004,0xFFFF
10.701769875000000,0,0xC6C6,0x0000
10.701795333333333,0,0x6004,0xFFFF
10.701820625000000,0,0xC7C7,0x0000
10.701845958333333,0,0x2005,0xFFFF
10.701871083333334,0,0xA0A0,0xFFFF
10.701896041666666,0,0x2006,0xFFFF
10.701920875000001,0,0x0000,0xFFFF
10.701946000000000,0,0x2007,0xFFFF
10.701970791666668,0,0x5050,0xFFFF
10.701996083333333,0,0x2008,0xFFFF
10.702021000000000,0,0xC0C0,0xFFFF
10.702046041666666,0,0x2009,0xFFFF
10.702070833333334,0,0x1B1B,0xFFFF
10.702095999999999,0,0x200A,0xFFFF
10.702120791666667,0,0x4F4F,0xFFFF
10.702146083333334,0,0x6004,0xFFFF
10.702171791666666,0,0xC8C8,0x0000
10.702197416666667,0,0x6004,0xFFFF
10.702222583333333,0,0xC9C9,0x0000
10.702248000000001,0,0x2005,0xFFFF
10.702272791666667,0,0xA0A0,0xFFFF
10.702298166666667,0,0x2006,0xFFFF
10.702323000000000,0,0x0000,0xFFFF
10.702348291666667,0,0x2007,0xFFFF
10.702373041666666,0,0x5050,0xFFFF
10.702398333333333,0,0x2008,0xFFFF
10.702423000000000,0,0xA0A0,0xFFFF
10.702448125000000,0,0x2009,0xFFFF
10.702472958333333,0,0x3333,0xFFFF
10.702498208333333,0,0x200A,0xFFFF
10.702523291666667,0,0x4F4F,0xFFFF
10.702548583333334,0,0x6004,0xFFFF
10.702573750000001,0,0xCACA,0x0000
10.702599250000000,0,0x6004,0xFFFF
10.702624333333333,0,0xCBCB,0x0000
10.702649583333333,0,0x2005,0xFFFF
10.702674333333333,0,0xA0A0,0xFFFF
10.702699750000001,0,0x2006,0xFFFF
10.702724458333334,0,0x0000,0xFFFF
10.702749624999999,0,0x2007,0xFFFF
10.702774541666667,0,0x5050,0xFFFF
10.702799958333333,0,0x2008,0xFFFF
10.702824874999999,0,0xE0E0,0xFFFF
10.702850124999999,0,0x2009,0xFFFF
10.702875083333334,0,0x2929,0xFFFF
10.702900291666667,0,0x200A,0xFFFF
10.702925125000000,0,0x4F4F,0xFFFF
10.702950333333334,0,0x6004,0xFFFF
10.702975374999999,0,0xCCCC,0x0000
10.703000791666666,0,0x6004,0xFFFF
10.703025958333333,0,0xCDCD,0x0000
10.703051374999999,0,0x2005,0xFFFF
10.703076166666667,0,0xA0A0,0xFFFF
10.703101250000000,0,0x2006,0xFFFF
10.703126125000001,0,0x0000,0xFFFF
10.703151249999999,0,0x2007,0xFFFF
10.703176125000001,0,0x5050,0xFFFF
10.703201333333332,0,0x2008,0xFFFF
10.703226333333333,0,0x0000,0xFFFF
10.703251375000001,0,0x2009,0xFFFF
10.703276333333333,0,0x2A2A,0xFFFF
10.703301874999999,0,0x200A,0xFFFF
10.703326666666667,0,0x4F4F,0xFFFF
10.703352083333334,0,0x6004,0xFFFF
10.703377375000001,0,0xCECE,0x0000
10.703402791666667,0,0x6004,0xFFFF
10.703427958333334,0,0xCFCF,0x0000
10.703457208333333,0,0x2005,0xFFFF
10.703482541666666,0,0xA0A0,0xFFFF
10.703507875000000,0,0x2006,0xFFFF
10.703532666666666,0,0x0000,0xFFFF
10.703558041666666,0,0x2007,0xFFFF
10.703583333333333,0,0x5050,0xFFFF
10.703608583333333,0,0x2008,0xFFFF
10.703633416666667,0,0x2020,0xFFFF
10.703658708333334,0,0x2009,0xFFFF
10.703683666666667,0,0x2A2A,0xFFFF
10.703708916666667,0,0x200A,0xFFFF
10.703733791666666,0,0x4F4F,0xFFFF
10.703759000000000,0,0x6004,0xFFFF
10.703784208333333,0,0xD0D0,0x0000
10.703809750000000,0,0x6004,0xFFFF
10.703834791666667,0,0xD1D1,0x0000
10.703860291666667,0,0x2005,0xFFFF
10.703885500000000,0,0xA0A0,0xFFFF
10.703911708333333,0,0x2006,0xFFFF
10.703936875000000,0,0x0000,0xFFFF
10.703962458333333,0,0x2007,0xFFFF
10.703987291666667,0,0x5050,0xFFFF
10.704012499999999,0,0x2008,0xFFFF
10.704037124999999,0,0x4040,0xFFFF
10.704062541666667,0,0x2009,0xFFFF
10.704087416666667,0,0x2A2A,0xFFFF
10.704112666666667,0,0x200A,0xFFFF
10.704137500000000,0,0x4F4F,0xFFFF
10.704162750000000,0,0x6004,0xFFFF
10.704187833333334,0,0xD2D2,0x0000
10.704213250000000,0,0x6004,0xFFFF
10.704238500000001,0,0xD3D3,0x0000
10.704263916666667,0,0x2005,0xFFFF
10.704288916666666,0,0xA0A0,0xFFFF
10.704314083333333,0,0x2006,0xFFFF
10.704338916666666,0,0x0000,0xFFFF
10.704364125000000,0,0x2007,0xFFFF
10.704388958333332,0,0x5050,0xFFFF
10.704414166666666,0,0x2008,0xFFFF
10.704439000000001,0,0x6060,0xFFFF
10.704464249999999,0,0x2009,0xFFFF
10.704488916666667,0,0x2A2A,0xFFFF
10.704514000000000,0,0x200A,0xFFFF
10.704538833333332,0,0x4F4F,0xFFFF
10.704564083333333,0,0x6004,0xFFFF
10.704589416666666,0,0xD4D4,0x0000
10.704614875000001,0,0x6004,0xFFFF
10.704639750000000,0,0xD5D5,0x0000
10.704665250000000,0,0x2005,0xFFFF
10.704690041666666,0,0xA0A0,0xFFFF
10.704715125000000,0,0x2006,0xFFFF
10.704739916666666,0,0x0000,0xFFFF
10.704765083333333,0,0x2007,0xFFFF
10.704789874999999,0,0x5050,0xFFFF
10.704815166666666,0,0x2008,0xFFFF
10.704840041666667,0,0x8080,0xFFFF
10.704865208333333,0,0x2009,0xFFFF
10.704890000000001,0,0x2A2A,0xFFFF
10.704915916666666,0,0x200A,0xFFFF
10.704940875000000,0,0x4F4F,0xFFFF
10.704966041666667,0,0x6004,0xFFFF
10.704991208333333,0,0xD6D6,0x0000
10.705016791666667,0,0x6004,0xFFFF
10.705041916666667,0,0xD7D7,0x0000
10.705067375000000,0,0x2005,0xFFFF
10.705092125000000,0,0xA0A0,0xFFFF
10.705117333333334,0,0x2006,0xFFFF
10.705142250000000,0,0x0000,0xFFFF
10.705167583333333,0,0x2007,0xFFFF
10.705192416666666,0,0x5050,0xFFFF
10.705217583333333,0,0x2008,0xFFFF
10.705242250000000,0,0xA0A0,0xFFFF
10.705267458333333,0,0x2009,0xFFFF
10.705292375000001,0,0x2A2A,0xFFFF
10.705317458333333,0,0x200A,0xFFFF
10.705342166666666,0,0x4F4F,0xFFFF
10.705367458333333,0,0x6004,0xFFFF
10.705392500000000,0,0xD8D8,0x0000
10.705418000000000,0,0x6004,0xFFFF
10.705442916666666,0,0xD9D9,0x0000
10.705468416666667,0,0x2005,0xFFFF
10.705493583333332,0,0xA0A0,0xFFFF
10.705518833333333,0,0x2006,0xFFFF
10.705543499999999,0,0x0000,0xFFFF
10.705574000000000,0,0x2007,0xFFFF
10.705599791666666,0,0x5050,0xFFFF
10.705625333333334,0,0x2008,0xFFFF
10.705650250000000,0,0xE0E0,0xFFFF
10.705675458333333,0,0x2009,0xFFFF
10.705700333333333,0,0x7F7F,0xFFFF
10.705725666666666,0,0x200A,0xFFFF
10.705750541666667,0,0x4F4F,0xFFFF
10.705775750000001,0,0x6004,0xFFFF
10.705800875000000,0,0xDADA,0x0000
10.705826249999999,0,0x6004,0xFFFF
10.705851375000000,0,0xDBDB,0x0000
10.705876875000000,0,0x2005,0xFFFF
10.705902000000000,0,0xA0A0,0xFFFF
10.705927333333333,0,0x2006,0xFFFF
10.705952000000000,0,0x0000,0xFFFF
10.705977250000000,0,0x2007,0xFFFF
10.706002375000001,0,0x5050,0xFFFF
10.706027333333333,0,0x2008,0xFFFF
10.706052250000001,0,0xC8C8,0xFFFF
10.706077416666666,0,0x2009,0xFFFF
10.706102208333334,0,0x1C1C,0xFFFF
10.706127416666666,0,0x200A,0xFFFF
10.706152166666667,0,0x4F4F,0xFFFF
10.706177374999999,0,0x6004,0xFFFF
10.706202416666667,0,0xDCDC,0x0000
10.706227750000000,0,0x6004,0xFFFF
10.706252666666666,0,0xDDDD,0x0000
10.706278083333334,0,0x2005,0xFFFF
10.706302791666667,0,0xA0A0,0xFFFF
10.706328125000001,0,0x2006,0xFFFF
10.706352958333333,0,0x0000,0xFFFF
10.706378291666667,0,0x2007,0xFFFF
10.706402875000000,0,0x1010,0xFFFF
10.706428166666667,0,0x2008,0xFFFF
10.706452916666667,0,0x6666,0xFFFF
10.706478333333333,0,0x2009,0xFFFF
10.706502958333333,0,0x1C1C,0xFFFF
10.706528666666667,0,0x200A,0xFFFF
10.706553541666667,0,0x4F4F,0xFFFF
10.706578625000001,0,0x6004,0xFFFF
10.706603583333333,0,0xDEDE,0x0000
10.706629041666666,0,0x6004,0xFFFF
10.706654125000000,0,0xDFDF,0x0000
10.706679625000000,0,0x2005,0xFFFF
10.706704416666666,0,0xA0A0,0xFFFF
10.706729875000001,0,0x2006,0xFFFF
10.706754708333333,0,0x0000,0xFFFF
10.706779958333334,0,0x2007,0xFFFF
10.706804625000000,0,0x3030,0xFFFF
10.706829791666667,0,0x2008,0xFFFF
10.706854500000000,0,0xA8A8,0xFFFF
10.706879541666666,0,0x2009,0xFFFF
10.706904500000000,0,0x2F2F,0xFFFF
10.706929750000000,0,0x200A,0xFFFF
10.706954666666666,0,0x4F4F,0xFFFF
10.706979666666667,0,0x6004,0xFFFF
10.707004708333333,0,0xE0E0,0x0000
10.707030083333333,0,0x6004,0xFFFF
10.707055041666667,0,0xE1E1,0x0000
10.707080375000000,0,0x2005,0xFFFF
10.707105291666666,0,0xA0A0,0xFFFF
10.707130666666666,0,0x2006,0xFFFF
10.707155625000000,0,0x0000,0xFFFF
10.707180958333334,0,0x2007,0xFFFF
10.707205833333333,0,0x5050,0xFFFF
10.707231000000000,0,0x2008,0xFFFF
10.707255999999999,0,0x6060,0xFFFF
10.707281291666666,0,0x2009,0xFFFF
10.707306000000001,0,0x1C1C,0xFFFF
10.707331000000000,0,0x200A,0xFFFF
10.707355916666666,0,0x4F4F,0xFFFF
10.707381166666666,0,0x6004,0xFFFF
10.707406208333333,0,0xE2E2,0x0000
10.707431666666666,0,0x6004,0xFFFF
10.707456750000000,0,0xE3E3,0x0000
10.707482333333333,0,0x2005,0xFFFF
10.707507166666666,0,0xA0A0,0xFFFF
10.707532625000001,0,0x2006,0xFFFF
10.707557583333333,0,0x0000,0xFFFF
10.707582833333333,0,0x2007,0xFFFF
10.707607666666666,0,0x5050,0xFFFF
10.707632875000000,0,0x2008,0xFFFF
10.707657791666668,0,0xCECE,0xFFFF
10.707682958333333,0,0x2009,0xFFFF
10.707707875000001,0,0xA2A2,0xFFFF
10.707733083333334,0,0x200A,0xFFFF
10.707757833333334,0,0x4F4F,0xFFFF
10.707783541666666,0,0x6004,0xFFFF
10.707808583333334,0,0xE4E4,0x0000
10.707834000000000,0,0x6004,0xFFFF
10.707858999999999,0,0xE5E5,0x0000
10.707884333333332,0,0x2005,0xFFFF
10.707909125000000,0,0xA0A0,0xFFFF
10.707934375000001,0,0x2006,0xFFFF
10.707959208333333,0,0x0000,0xFFFF
10.707984416666667,0,0x2007,0xFFFF
10.708009208333333,0,0x3030,0xFFFF
10.708034541666667,0,0x2008,0xFFFF
10.708059458333333,0,0x6C6C,0xFFFF
10.708084791666666,0,0x2009,0xFFFF
10.708109458333332,0,0xADAD,0xFFFF
10.708135041666667,0,0x200A,0xFFFF
10.708160041666666,0,0x4F4F,0xFFFF
10.708185166666667,0,0x6004,0xFFFF
10.708210500000000,0,0xE6E6,0x0000
10.708236083333333,0,0x6004,0xFFFF
10.708261250000000,0,0xE7E7,0x0000
10.708286875000001,0,0x2005,0xFFFF
10.708311791666667,0,0xA0A0,0xFFFF
10.708336916666667,0,0x2006,0xFFFF
10.708361708333333,0,0x0000,0xFFFF
10.708386958333334,0,0x2007,0xFFFF
10.708411874999999,0,0x1010,0xFFFF
10.708437125000000,0,0x2008,0xFFFF
10.708462083333334,0,0x4646,0xFFFF
10.708487166666666,0,0x2009,0xFFFF
10.708512041666667,0,0x1B1B,0xFFFF
10.708537291666667,0,0x200A,0xFFFF
10.708562208333333,0,0x4F4F,0xFFFF
10.708587333333334,0,0x6004,0xFFFF
10.708612416666666,0,0xE8E8,0x0000
10.708637666666666,0,0x6004,0xFFFF
10.708662791666667,0,0xE9E9,0x0000
10.708688166666667,0,0x2005,0xFFFF
10.708713166666668,0,0xA0A0,0xFFFF
10.708738374999999,0,0x2006,0xFFFF
10.708763333333334,0,0x0000,0xFFFF
10.708788500000001,0,0x2007,0xFFFF
10.708813416666667,0,0x0000,0xFFFF
10.708838666666667,0,0x2008,0xFFFF
10.708863458333333,0,0x6060,0xFFFF
10.708888416666667,0,0x2009,0xFFFF
10.708913250000000,0,0x1C1C,0xFFFF
10.708938458333334,0,0x200A,0xFFFF
10.708963208333333,0,0x4F4F,0xFFFF
10.708988541666667,0,0x6004,0xFFFF
10.709013499999999,0,0xEAEA,0x0000
10.709038791666666,0,0x6004,0xFFFF
10.709063875000000,0,0xEBEB,0x0000
10.709089375000000,0,0x2005,0xFFFF
10.709114208333334,0,0xA0A0,0xFFFF
10.709139458333333,0,0x2006,0xFFFF
10.709164375000000,0,0x0000,0xFFFF
10.709189500000001,0,0x2007,0xFFFF
10.709214375000000,0,0x3030,0xFFFF
10.709239541666667,0,0x2008,0xFFFF
10.709264375000000,0,0x6666,0xFFFF
10.709289541666667,0,0x2009,0xFFFF
10.709314458333333,0,0x1B1B,0xFFFF
10.709339583333334,0,0x200A,0xFFFF
10.709364500000000,0,0x4F4F,0xFFFF
10.709389708333333,0,0x6004,0xFFFF
10.709415041666666,0,0xECEC,0x0000
10.709440499999999,0,0x6004,0xFFFF
10.709465625000000,0,0xEDED,0x0000
10.709490916666667,0,0x2005,0xFFFF
10.709515625000000,0,0xA0A0,0xFFFF
10.709540791666667,0,0x2006,0xFFFF
10.709570458333333,0,0x0000,0xFFFF
10.709596375000000,0,0x2007,0xFFFF
10.709621625000000,0,0x3030,0xFFFF
10.709647000000000,0,0x2008,0xFFFF
10.709671916666666,0,0x8A8A,0xFFFF
10.709697125000000,0,0x2009,0xFFFF
10.709721916666666,0,0x6969,0xFFFF
10.709747374999999,0,0x200A,0xFFFF
10.709772333333333,0,0x4F4F,0xFFFF
10.709797666666667,0,0x6004,0xFFFF
10.709822875000000,0,0xEEEE,0x0000
10.709848291666667,0,0x6004,0xFFFF
10.709873750000000,0,0xEFEF,0x0000
10.709899041666667,0,0x2005,0xFFFF
10.709923916666666,0,0xA0A0,0xFFFF
10.709949249999999,0,0x2006,0xFFFF
10.709973958333334,0,0x0000,0xFFFF
10.709999249999999,0,0x2007,0xFFFF
10.710023874999999,0,0x0000,0xFFFF
10.710049250000001,0,0x2008,0xFFFF
10.710074041666667,0,0x2626,0xFFFF
10.710099250000001,0,0x2009,0xFFFF
10.710124000000000,0,0xA1A1,0xFFFF
10.710149291666667,0,0x200A,0xFFFF
10.710174041666667,0,0x4F4F,0xFFFF
10.710199208333334,0,0x6004,0xFFFF
10.710224416666666,0,0xF0F0,0x0000
10.710249791666667,0,0x6004,0xFFFF
10.710274875000000,0,0xF1F1,0x0000
10.710300374999999,0,0x2005,0xFFFF
10.710325250000000,0,0xA0A0,0xFFFF
10.710350666666667,0,0x2006,0xFFFF
10.710375500000000,0,0x0000,0xFFFF
10.710400833333333,0,0x2007,0xFFFF
10.710425666666668,0,0xA0A0,0xFFFF
10.710451041666667,0,0x2008,0xFFFF
10.710475708333334,0,0x6666,0xFFFF
10.710500874999999,0,0x2009,0xFFFF
10.710525458333333,0,0x1B1B,0xFFFF
10.710550791666666,0,0x200A,0xFFFF
10.710575708333334,0,0x4F4F,0xFFFF
10.710601041666667,0,0x6004,0xFFFF
10.710626000000000,0,0xF2F2,0x0000
10.710651416666666,0,0x6004,0xFFFF
10.710676500000000,0,0xF3F3,0x0000
10.710702000000000,0,0x2005,0xFFFF
10.710726666666666,0,0xA0A0,0xFFFF
10.710751916666666,0,0x2006,0xFFFF
10.710776750000001,0,0x0000,0xFFFF
10.710801999999999,0,0x2007,0xFFFF
10.710826666666666,0,0x5050,0xFFFF
10.710851958333333,0,0x2008,0xFFFF
10.710876750000001,0,0x6060,0xFFFF
10.710901833333333,0,0x2009,0xFFFF
10.710926958333333,0,0x0707,0xFFFF
10.710952291666667,0,0x200A,0xFFFF
10.710977166666666,0,0x4F4F,0xFFFF
10.711002375000000,0,0x6004,0xFFFF
10.711027458333334,0,0xF4F4,0x0000
10.711052583333334,0,0x6004,0xFFFF
10.711077749999999,0,0xF5F5,0x0000
10.711103000000000,0,0x2005,0xFFFF
10.711127791666666,0,0xA0A0,0xFFFF
10.711152958333333,0,0x2006,0xFFFF
10.711177749999999,0,0x0000,0xFFFF
10.711203083333332,0,0x2007,0xFFFF
10.711228083333333,0,0x4040,0xFFFF
10.711253333333334,0,0x2008,0xFFFF
10.711278041666667,0,0x4646,0xFFFF
10.711303250000000,0,0x2009,0xFFFF
10.711328166666666,0,0x1B1B,0xFFFF
10.711353500000000,0,0x200A,0xFFFF
10.711378958333333,0,0x4F4F,0xFFFF
10.711405458333333,0,0x6004,0xFFFF
10.711430833333333,0,0xF6F6,0x0000
10.711456458333334,0,0x6004,0xFFFF
10.711481666666666,0,0xF7F7,0x0000
10.711507333333333,0,0x2005,0xFFFF
10.711532208333333,0,0xA0A0,0xFFFF
10.711557583333333,0,0x2006,0xFFFF
10.711582416666667,0,0x0000,0xFFFF
10.711607541666666,0,0x2007,0xFFFF
10.711632541666667,0,0x0000,0xFFFF
10.711658000000000,0,0x2008,0xFFFF
10.711682958333334,0,0x4040,0xFFFF
10.711708208333333,0,0x2009,0xFFFF
10.711733125000000,0,0x1B1B,0xFFFF
10.711758333333334,0,0x200A,0xFFFF
10.711783250000000,0,0x4F4F,0xFFFF
10.711808458333334,0,0x6004,0xFFFF
10.711833583333334,0,0xF8F8,0x0000
10.711859125000000,0,0x6004,0xFFFF
10.711884166666668,0,0xF9F9,0x0000
10.711909333333333,0,0x2005,0xFFFF
10.711934125000001,0,0xA0A0,0xFFFF
10.711959374999999,0,0x2006,0xFFFF
10.711984416666667,0,0x0000,0xFFFF
10.712009416666668,0,0x2007,0xFFFF
10.712034250000000,0,0x3030,0xFFFF
10.712059500000001,0,0x2008,0xFFFF
10.712084416666666,0,0x6666,0xFFFF
10.712109874999999,0,0x2009,0xFFFF
10.712134541666666,0,0x0707,0xFFFF
10.712159625000000,0,0x200A,0xFFFF
10.712184625000001,0,0x4F4F,0xFFFF
10.712209874999999,0,0x6004,0xFFFF
10.712235208333333,0,0xFAFA,0x0000
10.712260791666667,0,0x6004,0xFFFF
10.712285791666666,0,0xFBFB,0x0000
10.712311250000001,0,0x2005,0xFFFF
10.712336125000000,0,0xA0A0,0xFFFF
10.712361333333334,0,0x2006,0xFFFF
10.712386291666666,0,0x0000,0xFFFF
10.712411749999999,0,0x2007,0xFFFF
10.712436583333334,0,0x3030,0xFFFF
10.712461791666666,0,0x2008,0xFFFF
10.712486666666667,0,0xA6A6,0xFFFF
10.712512000000000,0,0x2009,0xFFFF
10.712536833333333,0,0x1B1B,0xFFFF
10.712562166666666,0,0x200A,0xFFFF
10.712587083333334,0,0x4F4F,0xFFFF
10.712612500000001,0,0x6004,0xFFFF
10.712637583333333,0,0xFCFC,0x0000
10.712662916666666,0,0x6004,0xFFFF
10.712688041666667,0,0xFDFD,0x0000
10.712713583333333,0,0x2005,0xFFFF
10.712738625000000,0,0xA0A0,0xFFFF
10.712763916666667,0,0x2006,0xFFFF
10.712788833333333,0,0x0000,0xFFFF
10.712814041666666,0,0x2007,0xFFFF
10.712838916666668,0,0x0000,0xFFFF
10.712864458333334,0,0x2008,0xFFFF
10.712889499999999,0,0x6060,0xFFFF
10.712914749999999,0,0x2009,0xFFFF
10.712939583333334,0,0x1B1B,0xFFFF
10.712965041666667,0,0x200A,0xFFFF
10.712990000000000,0,0x4F4F,0xFFFF
10.713015458333333,0,0x6004,0xFFFF
10.713040916666667,0,0xFEFE,0x0000
10.713066333333334,0,0x6004,0xFFFF
10.713091541666667,0,0xFFFF,0x0000
10.713117000000000,0,0x2005,0xFFFF
10.713141875000000,0,0xA0A0,0xFFFF
10.713167125000000,0,0x2006,0xFFFF
10.713191999999999,0,0x0000,0xFFFF
10.713217291666666,0,0x2007,0xFFFF
10.713242125000001,0,0x4040,0xFFFF
10.713267458333334,0,0x2008,0xFFFF
10.713292500000000,0,0x6666,0xFFFF
10.713317666666667,0,0x2009,0xFFFF
10.713342583333333,0,0x1B1B,0xFFFF
10.713367750000000,0,0x200A,0xFFFF
10.713392750000001,0,0x4F4F,0xFFFF
10.713417916666666,0,0x6004,0xFFFF
10.713443000000000,0,0x0000,0x0000
10.713468416666666,0,0x6004,0xFFFF
10.713493333333334,0,0x0101,0x0000
10.713518958333333,0,0x2005,0xFFFF
10.713544583333332,0,0xA0A0,0xFFFF
10.713576541666667,0,0x2006,0xFFFF
10.713603750000001,0,0x0000,0xFFFF
10.713629541666666,0,0x2007,0xFFFF
10.713654500000001,0,0x5050,0xFFFF
10.713679833333334,0,0x2008,0xFFFF
10.713704666666667,0,0x0808,0xFFFF
10.713729875000000,0,0x2009,0xFFFF
10.713754541666667,0,0x3D3D,0xFFFF
10.713779875000000,0,0x200A,0xFFFF
10.713804541666667,0,0x4F4F,0xFFFF
10.713829875000000,0,0x6004,0xFFFF
10.713854916666667,0,0x0202,0x0000
10.713880458333334,0,0x6004,0xFFFF
10.713905291666666,0,0x0303,0x0000
10.713930583333333,0,0x2005,0xFFFF
10.713955500000001,0,0xA0A0,0xFFFF
10.713981499999999,0,0x2006,0xFFFF
10.714007083333334,0,0x0000,0xFFFF
10.714032749999999,0,0x2007,0xFFFF
10.714057374999999,0,0xA0A0,0xFFFF
10.714082749999999,0,0x2008,0xFFFF
10.714107500000001,0,0x0000,0xFFFF
10.714132791666668,0,0x2009,0xFFFF
10.714157416666668,0,0x8080,0xFFFF
10.714182583333333,0,0x200A,0xFFFF
10.714207208333333,0,0x4F4F,0xFFFF
10.714232458333333,0,0x6004,0xFFFF
10.714257541666667,0,0x0404,0x0000
10.714283249999999,0,0x6004,0xFFFF
10.714308208333334,0,0x0505,0x0000
10.714333625000000,0,0x2005,0xFFFF
10.714358375000000,0,0xA0A0,0xFFFF
10.714383541666667,0,0x2006,0xFFFF
10.714408291666667,0,0x0000,0xFFFF
10.714433500000000,0,0x2007,0xFFFF
10.714458208333333,0,0x8080,0xFFFF
10.714483500000000,0,0x2008,0xFFFF
10.714508291666666,0,0xC0C0,0xFFFF
10.714533583333333,0,0x2009,0xFFFF
10.714558374999999,0,0x1B1B,0xFFFF
10.714584000000000,0,0x200A,0xFFFF
10.714608958333333,0,0x4F4F,0xFFFF
10.714634250000000,0,0x6004,0xFFFF
10.714659208333334,0,0x0606,0x0000
10.714684625000000,0,0x6004,0xFFFF
10.714709541666666,0,0x0707,0x0000
10.714734958333333,0,0x2005,0xFFFF
10.714759583333333,0,0xA0A0,0xFFFF
10.714784666666667,0,0x2006,0xFFFF
10.714809416666666,0,0x0000,0xFFFF
10.714834500000000,0,0x2007,0xFFFF
10.714859041666667,0,0x5050,0xFFFF
10.714884375000000,0,0x2008,0xFFFF
10.714908958333334,0,0xA0A0,0xFFFF
10.714934250000001,0,0x2009,0xFFFF
10.714959041666667,0,0x1B1B,0xFFFF
10.714984250000001,0,0x200A,0xFFFF
10.715008791666667,0,0x4F4F,0xFFFF
10.715033999999999,0,0x6004,0xFFFF
10.715058916666667,0,0x0808,0x0000
10.715084416666667,0,0x6004,0xFFFF
10.715109375000001,0,0x0909,0x0000
10.715135083333333,0,0x2005,0xFFFF
10.715159625000000,0,0xA0A0,0xFFFF
10.715184791666667,0,0x2006,0xFFFF
10.715209458333334,0,0x0000,0xFFFF
10.715234541666666,0,0x2007,0xFFFF
10.715259208333332,0,0x5050,0xFFFF
10.715284541666668,0,0x2008,0xFFFF
10.715309250000001,0,0x8686,0xFFFF
10.715334458333333,0,0x2009,0xFFFF
10.715359083333333,0,0x1B1B,0xFFFF
10.715384374999999,0,0x200A,0xFFFF
10.715409125000001,0,0x4F4F,0xFFFF
10.715434374999999,0,0x6004,0xFFFF
10.715459416666667,0,0x0A0A,0x0000
10.715484875000000,0,0x6004,0xFFFF
10.715509916666667,0,0x0B0B,0x0000
10.715535500000000,0,0x2005,0xFFFF
10.715560291666666,0,0xA0A0,0xFFFF
10.715585500000000,0,0x2006,0xFFFF
10.715610249999999,0,0x0000,0xFFFF
10.715635666666667,0,0x2007,0xFFFF
10.715660416666667,0,0x2020,0xFFFF
10.715685708333334,0,0x2008,0xFFFF
10.715710333333334,0,0xC6C6,0xFFFF
10.715735541666668,0,0x2009,0xFFFF
10.715760208333334,0,0x1B1B,0xFFFF
10.715785333333333,0,0x200A,0xFFFF
10.715809958333333,0,0x4F4F,0xFFFF
10.715834958333334,0,0x6004,0xFFFF
10.715859999999999,0,0x0C0C,0x0000
10.715885541666667,0,0x6004,0xFFFF
10.715910624999999,0,0x0D0D,0x0000
10.715936083333334,0,0x2005,0xFFFF
10.715960791666667,0,0xA0A0,0xFFFF
10.715986083333334,0,0x2006,0xFFFF
10.716010750000001,0,0x0000,0xFFFF
10.716035958333334,0,0x2007,0xFFFF
10.716060750000000,0,0x3030,0xFFFF
10.716086041666667,0,0x2008,0xFFFF
10.716110750000000,0,0x0000,0xFFFF
10.716135791666666,0,0x2009,0xFFFF
10.716160541666667,0,0x8080,0xFFFF
10.716186083333334,0,0x200A,0xFFFF
10.716210958333333,0,0x4F4F,0xFFFF
10.716236374999999,0,0x6004,0xFFFF
10.716261250000001,0,0x0E0E,0x0000
10.716286875000000,0,0x6004,0xFFFF
10.716311791666667,0,0x0F0F,0x0000
10.716337083333332,0,0x2005,0xFFFF
10.716361708333332,0,0xA0A0,0xFFFF
10.716386875000000,0,0x2006,0xFFFF
10.716411583333333,0,0x0000,0xFFFF
10.716436791666666,0,0x2007,0xFFFF
10.716461583333333,0,0x5050,0xFFFF
10.716486833333333,0,0x2008,0xFFFF
10.716511458333333,0,0x8080,0xFFFF
10.716536708333333,0,0x2009,0xFFFF
10.716561499999999,0,0x1B1B,0xFFFF
10.716586708333333,0,0x200A,0xFFFF
10.716611416666666,0,0x4F4F,0xFFFF
10.716636666666666,0,0x6004,0xFFFF
10.716661791666667,0,0x1010,0x0000
10.716687333333333,0,0x6004,0xFFFF
10.716712291666667,0,0x1111,0x0000
10.716737666666667,0,0x2005,0xFFFF
10.716762375000000,0,0xA0A0,0xFFFF
10.716787666666667,0,0x2006,0xFFFF
10.716812208333334,0,0x0000,0xFFFF
10.716837416666667,0,0x2007,0xFFFF
10.716862125000000,0,0x6060,0xFFFF
10.716887333333334,0,0x2008,0xFFFF
10.716912000000001,0,0x0000,0xFFFF
10.716937250000001,0,0x2009,0xFFFF
10.716961875000001,0,0x8080,0xFFFF
10.716987166666666,0,0x200A,0xFFFF
10.717011958333334,0,0x4F4F,0xFFFF
10.717037166666668,0,0x6004,0xFFFF
10.717062250000000,0,0x1212,0x0000
10.717087833333334,0,0x6004,0xFFFF
10.717112583333334,0,0x1313,0x0000
10.717138166666667,0,0x2005,0xFFFF
10.717162791666667,0,0xA0A0,0xFFFF
10.717187958333334,0,0x2006,0xFFFF
10.717212583333334,0,0x0000,0xFFFF
10.717238041666667,0,0x2007,0xFFFF
10.717263000000001,0,0x6060,0xFFFF
10.717288208333333,0,0x2008,0xFFFF
10.717312791666666,0,0x0000,0xFFFF
10.717338083333333,0,0x2009,0xFFFF
10.717362791666666,0,0x8080,0xFFFF
10.717388000000000,0,0x200A,0xFFFF
10.717412541666667,0,0x4F4F,0xFFFF
10.717437750000000,0,0x6004,0xFFFF
10.717462708333333,0,0x1414,0x0000
10.717488291666667,0,0x6004,0xFFFF
10.717513083333333,0,0x1515,0x0000
10.717538333333334,0,0x2005,0xFFFF
10.717563041666667,0,0xA0A0,0xFFFF
10.717593166666667,0,0x2006,0xFFFF
10.717618625000000,0,0x0000,0xFFFF
10.717644333333334,0,0x2007,0xFFFF
10.717669125000000,0,0x5050,0xFFFF
10.717694500000000,0,0x2008,0xFFFF
10.717719250000000,0,0x2020,0xFFFF
10.717744500000000,0,0x2009,0xFFFF
10.717769499999999,0,0x1C1C,0xFFFF
10.717794916666668,0,0x200A,0xFFFF
10.717819666666667,0,0x4F4F,0xFFFF
10.717844875000001,0,0x6004,0xFFFF
10.717869916666666,0,0x1616,0x0000
10.717895333333333,0,0x6004,0xFFFF
10.717920291666667,0,0x1717,0x0000
10.717945750000000,0,0x2005,0xFFFF
10.717970500000000,0,0xA0A0,0xFFFF
10.717995875000000,0,0x2006,0xFFFF
10.718020500000000,0,0x0000,0xFFFF
10.718045708333333,0,0x2007,0xFFFF
10.718070458333333,0,0x5050,0xFFFF
10.718095541666667,0,0x2008,0xFFFF
10.718120250000000,0,0xEEEE,0xFFFF
10.718145500000000,0,0x2009,0xFFFF
10.718170125000000,0,0x0202,0xFFFF
10.718195458333334,0,0x200A,0xFFFF
10.718220208333333,0,0x4F4F,0xFFFF
10.718245458333334,0,0x6004,0xFFFF
10.718270499999999,0,0x1818,0x0000
10.718296333333333,0,0x6004,0xFFFF
10.718321333333334,0,0x1919,0x0000
10.718346750000000,0,0x2005,0xFFFF
10.718371416666667,0,0xA0A0,0xFFFF
10.718396666666667,0,0x2006,0xFFFF
10.718421500000000,0,0x0000,0xFFFF
10.718446708333333,0,0x2007,0xFFFF
10.718471500000000,0,0x2020,0xFFFF
10.718496625000000,0,0x2008,0xFFFF
10.718521500000000,0,0xCCCC,0xFFFF
10.718546708333333,0,0x2009,0xFFFF
10.718571416666666,0,0x0909,0xFFFF
10.718596666666667,0,0x200A,0xFFFF
10.718621458333333,0,0x4F4F,0xFFFF
10.718646833333333,0,0x6004,0xFFFF
10.718671750000000,0,0x1A1A,0x0000
10.718697000000001,0,0x6004,0xFFFF
10.718721875000000,0,0x1B1B,0x0000
10.718747333333333,0,0x2005,0xFFFF
10.718772041666666,0,0xA0A0,0xFFFF
10.718797416666666,0,0x2006,0xFFFF
10.718822208333334,0,0x0000,0xFFFF
10.718847416666666,0,0x2007,0xFFFF
10.718871875000000,0,0x5050,0xFFFF
10.718897000000000,0,0x2008,0xFFFF
10.718921791666666,0,0x8E8E,0xFFFF
10.718946916666667,0,0x2009,0xFFFF
10.718971583333333,0,0x2222,0xFFFF
10.718996791666667,0,0x200A,0xFFFF
10.719021458333334,0,0x4F4F,0xFFFF
10.719046750000000,0,0x6004,0xFFFF
10.719071749999999,0,0x1C1C,0x0000
10.719096916666667,0,0x6004,0xFFFF
10.719121749999999,0,0x1D1D,0x0000
10.719147083333333,0,0x2005,0xFFFF
10.719171875000001,0,0xA0A0,0xFFFF
10.719197125000001,0,0x2006,0xFFFF
10.719221833333334,0,0x0000,0xFFFF
10.719247083333334,0,0x2007,0xFFFF
10.719271833333334,0,0x2020,0xFFFF
10.719296958333333,0,0x2008,0xFFFF
10.719321875000000,0,0xCCCC,0xFFFF
10.719347333333333,0,0x2009,0xFFFF
10.719372041666666,0,0x0404,0xFFFF
10.719397375000000,0,0x200A,0xFFFF
10.719422291666667,0,0x4F4F,0xFFFF
10.719447666666667,0,0x6004,0xFFFF
10.719472666666666,0,0x1E1E,0x0000
10.719498124999999,0,0x6004,0xFFFF
10.719523041666667,0,0x1F1F,0x0000
10.719548458333334,0,0x2005,0xFFFF
10.719573166666667,0,0xA0A0,0xFFFF
10.719598583333333,0,0x2006,0xFFFF
10.719623541666667,0,0x0000,0xFFFF
10.719648958333334,0,0x2007,0xFFFF
10.719673833333333,0,0x5050,0xFFFF
10.719699125000000,0,0x2008,0xFFFF
10.719723916666666,0,0x6868,0xFFFF
10.719749250000000,0,0x2009,0xFFFF
10.719774041666666,0,0x4040,0xFFFF
10.719799500000001,0,0x200A,0xFFFF
10.719824333333333,0,0x4F4F,0xFFFF
10.719849500000000,0,0x6004,0xFFFF
10.719874458333333,0,0x2020,0x0000
10.719900000000001,0,0x6004,0xFFFF
10.719925000000000,0,0x2121,0x0000
10.719950666666668,0,0x2005,0xFFFF
10.719975416666667,0,0xA0A0,0xFFFF
10.720000625000001,0,0x2006,0xFFFF
10.720025208333333,0,0x0000,0xFFFF
10.720050458333333,0,0x2007,0xFFFF
10.720075124999999,0,0x1010,0xFFFF
10.720100333333333,0,0x2008,0xFFFF
10.720125041666666,0,0x0000,0xFFFF
10.720150291666666,0,0x2009,0xFFFF
10.720174958333333,0,0x8080,0xFFFF
10.720200083333333,0,0x200A,0xFFFF
10.720224833333333,0,0x4F4F,0xFFFF
10.720250166666666,0,0x6004,0xFFFF
10.720275166666667,0,0x2222,0x0000
10.720300750000000,0,0x6004,0xFFFF
10.720325875000000,0,0x2323,0x0000
10.720351375000000,0,0x2005,0xFFFF
10.720376249999999,0,0xA0A0,0xFFFF
10.720401458333333,0,0x2006,0xFFFF
10.720426166666666,0,0x0000,0xFFFF
10.720451333333333,0,0x2007,0xFFFF
10.720476083333333,0,0x5050,0xFFFF
10.720501333333333,0,0x2008,0xFFFF
10.720526041666666,0,0xA0A0,0xFFFF
10.720551250000000,0,0x2009,0xFFFF
10.720576083333333,0,0x3636,0xFFFF
10.720601208333333,0,0x200A,0xFFFF
10.720625833333333,0,0x4F4F,0xFFFF
10.720651083333333,0,0x6004,0xFFFF
10.720676041666668,0,0x2424,0x0000
10.720701500000001,0,0x6004,0xFFFF
10.720726333333333,0,0x2525,0x0000
10.720751833333333,0,0x2005,0xFFFF
10.720776499999999,0,0xA0A0,0xFFFF
10.720801750000000,0,0x2006,0xFFFF
10.720826499999999,0,0x0000,0xFFFF
10.720851500000000,0,0x2007,0xFFFF
10.720876208333333,0,0x0000,0xFFFF
10.720901333333334,0,0x2008,0xFFFF
10.720925916666667,0,0x8E8E,0xFFFF
10.720951250000001,0,0x2009,0xFFFF
10.720975791666667,0,0x2222,0xFFFF
10.721001125000001,0,0x200A,0xFFFF
10.721025750000001,0,0x4F4F,0xFFFF
10.721051166666667,0,0x6004,0xFFFF
10.721076166666666,0,0x2626,0x0000
10.721101624999999,0,0x6004,0xFFFF
10.721126708333333,0,0x2727,0x0000
10.721152083333333,0,0x2005,0xFFFF
10.721176625000000,0,0xA0A0,0xFFFF
10.721201750000001,0,0x2006,0xFFFF
10.721226458333334,0,0x0000,0xFFFF
10.721251625000001,0,0x2007,0xFFFF
10.721276375000000,0,0x1010,0xFFFF
10.721301750000000,0,0x2008,0xFFFF
10.721326458333333,0,0x4C4C,0xFFFF
10.721351666666667,0,0x2009,0xFFFF
10.721376208333334,0,0xFEFE,0xFFFF
10.721401541666667,0,0x200A,0xFFFF
10.721426375000000,0,0x4F4F,0xFFFF
10.721451791666667,0,0x6004,0xFFFF
10.721477416666668,0,0x2828,0x0000
10.721503583333334,0,0x6004,0xFFFF
10.721528916666667,0,0x2929,0x0000
10.721554458333333,0,0x2005,0xFFFF
10.721579291666666,0,0xA0A0,0xFFFF
10.721608000000000,0,0x2006,0xFFFF
10.721633583333332,0,0x0000,0xFFFF
10.721659125000000,0,0x2007,0xFFFF
10.721683833333334,0,0x5050,0xFFFF
10.721709166666667,0,0x2008,0xFFFF
10.721733916666667,0,0x0000,0xFFFF
10.721759208333333,0,0x2009,0xFFFF
10.721783958333333,0,0x8080,0xFFFF
10.721809083333333,0,0x200A,0xFFFF
10.721833708333333,0,0x4F4F,0xFFFF
10.721858916666667,0,0x6004,0xFFFF
10.721883916666666,0,0x2A2A,0x0000
10.721909458333334,0,0x6004,0xFFFF
10.721934500000000,0,0x2B2B,0x0000
10.721959916666666,0,0x2005,0xFFFF
10.721984833333334,0,0xA0A0,0xFFFF
10.722010083333334,0,0x2006,0xFFFF
10.722034875000000,0,0x0000,0xFFFF
10.722060166666667,0,0x2007,0xFFFF
10.722084916666667,0,0x5050,0xFFFF
10.722110250000000,0,0x2008,0xFFFF
10.722134750000000,0,0xE8E8,0xFFFF
10.722159958333334,0,0x2009,0xFFFF
10.722184708333334,0,0x1C1C,0xFFFF
10.722209958333334,0,0x200A,0xFFFF
10.722234833333333,0,0x4F4F,0xFFFF
10.722260208333333,0,0x6004,0xFFFF
10.722285166666667,0,0x2C2C,0x0000
10.722310666666667,0,0x6004,0xFFFF
10.722335791666668,0,0x2D2D,0x0000
10.722361333333334,0,0x2005,0xFFFF
10.722386333333333,0,0xA0A0,0xFFFF
10.722411708333333,0,0x2006,0xFFFF
10.722436541666667,0,0x0000,0xFFFF
10.722461791666667,0,0x2007,0xFFFF
10.722486875000000,0,0x5050,0xFFFF
10.722512125000000,0,0x2008,0xFFFF
10.722536916666666,0,0x9494,0xFFFF
10.722562375000001,0,0x2009,0xFFFF
10.722587166666667,0,0xC0C0,0xFFFF
10.722612958333333,0,0x200A,0xFFFF
10.722637791666667,0,0x4F4F,0xFFFF
10.722663166666667,0,0x6004,0xFFFF
10.722688291666667,0,0x2E2E,0x0000
10.722714000000000,0,0x6004,0xFFFF
10.722738916666666,0,0x2F2F,0x0000
10.722764458333334,0,0x2005,0xFFFF
10.722789083333334,0,0xA0A0,0xFFFF
10.722814333333334,0,0x2006,0xFFFF
10.722839083333334,0,0x0000,0xFFFF
10.722864333333334,0,0x2007,0xFFFF
10.722889083333333,0,0x0000,0xFFFF
10.722914416666667,0,0x2008,0xFFFF
10.722939125000000,0,0x2828,0xFFFF
10.722964166666667,0,0x2009,0xFFFF
10.722989041666667,0,0x1D1D,0xFFFF
10.723014375000000,0,0x200A,0xFFFF
10.723039041666667,0,0x4F4F,0xFFFF
10.723064250000000,0,0x6004,0xFFFF
10.723089166666666,0,0x3030,0x0000
10.723114750000001,0,0x6004,0xFFFF
10.723139625000000,0,0x3131,0x0000
10.723165083333333,0,0x2005,0xFFFF
10.723190083333334,0,0xA0A0,0xFFFF
10.723215541666667,0,0x2006,0xFFFF
10.723240208333333,0,0x0000,0xFFFF
10.723265458333334,0,0x2007,0xFFFF
10.723290250000000,0,0x5050,0xFFFF
10.723315416666667,0,0x2008,0xFFFF
10.723340125000000,0,0x8E8E,0xFFFF
10.723365541666666,0,0x2009,0xFFFF
10.723390291666666,0,0x2222,0xFFFF
10.723415375000000,0,0x200A,0xFFFF
10.723440125000000,0,0x4F4F,0xFFFF
10.723465250000000,0,0x6004,0xFFFF
10.723490291666666,0,0x3232,0x0000
10.723515958333333,0,0x6004,0xFFFF
10.723541125000001,0,0x3333,0x0000
10.723566583333334,0,0x2005,0xFFFF
10.723591250000000,0,0xA0A0,0xFFFF
10.723617041666667,0,0x2006,0xFFFF
10.723642541666667,0,0x0000,0xFFFF
10.723668083333333,0,0x2007,0xFFFF
10.723692916666666,0,0x2020,0xFFFF
10.723718333333334,0,0x2008,0xFFFF
10.723743166666667,0,0x0C0C,0xFFFF
10.723768458333334,0,0x2009,0xFFFF
10.723793416666666,0,0x4949,0xFFFF
10.723818583333333,0,0x200A,0xFFFF
10.723843416666666,0,0x4F4F,0xFFFF
10.723868708333333,0,0x6004,0xFFFF
10.723893708333334,0,0x3434,0x0000
10.723919166666667,0,0x6004,0xFFFF
10.723944041666666,0,0x3535,0x0000
10.723969458333332,0,0x2005,0xFFFF
10.723994333333334,0,0xA0A0,0xFFFF
10.724019541666667,0,0x2006,0xFFFF
10.724044250000000,0,0x0000,0xFFFF
10.724070333333334,0,0x2007,0xFFFF
10.724095750000000,0,0x5050,0xFFFF
10.724121374999999,0,0x2008,0xFFFF
10.724146250000000,0,0x0000,0xFFFF
10.724171625000000,0,0x2009,0xFFFF
10.724196250000000,0,0x8080,0xFFFF
10.724221791666666,0,0x200A,0xFFFF
10.724246500000000,0,0x4F4F,0xFFFF
10.724271833333333,0,0x6004,0xFFFF
10.724296916666667,0,0x3636,0x0000
10.724322541666666,0,0x2005,0xFFFF
10.724347333333334,0,0x0000,0xFFFF
10.724372541666666,0,0x2052,0xFFFF
10.724397291666667,0,0xB6B6,0xFFFF
10.724422541666666,0,0x2053,0xFFFF
10.724447375000000,0,0x0303,0xFFFF
10.724472750000000,0,0x2054,0xFFFF
10.724497333333334,0,0xA6A6,0xFFFF
10.724522666666667,0,0x2055,0xFFFF
10.724547333333334,0,0x0F0F,0xFFFF
10.724572500000001,0,0x2056,0xFFFF
10.724597583333333,0,0xBFBF,0xFFFF
10.724622625000000,0,0x2057,0xFFFF
10.724647416666667,0,0x1010,0xFFFF
10.724672666666667,0,0x2058,0xFFFF
10.724697541666666,0,0x7575,0xFFFF
10.724722708333333,0,0x2059,0xFFFF
10.724747291666667,0,0x1111,0xFFFF
10.724772583333333,0,0x205A,0xFFFF
10.724797333333333,0,0x5959,0xFFFF
10.724822625000000,0,0x205B,0xFFFF
10.724847208333333,0,0x0707,0xFFFF
10.724872541666667,0,0x205C,0xFFFF
10.724897250000000,0,0xB8B8,0xFFFF
10.724922500000000,0,0x205D,0xFFFF
10.724947166666666,0,0x0606,0xFFFF
10.724972375000000,0,0x205E,0xFFFF
10.724997041666667,0,0x2323,0xFFFF
10.725022375000000,0,0x205F,0xFFFF
10.725047208333333,0,0x0505,0xFFFF
10.725072666666666,0,0x2060,0xFFFF
10.725097500000000,0,0xA7A7,0xFFFF
10.725122750000001,0,0x2061,0xFFFF
10.725147541666667,0,0x1111,0xFFFF
10.725172958333333,0,0x6004,0xFFFF
10.725197833333333,0,0x3737,0x0000
10.725223291666667,0,0x2005,0xFFFF
10.725248208333333,0,0xC0C0,0xFFFF
10.725273416666667,0,0x2006,0xFFFF
10.725298208333333,0,0xD8D8,0xFFFF
10.725323416666667,0,0x2007,0xFFFF
10.725348166666667,0,0x8787,0xFFFF
10.725373500000000,0,0x2008,0xFFFF
10.725398250000000,0,0x0000,0xFFFF
10.725423375000000,0,0x2009,0xFFFF
10.725448041666667,0,0x0000,0xFFFF
10.725473166666667,0,0x200A,0xFFFF
10.725497958333333,0,0x3D3D,0xFFFF
10.725523083333334,0,0x6004,0xFFFF
10.725548083333333,0,0x3838,0x0000
10.725573833333334,0,0x6004,0xFFFF
10.725603458333334,0,0x3939,0x0000
10.725630333333333,0,0x2005,0xFFFF
10.725655708333333,0,0xC0C0,0xFFFF
10.725681124999999,0,0x2006,0xFFFF
10.725705791666666,0,0x8888,0xFFFF
10.725731000000000,0,0x2007,0xFFFF
10.725755875000001,0,0x2C2C,0xFFFF
10.725781124999999,0,0x2008,0xFFFF
10.725805916666667,0,0x0000,0xFFFF
10.725831583333333,0,0x2009,0xFFFF
10.725856416666666,0,0x0000,0xFFFF
10.725881791666668,0,0x200A,0xFFFF
10.725906458333334,0,0x3E3E,0xFFFF
10.725931666666666,0,0x6004,0xFFFF
10.725956791666666,0,0x3A3A,0x0000
10.725982291666666,0,0x6004,0xFFFF
10.726007250000000,0,0x3B3B,0x0000
10.726032500000001,0,0x2005,0xFFFF
10.726057375000000,0,0xC0C0,0xFFFF
10.726082500000000,0,0x2006,0xFFFF
10.726107208333334,0,0x1818,0xFFFF
10.726132375000001,0,0x2007,0xFFFF
10.726156958333334,0,0x2A2A,0xFFFF
10.726182208333332,0,0x2008,0xFFFF
10.726207000000000,0,0x0000,0xFFFF
10.726232291666667,0,0x2009,0xFFFF
10.726257083333333,0,0x0000,0xFFFF
10.726282333333334,0,0x200A,0xFFFF
10.726307208333333,0,0x3F3F,0xFFFF
10.726332541666666,0,0x6004,0xFFFF
10.726357625000000,0,0x3C3C,0x0000
10.726383250000000,0,0x6004,0xFFFF
10.726408333333334,0,0x3D3D,0x0000
10.726433750000000,0,0x2005,0xFFFF
10.726458458333333,0,0xC0C0,0xFFFF
10.726483625000000,0,0x2006,0xFFFF
10.726508333333333,0,0x2020,0xFFFF
10.726533708333333,0,0x2007,0xFFFF
10.726558624999999,0,0x0000,0xFFFF
10.726583874999999,0,0x2008,0xFFFF
10.726608625000001,0,0x0000,0xFFFF
10.726633833333333,0,0x2009,0xFFFF
10.726658625000001,0,0x0000,0xFFFF
10.726683916666667,0,0x200A,0xFFFF
10.726708916666666,0,0x4040,0xFFFF
10.726734208333333,0,0x6004,0xFFFF
10.726759166666668,0,0x3E3E,0x0000
10.726784458333332,0,0x6004,0xFFFF
10.726809500000000,0,0x3F3F,0x0000
10.726835041666666,0,0x2005,0xFFFF
10.726859875000001,0,0xC0C0,0xFFFF
10.726885333333334,0,0x2006,0xFFFF
10.726910083333333,0,0x6060,0xFFFF
10.726935375000000,0,0x2007,0xFFFF
10.726960208333333,0,0x0000,0xFFFF
10.726985458333333,0,0x2008,0xFFFF
10.727010125000000,0,0x0000,0xFFFF
10.727035416666666,0,0x2009,0xFFFF
10.727060166666666,0,0x0000,0xFFFF
10.727085541666666,0,0x200A,0xFFFF
10.727110208333333,0,0x4141,0xFFFF
10.727135458333333,0,0x6004,0xFFFF
10.727160250000001,0,0x4040,0x0000
10.727185750000000,0,0x6004,0xFFFF
10.727210791666666,0,0x4141,0x0000
10.727236375000000,0,0x2005,0xFFFF
10.727261208333333,0,0xC0C0,0xFFFF
10.727286333333334,0,0x2006,0xFFFF
10.727311000000000,0,0x8888,0xFFFF
10.727336208333334,0,0x2007,0xFFFF
10.727360916666667,0,0x7F7F,0xFFFF
10.727386083333334,0,0x2008,0xFFFF
10.727410624999999,0,0x0000,0xFFFF
10.727436041666667,0,0x2009,0xFFFF
10.727460833333334,0,0x0000,0xFFFF
10.727486125000000,0,0x200A,0xFFFF
10.727510958333333,0,0x4242,0xFFFF
10.727536458333333,0,0x6004,0xFFFF
10.727561583333333,0,0x4242,0x0000
10.727587083333333,0,0x6004,0xFFFF
10.727611916666667,0,0x4343,0x0000
10.727637208333332,0,0x2005,0xFFFF
10.727661875000001,0,0xC0C0,0xFFFF
10.727687124999999,0,0x2006,0xFFFF
10.727711916666667,0,0x3838,0xFFFF
10.727737166666667,0,0x2007,0xFFFF
10.727761916666667,0,0x9292,0xFFFF
10.727787166666667,0,0x2008,0xFFFF
10.727811875000000,0,0x0000,0xFFFF
10.727837041666668,0,0x2009,0xFFFF
10.727861750000001,0,0x0000,0xFFFF
10.727886916666666,0,0x200A,0xFFFF
10.727911750000001,0,0x4343,0xFFFF
10.727936874999999,0,0x6004,0xFFFF
10.727961833333334,0,0x4444,0x0000
10.727987416666666,0,0x6004,0xFFFF
10.728012291666667,0,0x4545,0x0000
10.728037833333333,0,0x2005,0xFFFF
10.728062583333333,0,0xC0C0,0xFFFF
10.728087750000000,0,0x2006,0xFFFF
10.728112416666667,0,0x0000,0xFFFF
10.728137791666667,0,0x2007,0xFFFF
10.728162541666666,0,0x0000,0xFFFF
10.728187750000000,0,0x2008,0xFFFF
10.728212416666667,0,0x0000,0xFFFF
10.728237833333333,0,0x2009,0xFFFF
10.728262583333333,0,0x0000,0xFFFF
10.728287833333333,0,0x200A,0xFFFF
10.728312583333333,0,0x4444,0xFFFF
10.728337874999999,0,0x6004,0xFFFF
10.728362875000000,0,0x4646,0x0000
10.728388499999999,0,0x6004,0xFFFF
10.728413583333333,0,0x4747,0x0000
10.728439041666666,0,0x2005,0xFFFF
10.728463666666666,0,0x2020,0xFFFF
10.728488833333333,0,0x2006,0xFFFF
10.728513583333333,0,0xB8B8,0xFFFF
10.728538958333333,0,0x2007,0xFFFF
10.728563875000001,0,0x0000,0xFFFF
10.728589124999999,0,0x2008,0xFFFF
10.728613916666667,0,0x3131,0xFFFF
10.728639166666667,0,0x2009,0xFFFF
10.728663875000001,0,0x2929,0xFFFF
10.728689208333334,0,0x200A,0xFFFF
10.728714083333333,0,0xC0C0,0xFFFF
10.728739458333333,0,0x6004,0xFFFF
10.728764416666667,0,0x4848,0x0000
10.728789875000000,0,0x6004,0xFFFF
10.728814958333333,0,0x4949,0x0000
10.728840416666667,0,0x2005,0xFFFF
10.728865041666667,0,0x6060,0xFFFF
10.728890333333334,0,0x2006,0xFFFF
10.728915208333333,0,0x0000,0xFFFF
10.728940375000001,0,0x2007,0xFFFF
10.728965166666667,0,0x0000,0xFFFF
10.728990208333334,0,0x2008,0xFFFF
10.729014916666667,0,0x0000,0xFFFF
10.729040333333334,0,0x2009,0xFFFF
10.729065125000000,0,0x0101,0xFFFF
10.729090458333333,0,0x200A,0xFFFF
10.729115208333333,0,0x2020,0xFFFF
10.729140375000000,0,0x6004,0xFFFF
10.729165333333333,0,0x4A4A,0x0000
10.729190791666667,0,0x6004,0xFFFF
10.729216041666668,0,0x4B4B,0x0000
10.729241583333334,0,0x2005,0xFFFF
10.729266250000000,0,0x4040,0xFFFF
10.729291666666667,0,0x2006,0xFFFF
10.729316499999999,0,0x0000,0xFFFF
10.729341666666667,0,0x2007,0xFFFF
10.729366416666666,0,0x0000,0xFFFF
10.729391625000000,0,0x2008,0xFFFF
10.729416291666666,0,0x4040,0xFFFF
10.729441541666667,0,0x2009,0xFFFF
10.729466208333333,0,0x0000,0xFFFF
10.729491458333333,0,0x200A,0xFFFF
10.729516208333333,0,0xB6B6,0xFFFF
10.729541458333333,0,0x6004,0xFFFF
10.729566333333333,0,0x4C4C,0x0000
10.729596125000000,0,0x6004,0xFFFF
10.729626291666667,0,0x4D4D,0x0000
10.729652750000000,0,0x2005,0xFFFF
10.729677833333334,0,0x4040,0xFFFF
10.729703416666666,0,0x2006,0xFFFF
10.729728041666666,0,0x0000,0xFFFF
10.729753499999999,0,0x2007,0xFFFF
10.729778375000000,0,0x0000,0xFFFF
10.729803708333334,0,0x2008,0xFFFF
10.729828625000000,0,0x0000,0xFFFF
10.729854124999999,0,0x2009,0xFFFF
10.729879000000000,0,0x0101,0xFFFF
10.729904416666667,0,0x200A,0xFFFF
10.729929166666667,0,0xB7B7,0xFFFF
10.729954708333333,0,0x6004,0xFFFF
10.729979666666667,0,0x4E4E,0x0000
10.730005125000000,0,0x6004,0xFFFF
10.730030333333334,0,0x4F4F,0x0000
10.730055708333333,0,0x2005,0xFFFF
10.730080500000000,0,0x6060,0xFFFF
10.730105875000000,0,0x2006,0xFFFF
10.730130541666666,0,0x0000,0xFFFF
10.730155916666666,0,0x2007,0xFFFF
10.730180791666667,0,0x0000,0xFFFF
10.730206083333334,0,0x2008,0xFFFF
10.730230958333333,0,0xC0C0,0xFFFF
10.730256208333333,0,0x2009,0xFFFF
10.730281000000000,0,0x0000,0xFFFF
10.730306333333333,0,0x200A,0xFFFF
10.730331250000001,0,0x1B1B,0xFFFF
10.730356791666667,0,0x6004,0xFFFF
10.730381916666667,0,0x5050,0x0000
10.730407666666666,0,0x6004,0xFFFF
10.730432750000000,0,0x5151,0x0000
10.730458208333333,0,0x2005,0xFFFF
10.730482958333333,0,0x6060,0xFFFF
10.730508416666666,0,0x2006,0xFFFF
10.730533291666667,0,0xD0D0,0xFFFF
10.730558583333334,0,0x2007,0xFFFF
10.730583583333333,0,0xEEEE,0xFFFF
10.730608833333333,0,0x2008,0xFFFF
10.730633500000000,0,0xE7E7,0xFFFF
10.730659333333334,0,0x2009,0xFFFF
10.730684249999999,0,0x3F3F,0xFFFF
10.730709875000001,0,0x200A,0xFFFF
10.730734708333333,0,0x9292,0xFFFF
10.730760041666667,0,0x6004,0xFFFF
10.730784833333333,0,0x5252,0x0000
10.730810541666667,0,0x6004,0xFFFF
10.730835583333333,0,0x5353,0x0000
10.730861250000000,0,0x2005,0xFFFF
10.730885833333334,0,0x6060,0xFFFF
10.730911166666667,0,0x2006,0xFFFF
10.730936000000000,0,0x0000,0xFFFF
10.730961291666667,0,0x2007,0xFFFF
10.730985958333333,0,0x0000,0xFFFF
10.731011125000000,0,0x2008,0xFFFF
10.731035833333333,0,0x0000,0xFFFF
10.731061041666667,0,0x2009,0xFFFF
10.731085750000000,0,0x0202,0xFFFF
10.731110958333334,0,0x200A,0xFFFF
10.731135708333333,0,0x7C7C,0xFFFF
10.731161041666667,0,0x6004,0xFFFF
10.731186041666666,0,0x5454,0x0000
10.731211666666667,0,0x6004,0xFFFF
10.731236666666666,0,0x5555,0x0000
10.731262250000000,0,0x2005,0xFFFF
10.731287083333333,0,0x6060,0xFFFF
10.731312333333333,0,0x2006,0xFFFF
10.731337000000000,0,0x0000,0xFFFF
10.731362208333334,0,0x2007,0xFFFF
10.731386833333334,0,0x0000,0xFFFF
10.731412166666667,0,0x2008,0xFFFF
10.731436958333333,0,0x0000,0xFFFF
10.731462208333333,0,0x2009,0xFFFF
10.731486958333333,0,0x0000,0xFFFF
10.731512208333333,0,0x200A,0xFFFF
10.731536916666666,0,0x7D7D,0xFFFF
10.731562666666667,0,0x6004,0xFFFF
10.731588583333334,0,0x5656,0x0000
10.731614499999999,0,0x6004,0xFFFF
10.731639625000000,0,0x5757,0x0000
10.731665208333334,0,0x2005,0xFFFF
10.731690125000000,0,0x2020,0xFFFF
10.731715458333333,0,0x2006,0xFFFF
10.731740291666666,0,0x0000,0xFFFF
10.731765458333333,0,0x2007,0xFFFF
10.731790291666666,0,0x0000,0xFFFF
10.731815750000001,0,0x2008,0xFFFF
10.731840583333334,0,0x0000,0xFFFF
10.731865958333334,0,0x2009,0xFFFF
10.731890791666666,0,0x0000,0xFFFF
10.731916083333333,0,0x200A,0xFFFF
10.731941083333334,0,0x4D4D,0xFFFF
10.731966500000000,0,0x6004,0xFFFF
10.731991541666666,0,0x5858,0x0000
10.732017125000000,0,0x6004,0xFFFF
10.732042208333333,0,0x5959,0x0000
10.732067666666667,0,0x2005,0xFFFF
10.732092416666667,0,0x2020,0xFFFF
10.732117708333334,0,0x2006,0xFFFF
10.732142541666667,0,0x0000,0xFFFF
10.732167708333334,0,0x2007,0xFFFF
10.732192416666667,0,0x0000,0xFFFF
10.732217708333334,0,0x2008,0xFFFF
10.732242458333333,0,0x0000,0xFFFF
10.732268250000001,0,0x2009,0xFFFF
10.732293166666667,0,0x0000,0xFFFF
10.732318541666666,0,0x200A,0xFFFF
10.732343250000000,0,0x4E4E,0xFFFF
10.732368791666667,0,0x6004,0xFFFF
10.732393999999999,0,0x5A5A,0x0000
10.732419708333333,0,0x6004,0xFFFF
10.732444708333333,0,0x5B5B,0x0000
10.732470375000000,0,0x2005,0xFFFF
10.732495291666666,0,0x2020,0xFFFF
10.732520666666666,0,0x2006,0xFFFF
10.732545458333334,0,0x0000,0xFFFF
10.732570958333334,0,0x2007,0xFFFF
10.732595791666666,0,0x0000,0xFFFF
10.732621291666666,0,0x2008,0xFFFF
10.732646125000000,0,0x0000,0xFFFF
10.732671375000001,0,0x2009,0xFFFF
10.732696166666667,0,0x0000,0xFFFF
10.732721541666667,0,0x200A,0xFFFF
10.732746291666666,0,0x6060,0xFFFF
10.732771625000000,0,0x6004,0xFFFF
10.732796541666668,0,0x5C5C,0x0000
10.732822000000001,0,0x6004,0xFFFF
10.732847083333333,0,0x5D5D,0x0000
10.732872625000001,0,0x2005,0xFFFF
10.732897500000000,0,0x0000,0xFFFF
10.732922708333334,0,0x2006,0xFFFF
10.732947541666666,0,0x0000,0xFFFF
10.732972833333333,0,0x2007,0xFFFF
10.732997833333334,0,0xAAAA,0xFFFF
10.733023250000000,0,0x2008,0xFFFF
10.733048125000000,0,0xAEAE,0xFFFF
10.733073291666667,0,0x2009,0xFFFF
10.733098208333333,0,0x0101,0xFFFF
10.733123541666666,0,0x200A,0xFFFF
10.733147958333333,0,0xE2E2,0xFFFF
10.733173333333333,0,0x6004,0xFFFF
10.733198333333334,0,0x5E5E,0x0000
10.733223958333333,0,0x6004,0xFFFF
10.733248916666666,0,0x5F5F,0x0000
10.733274541666667,0,0x2005,0xFFFF
10.733299291666667,0,0x2020,0xFFFF
10.733324833333333,0,0x2006,0xFFFF
10.733349708333334,0,0x0000,0xFFFF
10.733375041666667,0,0x2007,0xFFFF
10.733399916666666,0,0x0000,0xFFFF
10.733425208333333,0,0x2008,0xFFFF
10.733450041666666,0,0x0000,0xFFFF
10.733475458333332,0,0x2009,0xFFFF
10.733500208333334,0,0x0000,0xFFFF
10.733525708333334,0,0x200A,0xFFFF
10.733550500000000,0,0xB0B0,0xFFFF
10.733575916666666,0,0x6004,0xFFFF
10.733605458333333,0,0x6060,0x0000
10.733632125000000,0,0x6004,0xFFFF
10.733657458333333,0,0x6161,0x0000
10.733683250000000,0,0x2005,0xFFFF
10.733708958333333,0,0x2020,0xFFFF
10.733735208333334,0,0x2006,0xFFFF
10.733760291666666,0,0x0000,0xFFFF
10.733785624999999,0,0x2007,0xFFFF
10.733810583333334,0,0x0000,0xFFFF
10.733835833333334,0,0x2008,0xFFFF
10.733860541666667,0,0x0000,0xFFFF
10.733886791666666,0,0x2009,0xFFFF
10.733911624999999,0,0x0000,0xFFFF
10.733936999999999,0,0x200A,0xFFFF
10.733961791666667,0,0xB1B1,0xFFFF
10.733987125000001,0,0x6004,0xFFFF
10.734012000000000,0,0x6262,0x0000
10.734037375000000,0,0x6004,0xFFFF
10.734062625000000,0,0x6363,0x0000
10.734088166666666,0,0x2005,0xFFFF
10.734113083333334,0,0x2020,0xFFFF
10.734138500000000,0,0x2006,0xFFFF
10.734163958333333,0,0x0000,0xFFFF
10.734190000000000,0,0x2007,0xFFFF
10.734214958333334,0,0x0000,0xFFFF
10.734240208333333,0,0x2008,0xFFFF
10.734264874999999,0,0x0000,0xFFFF
10.734290041666666,0,0x2009,0xFFFF
10.734314875000001,0,0x0000,0xFFFF
10.734340208333334,0,0x200A,0xFFFF
10.734365000000000,0,0xB2B2,0xFFFF
10.734390541666667,0,0x6004,0xFFFF
10.734415875000000,0,0x6464,0x0000
10.734441500000001,0,0x6004,0xFFFF
10.734466541666666,0,0x6565,0x0000
10.734492250000001,0,0x2005,0xFFFF
10.734517250000000,0,0x2020,0xFFFF
10.734542625000000,0,0x2006,0xFFFF
10.734567374999999,0,0x0000,0xFFFF
10.734592583333333,0,0x2007,0xFFFF
10.734617291666666,0,0x0000,0xFFFF
10.734642666666666,0,0x2008,0xFFFF
10.734667333333332,0,0x0000,0xFFFF
10.734692375000000,0,0x2009,0xFFFF
10.734717125000000,0,0x0000,0xFFFF
10.734742499999999,0,0x200A,0xFFFF
10.734767208333333,0,0xB5B5,0xFFFF
10.734792499999999,0,0x6004,0xFFFF
10.734817458333334,0,0x6666,0x0000
10.734842791666667,0,0x6004,0xFFFF
10.734867749999999,0,0x6767,0x0000
10.734893416666667,0,0x2005,0xFFFF
10.734918208333333,0,0x2020,0xFFFF
10.734943458333333,0,0x2006,0xFFFF
10.734968083333333,0,0x0000,0xFFFF
10.734993375000000,0,0x2007,0xFFFF
10.735018250000000,0,0x0000,0xFFFF
10.735043500000000,0,0x2008,0xFFFF
10.735068291666666,0,0x0000,0xFFFF
10.735093375000000,0,0x2009,0xFFFF
10.735118375000001,0,0x0000,0xFFFF
10.735143708333334,0,0x200A,0xFFFF
10.735168375000001,0,0xC2C2,0xFFFF
10.735193583333333,0,0x6004,0xFFFF
10.735218541666667,0,0x6868,0x0000
10.735244083333333,0,0x2051,0xFFFF
10.735268874999999,0,0x0000,0xFFFF
10.735294208333332,0,0x6004,0xFFFF
10.735319208333333,0,0x6969,0x0000
10.735344749999999,0,0x2005,0xFFFF
10.735369499999999,0,0xA0A0,0xFFFF
10.735394749999999,0,0x2006,0xFFFF
10.735419333333333,0,0x0000,0xFFFF
10.735444541666666,0,0x2007,0xFFFF
10.735469208333333,0,0x0000,0xFFFF
10.735494958333334,0,0x2008,0xFFFF
10.735519583333334,0,0x0000,0xFFFF
10.735544875000000,0,0x2009,0xFFFF
10.735569375000001,0,0x0000,0xFFFF
10.735594791666667,0,0x200A,0xFFFF
10.735619583333333,0,0x4E4E,0xFFFF
10.735644875000000,0,0x6004,0xFFFF
10.735669625000000,0,0x6A6A,0x0000
10.735695333333334,0,0x6004,0xFFFF
10.735720333333333,0,0x6B6B,0x0000
10.735745750000000,0,0x2005,0xFFFF
10.735770583333334,0,0xA0A0,0xFFFF
10.735795791666666,0,0x200A,0xFFFF
10.735820708333334,0,0x4F4F,0xFFFF
10.735846000000000,0,0x6004,0xFFFF
10.735870750000000,0,0x6C6C,0x0000
10.735896333333333,0,0x6009,0xFFFF
10.735921416666667,0,0x6D6D,0x2222
10.735946875000000,0,0x6008,0xFFFF
10.735971791666667,0,0x6E6E,0x8E8E
10.735997208333334,0,0x6007,0xFFFF
10.736022041666667,0,0x6F6F,0x5050
10.736047624999999,0,0x6006,0xFFFF
10.736072583333334,0,0x7070,0x0000
10.736098125000000,0,0x6004,0xFFFF
10.736123083333334,0,0x7171,0x0000
10.736148708333333,0,0x2005,0xFFFF
10.736173541666666,0,0xA0A0,0xFFFF
10.736198874999999,0,0x200A,0xFFFF
10.736223541666666,0,0x4F4F,0xFFFF
10.736248833333333,0,0x6004,0xFFFF
10.736273833333334,0,0x7272,0x0000
10.736299333333333,0,0x6009,0xFFFF
10.736324249999999,0,0x7373,0x8484
10.736349750000000,0,0x6008,0xFFFF
10.736374791666666,0,0x7474,0x0C0C
10.736400416666667,0,0x6007,0xFFFF
10.736425583333334,0,0x7575,0x3030
10.736451083333334,0,0x6006,0xFFFF
10.736476041666666,0,0x7676,0x0000
10.736501499999999,0,0x6004,0xFFFF
10.736526583333333,0,0x7777,0x0000
10.736551833333333,0,0x2005,0xFFFF
10.736576583333333,0,0xA0A0,0xFFFF
10.736601666666667,0,0x200A,0xFFFF
10.736626500000000,0,0x4F4F,0xFFFF
10.736651875000000,0,0x6004,0xFFFF
10.736677041666667,0,0x7878,0x0000
10.736702583333333,0,0x6009,0xFFFF
10.736727541666667,0,0x7979,0x2222
10.736753041666667,0,0x6008,0xFFFF
10.736777916666666,0,0x7A7A,0x8E8E
10.736803583333334,0,0x6007,0xFFFF
10.736828708333332,0,0x7B7B,0x5050
10.736854250000000,0,0x6006,0xFFFF
10.736879000000000,0,0x7C7C,0x0000
10.736904500000000,0,0x6004,0xFFFF
10.736929625000000,0,0x7D7D,0x0000
10.736955208333333,0,0x2005,0xFFFF
10.736980000000001,0,0xA0A0,0xFFFF
10.737005208333333,0,0x200A,0xFFFF
10.737029791666666,0,0x4F4F,0xFFFF
10.737054958333333,0,0x6004,0xFFFF
10.737079833333333,0,0x7E7E,0x0000
10.737105583333333,0,0x6009,0xFFFF
10.737130666666667,0,0x7F7F,0x8484
10.737156166666667,0,0x6008,0xFFFF
10.737181166666666,0,0x8080,0xACAC
10.737206833333333,0,0x6007,0xFFFF
10.737232000000001,0,0x8181,0x3030
10.737257541666667,0,0x6006,0xFFFF
10.737282541666668,0,0x8282,0x0000
10.737308083333334,0,0x6004,0xFFFF
10.737333124999999,0,0x8383,0x0000
10.737358499999999,0,0x2005,0xFFFF
10.737383166666667,0,0xA0A0,0xFFFF
10.737408416666666,0,0x200A,0xFFFF
10.737433291666667,0,0x4F4F,0xFFFF
10.737458541666667,0,0x6004,0xFFFF
10.737483500000000,0,0x8484,0x0000
10.737509041666666,0,0x6009,0xFFFF
10.737534083333333,0,0x8585,0x2222
10.737559458333333,0,0x6008,0xFFFF
10.737584291666666,0,0x8686,0x8E8E
10.737614666666667,0,0x6007,0xFFFF
10.737641208333333,0,0x8787,0x5050
10.737667291666666,0,0x6006,0xFFFF
10.737692333333333,0,0x8888,0x0000
10.737717708333333,0,0x6004,0xFFFF
10.737742750000001,0,0x8989,0x0000
10.737768291666667,0,0x2005,0xFFFF
10.737793333333334,0,0xA0A0,0xFFFF
10.737818624999999,0,0x200A,0xFFFF
10.737843458333334,0,0x4F4F,0xFFFF
10.737868666666667,0,0x6004,0xFFFF
10.737893583333333,0,0x8A8A,0x0000
10.737919249999999,0,0x6009,0xFFFF
10.737944416666666,0,0x8B8B,0x8787
10.737969958333334,0,0x6008,0xFFFF
10.737994916666667,0,0x8C8C,0x2C2C
10.738020291666666,0,0x6007,0xFFFF
10.738045375000000,0,0x8D8D,0x3030
10.738071041666666,0,0x6006,0xFFFF
10.738096125000000,0,0x8E8E,0x0000
10.738121541666667,0,0x6004,0xFFFF
10.738146791666667,0,0x8F8F,0x0000
10.738172166666667,0,0x2005,0xFFFF
10.738196875000000,0,0xA0A0,0xFFFF
10.738222208333333,0,0x200A,0xFFFF
10.738247208333334,0,0x4F4F,0xFFFF
10.738272666666667,0,0x6004,0xFFFF
10.738297666666666,0,0x9090,0x0000
10.738323375000000,0,0x6009,0xFFFF
10.738348333333333,0,0x9191,0x2222
10.738373708333333,0,0x6008,0xFFFF
10.738398666666667,0,0x9292,0x8E8E
10.738424000000000,0,0x6007,0xFFFF
10.738448999999999,0,0x9393,0x5050
10.738474500000001,0,0x6006,0xFFFF
10.738499458333333,0,0x9494,0x0000
10.738524999999999,0,0x6004,0xFFFF
10.738549875000000,0,0x9595,0x0000
10.738575375000000,0,0x2005,0xFFFF
10.738600000000000,0,0xA0A0,0xFFFF
10.738625333333333,0,0x200A,0xFFFF
10.738650041666666,0,0x4F4F,0xFFFF
10.738675166666667,0,0x6004,0xFFFF
10.738700083333333,0,0x9696,0x0000
10.738725875000000,0,0x6009,0xFFFF
10.738751000000001,0,0x9797,0x8989
10.738776625000000,0,0x6008,0xFFFF
10.738801583333334,0,0x9898,0x6C6C
10.738827125000000,0,0x6007,0xFFFF
10.738852041666666,0,0x9999,0x3030
10.738877541666668,0,0x6006,0xFFFF
10.738902500000000,0,0x9A9A,0x0000
10.738927875000000,0,0x6004,0xFFFF
10.738952708333333,0,0x9B9B,0x0000
10.738978333333334,0,0x2005,0xFFFF
10.739003125000000,0,0xA0A0,0xFFFF
10.739028500000000,0,0x200A,0xFFFF
10.739053166666666,0,0x4F4F,0xFFFF
10.739078749999999,0,0x6004,0xFFFF
10.739103625000000,0,0x9C9C,0x0000
10.739129041666667,0,0x6009,0xFFFF
10.739153999999999,0,0x9D9D,0x2222
10.739179500000001,0,0x6008,0xFFFF
10.739204500000000,0,0x9E9E,0x8E8E
10.739229916666666,0,0x6007,0xFFFF
10.739254708333334,0,0x9F9F,0x5050
10.739280583333333,0,0x6006,0xFFFF
10.739306083333334,0,0xA0A0,0x0000
10.739331791666666,0,0x6004,0xFFFF
10.739356791666667,0,0xA1A1,0x0000
10.739382333333333,0,0x2005,0xFFFF
10.739407125000000,0,0xA0A0,0xFFFF
10.739432375000000,0,0x200A,0xFFFF
10.739457124999999,0,0x4F4F,0xFFFF
10.739482625000001,0,0x6004,0xFFFF
10.739507625000000,0,0xA2A2,0x0000
10.739533000000000,0,0x6009,0xFFFF
10.739558000000001,0,0xA3A3,0x8A8A
10.739583416666667,0,0x6008,0xFFFF
10.739608333333333,0,0xA4A4,0x8C8C
10.739633708333333,0,0x6007,0xFFFF
10.739658916666666,0,0xA5A5,0x3030
10.739684499999999,0,0x6006,0xFFFF
10.739709625000000,0,0xA6A6,0x0000
10.739735000000000,0,0x6004,0xFFFF
10.739759958333334,0,0xA7A7,0x0000
10.739785416666667,0,0x2005,0xFFFF
10.739810125000000,0,0xA0A0,0xFFFF
10.739835333333334,0,0x200A,0xFFFF
10.739860166666666,0,0x4F4F,0xFFFF
10.739885708333333,0,0x6004,0xFFFF
10.739910791666667,0,0xA8A8,0x0000
10.739936291666666,0,0x6009,0xFFFF
10.739961208333334,0,0xA9A9,0x2222
10.739986750000000,0,0x6008,0xFFFF
10.740011833333334,0,0xAAAA,0x8E8E
10.740037375000000,0,0x6007,0xFFFF
10.740062541666667,0,0xABAB,0x5050
10.740087958333334,0,0x6006,0xFFFF
10.740113041666667,0,0xACAC,0x0000
10.740138583333334,0,0x6004,0xFFFF
10.740163416666666,0,0xADAD,0x0000
10.740188791666666,0,0x2005,0xFFFF
10.740213666666667,0,0xA0A0,0xFFFF
10.740238791666666,0,0x200A,0xFFFF
10.740263499999999,0,0x4F4F,0xFFFF
10.740288916666668,0,0x6004,0xFFFF
10.740313916666667,0,0xAEAE,0x0000
10.740339583333334,0,0x6009,0xFFFF
10.740364958333334,0,0xAFAF,0x8B8B
10.740390541666667,0,0x6008,0xFFFF
10.740415333333333,0,0xB0B0,0x0C0C
10.740440916666667,0,0x6007,0xFFFF
10.740466000000000,0,0xB1B1,0x3030
10.740491416666666,0,0x6006,0xFFFF
10.740516333333334,0,0xB2B2,0x0000
10.740541916666666,0,0x6004,0xFFFF
10.740566958333334,0,0xB3B3,0x0000
10.740592666666666,0,0x2005,0xFFFF
10.740617416666666,0,0xA0A0,0xFFFF
10.740642625000000,0,0x200A,0xFFFF
10.740667291666666,0,0x4F4F,0xFFFF
10.740692500000000,0,0x6004,0xFFFF
10.740717416666667,0,0xB4B4,0x0000
10.740742958333334,0,0x6009,0xFFFF
10.740767999999999,0,0xB5B5,0x2222
10.740793416666667,0,0x6008,0xFFFF
10.740818208333334,0,0xB6B6,0x8E8E
10.740843791666666,0,0x6007,0xFFFF
10.740868750000001,0,0xB7B7,0x5050
10.740894416666666,0,0x6006,0xFFFF
10.740919375000001,0,0xB8B8,0x0000
10.740944833333334,0,0x6004,0xFFFF
10.740969791666666,0,0xB9B9,0x0000
10.740995416666667,0,0x2005,0xFFFF
10.741020208333333,0,0xA0A0,0xFFFF
10.741045416666667,0,0x200A,0xFFFF
10.741070250000000,0,0x4F4F,0xFFFF
10.741095458333334,0,0x6004,0xFFFF
10.741120416666666,0,0xBABA,0x0000
10.741145875000001,0,0x6009,0xFFFF
10.741170833333333,0,0xBBBB,0x8D8D
10.741196333333333,0,0x6008,0xFFFF
10.741221124999999,0,0xBCBC,0xCCCC
10.741246583333334,0,0x6007,0xFFFF
10.741271583333333,0,0xBDBD,0x3030
10.741296999999999,0,0x6006,0xFFFF
10.741322000000000,0,0xBEBE,0x0000
10.741347583333333,0,0x6004,0xFFFF
10.741372500000001,0,0xBFBF,0x0000
10.741398000000000,0,0x2005,0xFFFF
10.741422916666666,0,0xA0A0,0xFFFF
10.741448333333333,0,0x200A,0xFFFF
10.741473125000001,0,0x4F4F,0xFFFF
10.741498249999999,0,0x6004,0xFFFF
10.741523208333334,0,0xC0C0,0x0000
10.741548708333333,0,0x6009,0xFFFF
10.741573499999999,0,0xC1C1,0x2222
10.741598791666666,0,0x6008,0xFFFF
10.741618125000000,0,0xC2C2,0x8E8E
10.741644166666667,0,0x6007,0xFFFF
10.741670833333334,0,0xC3C3,0x5050
10.741696083333334,0,0x6006,0xFFFF
10.741721708333333,0,0xC4C4,0x0000
10.741746791666667,0,0x6004,0xFFFF
10.741772541666666,0,0xC5C5,0x0000
10.741797583333334,0,0x2005,0xFFFF
10.741822916666667,0,0xA0A0,0xFFFF
10.741847541666667,0,0x200A,0xFFFF
10.741873000000000,0,0x4F4F,0xFFFF
10.741897916666666,0,0x6004,0xFFFF
10.741923625000000,0,0xC6C6,0x0000
10.741948666666667,0,0x6009,0xFFFF
10.741974583333333,0,0xC7C7,0x8F8F
10.741999750000000,0,0x6008,0xFFFF
10.742025291666666,0,0xC8C8,0x2C2C
10.742050291666667,0,0x6007,0xFFFF
10.742075791666666,0,0xC9C9,0x3030
10.742100750000001,0,0x6006,0xFFFF
10.742126250000000,0,0xCACA,0x0000
10.742151375000001,0,0x6004,0xFFFF
10.742176875000000,0,0xCBCB,0x0000
10.742201916666666,0,0x2005,0xFFFF
10.742227041666666,0,0xA0A0,0xFFFF
10.742251708333333,0,0x200A,0xFFFF
10.742277000000000,0,0x4F4F,0xFFFF
10.742301875000001,0,0x6004,0xFFFF
10.742327583333333,0,0xCCCC,0x0000
10.742352625000001,0,0x6009,0xFFFF
10.742378208333333,0,0xCDCD,0x2222
10.742403291666667,0,0x6008,0xFFFF
10.742428875000000,0,0xCECE,0x8E8E
10.742454125000000,0,0x6007,0xFFFF
10.742479749999999,0,0xCFCF,0x5050
10.742505166666668,0,0x6006,0xFFFF
10.742530791666667,0,0xD0D0,0x0000
10.742545458333334,0,0x6004,0xFFFF
10.742570250000000,0,0xD1D1,0x0000
10.742596000000001,0,0x2005,0xFFFF
10.742620875000000,0,0xA0A0,0xFFFF
10.742646041666667,0,0x200A,0xFFFF
10.742670875000000,0,0x4F4F,0xFFFF
10.742696208333333,0,0x6004,0xFFFF
10.742721250000001,0,0xD2D2,0x0000
10.742746916666666,0,0x6009,0xFFFF
10.742771916666667,0,0xD3D3,0x9191
10.742797541666667,0,0x6008,0xFFFF
10.742822458333332,0,0xD4D4,0x0C0C
10.742848166666667,0,0x6007,0xFFFF
10.742873124999999,0,0xD5D5,0x3030
10.742898750000000,0,0x6006,0xFFFF
10.742923791666668,0,0xD6D6,0x0000
10.742949291666667,0,0x6004,0xFFFF
10.742974291666666,0,0xD7D7,0x0000
10.742999791666668,0,0x2005,0xFFFF
10.743024791666667,0,0xA0A0,0xFFFF
10.743050166666666,0,0x200A,0xFFFF
10.743075125000001,0,0x4F4F,0xFFFF
10.743100458333334,0,0x6004,0xFFFF
10.743125583333333,0,0xD8D8,0x0000
10.743151041666666,0,0x6009,0xFFFF
10.743176125000000,0,0xD9D9,0x2222
10.743201583333333,0,0x6008,0xFFFF
10.743226458333334,0,0xDADA,0x8E8E
10.743252000000000,0,0x6007,0xFFFF
10.743277000000001,0,0xDBDB,0x5050
10.743302333333334,0,0x6006,0xFFFF
10.743327458333333,0,0xDCDC,0x0000
10.743353083333334,0,0x6004,0xFFFF
10.743378125000000,0,0xDDDD,0x0000
10.743403583333333,0,0x2005,0xFFFF
10.743428291666667,0,0xA0A0,0xFFFF
10.743453916666667,0,0x200A,0xFFFF
10.743478708333333,0,0x4F4F,0xFFFF
10.743504000000000,0,0x6004,0xFFFF
10.743528916666667,0,0xDEDE,0x0000
10.743554916666668,0,0x6009,0xFFFF
10.743580208333332,0,0xDFDF,0x9393
10.743605958333333,0,0x6008,0xFFFF
10.743630958333334,0,0xE0E0,0x6C6C
10.743656625000000,0,0x6007,0xFFFF
10.743681750000000,0,0xE1E1,0x3030
10.743707291666666,0,0x6006,0xFFFF
10.743732166666666,0,0xE2E2,0x0000
10.743757666666667,0,0x6004,0xFFFF
10.743783250000000,0,0xE3E3,0x0000
10.743809458333333,0,0x2005,0xFFFF
10.743834583333333,0,0xA0A0,0xFFFF
10.743860124999999,0,0x200A,0xFFFF
10.743885083333334,0,0x4F4F,0xFFFF
10.743910416666667,0,0x6004,0xFFFF
10.743935375000000,0,0xE4E4,0x0000
10.743961041666667,0,0x6009,0xFFFF
10.743986124999999,0,0xE5E5,0x2222
10.744011791666667,0,0x6008,0xFFFF
10.744037041666667,0,0xE6E6,0x8E8E
10.744062625000000,0,0x6007,0xFFFF
10.744087791666667,0,0xE7E7,0x5050
10.744113416666666,0,0x6006,0xFFFF
10.744138416666667,0,0xE8E8,0x0000
10.744163875000000,0,0x6004,0xFFFF
10.744188958333334,0,0xE9E9,0x0000
10.744214458333333,0,0x2005,0xFFFF
10.744239416666666,0,0xA0A0,0xFFFF
10.744265541666667,0,0x200A,0xFFFF
10.744290749999999,0,0x4F4F,0xFFFF
10.744316291666667,0,0x6004,0xFFFF
10.744341374999999,0,0xEAEA,0x0000
10.744366916666667,0,0x6009,0xFFFF
10.744391875000000,0,0xEBEB,0x9393
10.744417625000001,0,0x6008,0xFFFF
10.744442666666666,0,0xECEC,0xECEC
10.744468333333334,0,0x6007,0xFFFF
10.744493458333332,0,0xEDED,0x3030
10.744519000000000,0,0x6006,0xFFFF
10.744543999999999,0,0xEEEE,0x0000
10.744569750000000,0,0x6004,0xFFFF
10.744594791666668,0,0xEFEF,0x0000
10.744620458333333,0,0x2005,0xFFFF
10.744645208333333,0,0xA0A0,0xFFFF
10.744670500000000,0,0x200A,0xFFFF
10.744695249999999,0,0x4F4F,0xFFFF
10.744720624999999,0,0x6004,0xFFFF
10.744745666666667,0,0xF0F0,0x0000
10.744771083333333,0,0x6009,0xFFFF
10.744796166666667,0,0xF1F1,0x2222
10.744821833333333,0,0x6008,0xFFFF
10.744846833333334,0,0xF2F2,0x8E8E
10.744872291666667,0,0x6007,0xFFFF
10.744897333333334,0,0xF3F3,0x5050
10.744922833333334,0,0x6006,0xFFFF
10.744947583333333,0,0xF4F4,0x0000
10.744973083333333,0,0x6004,0xFFFF
10.744998166666667,0,0xF5F5,0x0000
10.745023666666667,0,0x2005,0xFFFF
10.745048375000000,0,0xA0A0,0xFFFF
10.745073541666667,0,0x200A,0xFFFF
10.745098083333334,0,0x4F4F,0xFFFF
10.745123666666666,0,0x6004,0xFFFF
10.745148791666667,0,0xF6F6,0x0000
10.745174625000001,0,0x6009,0xFFFF
10.745200041666667,0,0xF7F7,0x9494
10.745225749999999,0,0x6008,0xFFFF
10.745250791666667,0,0xF8F8,0x4C4C
10.745276291666666,0,0x6007,0xFFFF
10.745301250000001,0,0xF9F9,0x3030
10.745326791666667,0,0x6006,0xFFFF
10.745351791666666,0,0xFAFA,0x0000
10.745377124999999,0,0x6004,0xFFFF
10.745402166666667,0,0xFBFB,0x0000
10.745427791666666,0,0x2005,0xFFFF
10.745452583333334,0,0xA0A0,0xFFFF
10.745477916666667,0,0x200A,0xFFFF
10.745502791666667,0,0x4F4F,0xFFFF
10.745528208333333,0,0x6004,0xFFFF
10.745553208333334,0,0xFCFC,0x0000
10.745578833333333,0,0x6009,0xFFFF
10.745604000000000,0,0xFDFD,0x2222
10.745635000000000,0,0x6008,0xFFFF
10.745660875000000,0,0xFEFE,0x8E8E
10.745686666666666,0,0x6007,0xFFFF
10.745711833333333,0,0xFFFF,0x5050
10.745737125000000,0,0x6006,0xFFFF
10.745761999999999,0,0x0000,0x0000
10.745787416666667,0,0x6004,0xFFFF
10.745812250000000,0,0x0101,0x0000
10.745837874999999,0,0x2005,0xFFFF
10.745862541666666,0,0xA0A0,0xFFFF
10.745887874999999,0,0x200A,0xFFFF
10.745912583333334,0,0x4F4F,0xFFFF
10.745938000000001,0,0x6004,0xFFFF
10.745963000000000,0,0x0202,0x0000
10.745988333333333,0,0x6009,0xFFFF
10.746013083333333,0,0x0303,0x9494
10.746038416666666,0,0x6008,0xFFFF
10.746063333333334,0,0x0404,0xCCCC
10.746088958333333,0,0x6007,0xFFFF
10.746113875000001,0,0x0505,0x3030
10.746139166666667,0,0x6006,0xFFFF
10.746163916666667,0,0x0606,0x0000
10.746189250000000,0,0x6004,0xFFFF
10.746214208333333,0,0x0707,0x0000
10.746239624999999,0,0x2005,0xFFFF
10.746264541666667,0,0xA0A0,0xFFFF
10.746289708333334,0,0x200A,0xFFFF
10.746314375000001,0,0x4F4F,0xFFFF
10.746339708333334,0,0x6004,0xFFFF
10.746364625000000,0,0x0808,0x0000
10.746390083333333,0,0x6009,0xFFFF
10.746415083333334,0,0x0909,0x2222
10.746440583333333,0,0x6008,0xFFFF
10.746465291666667,0,0x0A0A,0x8E8E
10.746490666666666,0,0x6007,0xFFFF
10.746515583333334,0,0x0B0B,0x5050
10.746541083333334,0,0x6006,0xFFFF
10.746566124999999,0,0x0C0C,0x0000
10.746591458333333,0,0x6004,0xFFFF
10.746616500000000,0,0x0D0D,0x0000
10.746642041666666,0,0x2005,0xFFFF
10.746666958333334,0,0xA0A0,0xFFFF
10.746692124999999,0,0x200A,0xFFFF
10.746716916666667,0,0x4F4F,0xFFFF
10.746742208333334,0,0x6004,0xFFFF
10.746767166666666,0,0x0E0E,0x0000
10.746792583333333,0,0x6009,0xFFFF
10.746817833333333,0,0x0F0F,0x9595
10.746843541666667,0,0x6008,0xFFFF
10.746868541666666,0,0x1010,0x2C2C
10.746893999999999,0,0x6007,0xFFFF
10.746918791666667,0,0x1111,0x3030
10.746944333333333,0,0x6006,0xFFFF
10.746969291666666,0,0x1212,0x0000
10.746994916666667,0,0x6004,0xFFFF
10.747020041666667,0,0x1313,0x0000
10.747045541666667,0,0x2005,0xFFFF
10.747070291666667,0,0xA0A0,0xFFFF
10.747095500000000,0,0x200A,0xFFFF
10.747120291666667,0,0x4F4F,0xFFFF
10.747145500000000,0,0x6004,0xFFFF
10.747170416666666,0,0x1414,0x0000
10.747195749999999,0,0x6009,0xFFFF
10.747220666666667,0,0x1515,0x2222
10.747246083333334,0,0x6008,0xFFFF
10.747270916666666,0,0x1616,0x8E8E
10.747296499999999,0,0x6007,0xFFFF
10.747321416666667,0,0x1717,0x5050
10.747347083333333,0,0x6006,0xFFFF
10.747371958333334,0,0x1818,0x0000
10.747397500000000,0,0x6004,0xFFFF
10.747422374999999,0,0x1919,0x0000
10.747447833333334,0,0x2005,0xFFFF
10.747472583333334,0,0xA0A0,0xFFFF
10.747497791666667,0,0x200A,0xFFFF
10.747522541666667,0,0x4F4F,0xFFFF
10.747547750000001,0,0x6004,0xFFFF
10.747572750000000,0,0x1A1A,0x0000
10.747598375000001,0,0x6009,0xFFFF
10.747623500000000,0,0x1B1B,0xAFAF
10.747648958333333,0,0x6008,0xFFFF
10.747673833333334,0,0x1C1C,0x6C6C
10.747699291666667,0,0x6007,0xFFFF
10.747724375000001,0,0x1D1D,0x3030
10.747749916666667,0,0x6006,0xFFFF
10.747774916666666,0,0x1E1E,0x0000
10.747800333333334,0,0x6004,0xFFFF
10.747825166666667,0,0x1F1F,0x0000
10.747850583333333,0,0x2005,0xFFFF
10.747875333333333,0,0xA0A0,0xFFFF
10.747900625000000,0,0x200A,0xFFFF
10.747925374999999,0,0x4F4F,0xFFFF
10.747950708333333,0,0x6004,0xFFFF
10.747975708333334,0,0x2020,0x0000
10.748001250000000,0,0x6009,0xFFFF
10.748026375000000,0,0x2121,0x2222
10.748051750000000,0,0x6008,0xFFFF
10.748076624999999,0,0x2222,0x8E8E
10.748102250000001,0,0x6007,0xFFFF
10.748126916666667,0,0x2323,0x5050
10.748152291666667,0,0x6006,0xFFFF
10.748177125000000,0,0x2424,0x0000
10.748202666666666,0,0x6004,0xFFFF
10.748227625000000,0,0x2525,0x0000
10.748253000000000,0,0x2005,0xFFFF
10.748277625000000,0,0xA0A0,0xFFFF
10.748303000000000,0,0x200A,0xFFFF
10.748327666666667,0,0x4F4F,0xFFFF
10.748352958333333,0,0x6004,0xFFFF
10.748378000000001,0,0x2626,0x0000
10.748403708333333,0,0x6009,0xFFFF
10.748428875000000,0,0x2727,0xB0B0
10.748454666666667,0,0x6008,0xFFFF
10.748479750000000,0,0x2828,0x2C2C
10.748505249999999,0,0x6007,0xFFFF
10.748530125000000,0,0x2929,0x3030
10.748555708333333,0,0x6006,0xFFFF
10.748580583333334,0,0x2A2A,0x0000
10.748606083333334,0,0x6004,0xFFFF
10.748631000000000,0,0x2B2B,0x0000
10.748656750000000,0,0x2005,0xFFFF
10.748681749999999,0,0xA0A0,0xFFFF
10.748707083333333,0,0x200A,0xFFFF
10.748731875000001,0,0x4F4F,0xFFFF
10.748757124999999,0,0x6004,0xFFFF
10.748782041666667,0,0x2C2C,0x0000
10.748807583333333,0,0x6009,0xFFFF
10.748832625000000,0,0x2D2D,0x0000
10.748858125000000,0,0x6008,0xFFFF
10.748883208333334,0,0x2E2E,0x2E2E
10.748908708333333,0,0x6007,0xFFFF
10.748933750000001,0,0x2F2F,0x0000
10.748959083333334,0,0x6006,0xFFFF
10.748984041666667,0,0x3030,0x0000
10.749009458333333,0,0x6004,0xFFFF
10.749034541666667,0,0x3131,0x0000
10.749060125000000,0,0x2005,0xFFFF
10.749084958333333,0,0xA0A0,0xFFFF
10.749110333333334,0,0x200A,0xFFFF
10.749134958333334,0,0x4F4F,0xFFFF
10.749160208333333,0,0x6004,0xFFFF
10.749185375000000,0,0x3232,0x0000
10.749211041666667,0,0x6009,0xFFFF
10.749235833333334,0,0x3333,0x7878
10.749261208333333,0,0x6008,0xFFFF
10.749286208333332,0,0x3434,0x0C0C
10.749311875000000,0,0x6007,0xFFFF
10.749336916666667,0,0x3535,0x0000
10.749362291666667,0,0x6006,0xFFFF
10.749387250000000,0,0x3636,0x0000
10.749412708333333,0,0x6004,0xFFFF
10.749437708333334,0,0x3737,0x0000
10.749463291666666,0,0x2005,0xFFFF
10.749488166666668,0,0xA0A0,0xFFFF
10.749513416666666,0,0x200A,0xFFFF
10.749538125000001,0,0x4F4F,0xFFFF
10.749563374999999,0,0x6004,0xFFFF
10.749588333333334,0,0x3838,0x0000
10.749613750000000,0,0x6009,0xFFFF
10.749644458333334,0,0x3939,0x6E6E
10.749670708333333,0,0x6008,0xFFFF
10.749696041666667,0,0x3A3A,0x6666
10.749721583333333,0,0x6007,0xFFFF
10.749746541666667,0,0x3B3B,0x8080
10.749772125000000,0,0x6006,0xFFFF
10.749796958333333,0,0x3C3C,0x0000
10.749822625000000,0,0x6004,0xFFFF
10.749847500000000,0,0x3D3D,0x0000
10.749872791666666,0,0x2005,0xFFFF
10.749897541666666,0,0xA0A0,0xFFFF
10.749922833333333,0,0x200A,0xFFFF
10.749947499999999,0,0x4F4F,0xFFFF
10.749972625000000,0,0x6004,0xFFFF
10.749997458333333,0,0x3E3E,0x0000
10.750022916666667,0,0x6009,0xFFFF
10.750048291666667,0,0x3F3F,0x2222
10.750073708333334,0,0x6008,0xFFFF
10.750098541666667,0,0x4040,0x8E8E
10.750124250000001,0,0x6007,0xFFFF
10.750149208333333,0,0x4141,0x5050
10.750174666666666,0,0x6006,0xFFFF
10.750199541666667,0,0x4242,0x0000
10.750224875000001,0,0x6004,0xFFFF
10.750249750000000,0,0x4343,0x0000
10.750275125000000,0,0x2005,0xFFFF
10.750299791666666,0,0xA0A0,0xFFFF
10.750324958333334,0,0x200A,0xFFFF
10.750349625000000,0,0x4F4F,0xFFFF
10.750374833333334,0,0x6004,0xFFFF
10.750399625000000,0,0x4444,0x0000
10.750425000000000,0,0x6009,0xFFFF
10.750450125000000,0,0x4545,0x7777
10.750475666666667,0,0x6008,0xFFFF
10.750500541666666,0,0x4646,0xECEC
10.750526041666667,0,0x6007,0xFFFF
10.750551000000000,0,0x4747,0x0000
10.750576208333333,0,0x6006,0xFFFF
10.750601124999999,0,0x4848,0x0000
10.750626583333334,0,0x6004,0xFFFF
10.750651500000000,0,0x4949,0x0000
10.750677000000000,0,0x2005,0xFFFF
10.750701875000001,0,0xA0A0,0xFFFF
10.750726916666666,0,0x200A,0xFFFF
10.750751624999999,0,0x4F4F,0xFFFF
10.750776791666667,0,0x6004,0xFFFF
10.750801833333334,0,0x4A4A,0x0000
10.750827458333333,0,0x6009,0xFFFF
10.750852500000001,0,0x4B4B,0x8888
10.750877916666667,0,0x6008,0xFFFF
10.750902875000000,0,0x4C4C,0x4646
10.750928416666667,0,0x6007,0xFFFF
10.750953583333333,0,0x4D4D,0x5050
10.750979041666668,0,0x6006,0xFFFF
10.751004208333333,0,0x4E4E,0x0000
10.751029791666667,0,0x6004,0xFFFF
10.751054750000000,0,0x4F4F,0x0000
10.751080083333333,0,0x2005,0xFFFF
10.751104708333333,0,0xA0A0,0xFFFF
10.751129958333333,0,0x200A,0xFFFF
10.751154791666666,0,0x4F4F,0xFFFF
10.751180166666666,0,0x6004,0xFFFF
10.751205000000001,0,0x5050,0x0000
10.751230291666667,0,0x6009,0xFFFF
10.751255125000000,0,0x5151,0x6464
10.751280625000000,0,0x6008,0xFFFF
10.751305750000000,0,0x5252,0x1A1A
10.751331208333333,0,0x6007,0xFFFF
10.751356041666666,0,0x5353,0x2020
10.751381458333332,0,0x6006,0xFFFF
10.751406291666667,0,0x5454,0x0000
10.751431999999999,0,0x6004,0xFFFF
10.751457000000000,0,0x5555,0x0000
10.751482500000000,0,0x2005,0xFFFF
10.751507291666666,0,0xA0A0,0xFFFF
10.751532416666667,0,0x200A,0xFFFF
10.751557166666666,0,0x4F4F,0xFFFF
10.751582583333333,0,0x6004,0xFFFF
10.751607750000000,0,0x5656,0x0000
10.751633333333332,0,0x6009,0xFFFF
10.751658583333333,0,0x5757,0x8383
10.751684083333334,0,0x6008,0xFFFF
10.751709125000000,0,0x5858,0xC7C7
10.751735500000001,0,0x6007,0xFFFF
10.751761333333333,0,0x5959,0x5050
10.751787083333333,0,0x6006,0xFFFF
10.751812125000001,0,0x5A5A,0x0000
10.751837625000000,0,0x6004,0xFFFF
10.751862791666667,0,0x5B5B,0x0000
10.751888291666667,0,0x2005,0xFFFF
10.751913500000001,0,0xA0A0,0xFFFF
10.751938875000000,0,0x200A,0xFFFF
10.751963666666667,0,0x4F4F,0xFFFF
10.751989083333333,0,0x6004,0xFFFF
10.752014125000001,0,0x5C5C,0x0000
10.752039625000000,0,0x6009,0xFFFF
10.752064458333333,0,0x5D5D,0x2222
10.752089958333332,0,0x6008,0xFFFF
10.752114708333334,0,0x5E5E,0xEEEE
10.752140125000000,0,0x6007,0xFFFF
10.752165041666666,0,0x5F5F,0x5050
10.752190625000001,0,0x6006,0xFFFF
10.752215583333333,0,0x6060,0x0000
10.752241041666666,0,0x6004,0xFFFF
10.752266000000001,0,0x6161,0x0000
10.752291375000000,0,0x2005,0xFFFF
10.752316166666667,0,0xA0A0,0xFFFF
10.752341416666667,0,0x200A,0xFFFF
10.752366250000000,0,0x4F4F,0xFFFF
10.752391500000000,0,0x6004,0xFFFF
10.752416416666666,0,0x6262,0x0000
10.752441791666667,0,0x6009,0xFFFF
10.752466583333334,0,0x6363,0x8686
10.752492291666666,0,0x6008,0xFFFF
10.752517166666667,0,0x6464,0xACAC
10.752542666666667,0,0x6007,0xFFFF
10.752567583333333,0,0x6565,0x3030
10.752593166666667,0,0x6006,0xFFFF
10.752618041666667,0,0x6666,0x0000
10.752643541666666,0,0x6004,0xFFFF
10.752668625000000,0,0x6767,0x0000
10.752694458333334,0,0x2005,0xFFFF
10.752719416666666,0,0xA0A0,0xFFFF
10.752744583333333,0,0x200A,0xFFFF
10.752769291666667,0,0x4F4F,0xFFFF
10.752794583333333,0,0x6004,0xFFFF
10.752819499999999,0,0x6868,0x0000
10.752845000000001,0,0x6009,0xFFFF
10.752870000000000,0,0x6969,0x5656
10.752895375000000,0,0x6008,0xFFFF
10.752920375000000,0,0x6A6A,0xDADA
10.752945791666667,0,0x6007,0xFFFF
10.752970958333334,0,0x6B6B,0x2020
10.752996416666667,0,0x6006,0xFFFF
10.753021458333333,0,0x6C6C,0x0000
10.753046875000001,0,0x6004,0xFFFF
10.753072000000000,0,0x6D6D,0x0000
10.753097500000001,0,0x2005,0xFFFF
10.753122500000000,0,0xA0A0,0xFFFF
10.753147875000000,0,0x200A,0xFFFF
10.753172916666667,0,0x4F4F,0xFFFF
10.753198291666667,0,0x6004,0xFFFF
10.753223458333334,0,0x6E6E,0x0000
10.753249041666667,0,0x6009,0xFFFF
10.753274541666666,0,0x6F6F,0x8383
10.753300333333334,0,0x6008,0xFFFF
10.753325458333334,0,0x7070,0xC7C7
10.753351000000000,0,0x6007,0xFFFF
10.753376083333333,0,0x7171,0x5050
10.753401708333334,0,0x6006,0xFFFF
10.753426666666666,0,0x7272,0x0000
10.753452291666667,0,0x6004,0xFFFF
10.753477291666666,0,0x7373,0x0000
10.753502708333333,0,0x2005,0xFFFF
10.753527541666667,0,0xA0A0,0xFFFF
10.753552750000001,0,0x200A,0xFFFF
10.753577583333334,0,0x4F4F,0xFFFF
10.753602958333333,0,0x6004,0xFFFF
10.753632416666667,0,0x7474,0x0000
10.753658208333333,0,0x6009,0xFFFF
10.753682749999999,0,0x7575,0x2222
10.753707666666667,0,0x6008,0xFFFF
10.753731958333333,0,0x7676,0xEEEE
10.753756624999999,0,0x6007,0xFFFF
10.753780791666667,0,0x7777,0x0000
10.753805666666667,0,0x6006,0xFFFF
10.753829874999999,0,0x7878,0x0000
10.753854708333334,0,0x6004,0xFFFF
10.753879625000000,0,0x7979,0x0000
10.753905124999999,0,0x2005,0xFFFF
10.753929375000000,0,0xA0A0,0xFFFF
10.753953833333334,0,0x200A,0xFFFF
10.753977916666667,0,0x4F4F,0xFFFF
10.754002541666667,0,0x6004,0xFFFF
10.754026833333333,0,0x7A7A,0x0000
10.754051541666668,0,0x6009,0xFFFF
10.754075875000000,0,0x7B7B,0x8585
10.754100625000000,0,0x6008,0xFFFF
10.754124916666667,0,0x7C7C,0xECEC
10.754149708333333,0,0x6007,0xFFFF
10.754173874999999,0,0x7D7D,0x3030
10.754198541666666,0,0x6006,0xFFFF
10.754222791666667,0,0x7E7E,0x0000
10.754247541666667,0,0x6004,0xFFFF
10.754271708333333,0,0x7F7F,0x0000
10.754296416666667,0,0x2005,0xFFFF
10.754320750000000,0,0xA0A0,0xFFFF
10.754346541666667,0,0x200A,0xFFFF
10.754371083333334,0,0x4F4F,0xFFFF
10.754395916666667,0,0x6004,0xFFFF
10.754420124999999,0,0x8080,0x0000
10.754445041666667,0,0x6009,0xFFFF
10.754469125000000,0,0x8181,0xBBBB
10.754493958333333,0,0x6008,0xFFFF
10.754518125000001,0,0x8282,0x6060
10.754542833333334,0,0x6007,0xFFFF
10.754567041666666,0,0x8383,0x5050
10.754591874999999,0,0x6006,0xFFFF
10.754616166666667,0,0x8484,0x0000
10.754641041666666,0,0x6004,0xFFFF
10.754665208333334,0,0x8585,0x0000
10.754689791666667,0,0x2005,0xFFFF
10.754713875000000,0,0xA0A0,0xFFFF
10.754738458333334,0,0x200A,0xFFFF
10.754762416666667,0,0x4F4F,0xFFFF
10.754787125000000,0,0x6004,0xFFFF
10.754811416666668,0,0x8686,0x0000
10.754836624999999,0,0x6009,0xFFFF
10.754861249999999,0,0x8787,0x5656
10.754886125000001,0,0x6008,0xFFFF
10.754910333333333,0,0x8888,0xFAFA
10.754935208333332,0,0x6007,0xFFFF
10.754959208333334,0,0x8989,0x2020
10.754984000000000,0,0x6006,0xFFFF
10.755008208333333,0,0x8A8A,0x0000
10.755033125000001,0,0x6004,0xFFFF
10.755057416666666,0,0x8B8B,0x0000
10.755082416666667,0,0x2005,0xFFFF
10.755106333333334,0,0xA0A0,0xFFFF
10.755131041666667,0,0x200A,0xFFFF
10.755155000000000,0,0x4F4F,0xFFFF
10.755179375000001,0,0x6004,0xFFFF
10.755203541666667,0,0x8C8C,0x0000
10.755228416666666,0,0x6009,0xFFFF
10.755252625000001,0,0x8D8D,0x6363
10.755277291666667,0,0x6008,0xFFFF
10.755301333333334,0,0x8E8E,0x7B7B
10.755326166666666,0,0x6007,0xFFFF
10.755350333333332,0,0x8F8F,0x5050
10.755375208333334,0,0x6006,0xFFFF
10.755399333333333,0,0x9090,0x0000
10.755423916666667,0,0x6004,0xFFFF
10.755448124999999,0,0x9191,0x0000
10.755472916666667,0,0x2005,0xFFFF
10.755496958333334,0,0xA0A0,0xFFFF
10.755521458333334,0,0x200A,0xFFFF
10.755545416666667,0,0x4F4F,0xFFFF
10.755569791666666,0,0x6004,0xFFFF
10.755593958333334,0,0x9292,0x0000
10.755618583333334,0,0x6009,0xFFFF
10.755642750000000,0,0x9393,0x2222
10.755667416666666,0,0x6008,0xFFFF
10.755691541666666,0,0x9494,0xEEEE
10.755716250000001,0,0x6007,0xFFFF
10.755740458333333,0,0x9595,0x1010
10.755765250000000,0,0x6006,0xFFFF
10.755789500000001,0,0x9696,0x0000
10.755814208333334,0,0x6004,0xFFFF
10.755838375000000,0,0x9797,0x0000
10.755863166666666,0,0x2005,0xFFFF
10.755887166666668,0,0xA0A0,0xFFFF
10.755911791666668,0,0x200A,0xFFFF
10.755935791666667,0,0x4F4F,0xFFFF
10.755960416666667,0,0x6004,0xFFFF
10.755984583333333,0,0x9898,0x0000
10.756009375000000,0,0x6009,0xFFFF
10.756033625000001,0,0x9999,0x8686
10.756058416666667,0,0x6008,0xFFFF
10.756082666666666,0,0x9A9A,0xACAC
10.756107625000000,0,0x6007,0xFFFF
10.756132041666667,0,0x9B9B,0x3030
10.756156624999999,0,0x6006,0xFFFF
10.756181291666667,0,0x9C9C,0x0000
10.756205874999999,0,0x6004,0xFFFF
10.756229958333334,0,0x9D9D,0x0000
10.756254791666667,0,0x2005,0xFFFF
10.756278625000000,0,0xA0A0,0xFFFF
10.756302916666666,0,0x200A,0xFFFF
10.756326958333334,0,0x4F4F,0xFFFF
10.756351333333333,0,0x6004,0xFFFF
10.756375500000001,0,0x9E9E,0x0000
10.756400291666667,0,0x6009,0xFFFF
10.756424791666667,0,0x9F9F,0xBBBB
10.756449750000000,0,0x6008,0xFFFF
10.756474083333334,0,0xA0A0,0x6060
10.756498875000000,0,0x6007,0xFFFF
10.756523083333333,0,0xA1A1,0x5050
10.756547625000000,0,0x6006,0xFFFF
10.756571750000001,0,0xA2A2,0x0000
10.756596666666667,0,0x6004,0xFFFF
10.756620791666666,0,0xA3A3,0x0000
10.756645499999999,0,0x2005,0xFFFF
10.756669499999999,0,0xA0A0,0xFFFF
10.756693958333333,0,0x200A,0xFFFF
10.756718041666666,0,0x4F4F,0xFFFF
10.756742750000001,0,0x6004,0xFFFF
10.756767083333333,0,0xA4A4,0x0000
10.756791750000000,0,0x6009,0xFFFF
10.756815874999999,0,0xA5A5,0x8383
10.756840625000001,0,0x6008,0xFFFF
10.756864875000000,0,0xA6A6,0xC6C6
10.756889624999999,0,0x6007,0xFFFF
10.756913791666667,0,0xA7A7,0x5050
10.756938541666667,0,0x6006,0xFFFF
10.756962708333333,0,0xA8A8,0x0000
10.756987333333333,0,0x6004,0xFFFF
10.757011708333334,0,0xA9A9,0x0000
10.757036291666667,0,0x2005,0xFFFF
10.757060291666667,0,0xA0A0,0xFFFF
10.757084875000000,0,0x200A,0xFFFF
10.757108708333334,0,0x4F4F,0xFFFF
10.757133083333333,0,0x6004,0xFFFF
10.757157291666667,0,0xAAAA,0x0000
10.757182125000000,0,0x6009,0xFFFF
10.757206375000001,0,0xABAB,0xB5B5
10.757231125000001,0,0x6008,0xFFFF
10.757255375000000,0,0xACAC,0x8686
10.757280083333333,0,0x6007,0xFFFF
10.757304166666666,0,0xADAD,0x5050
10.757328958333334,0,0x6006,0xFFFF
10.757352916666667,0,0xAEAE,0x0000
10.757377708333333,0,0x6004,0xFFFF
10.757401833333333,0,0xAFAF,0x0000
10.757426375000000,0,0x2005,0xFFFF
10.757450458333333,0,0xA0A0,0xFFFF
10.757474958333333,0,0x200A,0xFFFF
10.757498916666666,0,0x4F4F,0xFFFF
10.757523541666666,0,0x6004,0xFFFF
10.757547833333334,0,0xB0B0,0x0000
10.757572541666667,0,0x6009,0xFFFF
10.757596708333333,0,0xB1B1,0x1D1D
10.757621333333333,0,0x6008,0xFFFF
10.757652833333333,0,0xB2B2,0x2828
10.757678666666667,0,0x6007,0xFFFF
10.757704499999999,0,0xB3B3,0x2020
10.757729749999999,0,0x6006,0xFFFF
10.757755291666667,0,0xB4B4,0x0000
10.757780374999999,0,0x6004,0xFFFF
10.757805749999999,0,0xB5B5,0x0000
10.757830791666667,0,0x2005,0xFFFF
10.757856125000000,0,0xA0A0,0xFFFF
10.757880666666667,0,0x200A,0xFFFF
10.757906000000000,0,0x4F4F,0xFFFF
10.757930750000000,0,0x6004,0xFFFF
10.757956166666666,0,0xB6B6,0x0000
10.757981083333334,0,0x6009,0xFFFF
10.758006958333333,0,0xB7B7,0x2222
10.758032125000000,0,0x6008,0xFFFF
10.758057666666666,0,0xB8B8,0x8E8E
10.758082791666666,0,0x6007,0xFFFF
10.758108208333333,0,0xB9B9,0x5050
10.758133166666667,0,0x6006,0xFFFF
10.758158541666667,0,0xBABA,0x0000
10.758183416666666,0,0x6004,0xFFFF
10.758208708333333,0,0xBBBB,0x0000
10.758233833333334,0,0x2005,0xFFFF
10.758259125000000,0,0xA0A0,0xFFFF
10.758283958333333,0,0x200A,0xFFFF
10.758309208333333,0,0x4F4F,0xFFFF
10.758333708333334,0,0x6004,0xFFFF
10.758359208333333,0,0xBCBC,0x0000
10.758384166666668,0,0x6009,0xFFFF
10.758409458333333,0,0xBDBD,0xF4F4
10.758434166666667,0,0x6008,0xFFFF
10.758459666666667,0,0xBEBE,0xECEC
10.758484541666666,0,0x6007,0xFFFF
10.758509916666666,0,0xBFBF,0x1010
10.758534666666666,0,0x6006,0xFFFF
10.758559999999999,0,0xC0C0,0x0000
10.758584875000000,0,0x6004,0xFFFF
10.758610375000000,0,0xC1C1,0x0000
10.758635208333333,0,0x2005,0xFFFF
10.758660458333333,0,0xA0A0,0xFFFF
10.758685125000000,0,0x200A,0xFFFF
10.758710333333333,0,0x4F4F,0xFFFF
10.758734916666667,0,0x6004,0xFFFF
10.758760375000000,0,0xC2C2,0x0000
10.758785291666667,0,0x6009,0xFFFF
10.758810625000001,0,0xC3C3,0x6F6F
10.758835416666667,0,0x6008,0xFFFF
10.758860583333334,0,0xC4C4,0xA0A0
10.758885541666666,0,0x6007,0xFFFF
10.758910750000000,0,0xC5C5,0x5050
10.758935458333333,0,0x6006,0xFFFF
10.758960791666667,0,0xC6C6,0x0000
10.758985666666666,0,0x6004,0xFFFF
10.759011166666667,0,0xC7C7,0x0000
10.759035958333333,0,0x2005,0xFFFF
10.759061083333334,0,0xA0A0,0xFFFF
10.759085708333334,0,0x200A,0xFFFF
10.759110750000000,0,0x4F4F,0xFFFF
10.759135499999999,0,0x6004,0xFFFF
10.759161000000001,0,0xC8C8,0x0000
10.759185875000000,0,0x6009,0xFFFF
10.759211416666666,0,0xC9C9,0x8888
10.759236416666667,0,0x6008,0xFFFF
10.759261833333333,0,0xCACA,0x4646
10.759286916666667,0,0x6007,0xFFFF
10.759312083333333,0,0xCBCB,0x5050
10.759336791666666,0,0x6006,0xFFFF
10.759362125000001,0,0xCCCC,0x0000
10.759387125000000,0,0x6004,0xFFFF
10.759412500000000,0,0xCDCD,0x0000
10.759437500000001,0,0x2005,0xFFFF
10.759462624999999,0,0xA0A0,0xFFFF
10.759487333333333,0,0x200A,0xFFFF
10.759512624999999,0,0x4F4F,0xFFFF
10.759537249999999,0,0x6004,0xFFFF
10.759562583333333,0,0xCECE,0x0000
10.759587666666667,0,0x6009,0xFFFF
10.759613291666666,0,0xCFCF,0x6F6F
10.759638291666667,0,0x6008,0xFFFF
10.759663791666666,0,0xD0D0,0x9A9A
10.759688791666667,0,0x6007,0xFFFF
10.759714250000000,0,0xD1D1,0x2020
10.759739250000001,0,0x6006,0xFFFF
10.759764750000000,0,0xD2D2,0x0000
10.759789708333333,0,0x6004,0xFFFF
10.759815208333332,0,0xD3D3,0x0000
10.759840125000000,0,0x2005,0xFFFF
10.759865416666667,0,0xA0A0,0xFFFF
10.759890000000000,0,0x200A,0xFFFF
10.759915208333334,0,0x4F4F,0xFFFF
10.759939749999999,0,0x6004,0xFFFF
10.759965166666667,0,0xD4D4,0x0000
10.759989958333334,0,0x6009,0xFFFF
10.760015416666667,0,0xD5D5,0x6F6F
10.760040249999999,0,0x6008,0xFFFF
10.760065666666666,0,0xD6D6,0xA7A7
10.760090625000000,0,0x6007,0xFFFF
10.760116000000000,0,0xD7D7,0x5050
10.760140874999999,0,0x6006,0xFFFF
10.760166208333333,0,0xD8D8,0x0000
10.760191208333334,0,0x6004,0xFFFF
10.760216541666667,0,0xD9D9,0x0000
10.760241499999999,0,0x2005,0xFFFF
10.760266583333333,0,0xA0A0,0xFFFF
10.760291291666666,0,0x200A,0xFFFF
10.760316500000000,0,0x4F4F,0xFFFF
10.760341166666667,0,0x6004,0xFFFF
10.760366625000000,0,0xDADA,0x0000
10.760391666666667,0,0x6009,0xFFFF
10.760417041666667,0,0xDBDB,0x2222
10.760441833333333,0,0x6008,0xFFFF
10.760467250000000,0,0xDCDC,0xEEEE
10.760492041666666,0,0x6007,0xFFFF
10.760517374999999,0,0xDDDD,0x5050
10.760542333333333,0,0x6006,0xFFFF
10.760567958333333,0,0xDEDE,0x0000
10.760582583333333,0,0x6004,0xFFFF
10.760607291666666,0,0xDFDF,0x0000
10.760632875000001,0,0x2005,0xFFFF
10.760657541666667,0,0xA0A0,0xFFFF
10.760682583333333,0,0x200A,0xFFFF
10.760707083333333,0,0x4F4F,0xFFFF
10.760732166666667,0,0x6004,0xFFFF
10.760756958333333,0,0xE0E0,0x0000
10.760782375000000,0,0x6009,0xFFFF
10.760807249999999,0,0xE1E1,0x8989
10.760832750000001,0,0x6008,0xFFFF
10.760857458333334,0,0xE2E2,0x0C0C
10.760882625000001,0,0x6007,0xFFFF
10.760907416666667,0,0xE3E3,0x3030
10.760932583333334,0,0x6006,0xFFFF
10.760957333333334,0,0xE4E4,0x0000
10.760982916666666,0,0x6004,0xFFFF
10.761007791666668,0,0xE5E5,0x0000
10.761033250000001,0,0x2005,0xFFFF
10.761057916666667,0,0xA0A0,0xFFFF
10.761083250000000,0,0x200A,0xFFFF
10.761107958333334,0,0x4F4F,0xFFFF
10.761133250000000,0,0x6004,0xFFFF
10.761158208333333,0,0xE6E6,0x0000
10.761183708333334,0,0x6009,0xFFFF
10.761208833333333,0,0xE7E7,0x8080
10.761234583333334,0,0x6008,0xFFFF
10.761259458333333,0,0xE8E8,0x0000
10.761284791666666,0,0x6007,0xFFFF
10.761309458333333,0,0xE9E9,0x2020
10.761334750000000,0,0x6006,0xFFFF
10.761359541666666,0,0xEAEA,0x0000
10.761385166666667,0,0x6004,0xFFFF
10.761410124999999,0,0xEBEB,0x0000
10.761435625000001,0,0x2005,0xFFFF
10.761460416666667,0,0xA0A0,0xFFFF
10.761485416666666,0,0x200A,0xFFFF
10.761510333333334,0,0x4F4F,0xFFFF
10.761535416666666,0,0x6004,0xFFFF
10.761560125000001,0,0xECEC,0x0000
10.761585500000001,0,0x6009,0xFFFF
10.761610333333334,0,0xEDED,0x2323
10.761635833333333,0,0x6008,0xFFFF
10.761666291666666,0,0xEEEE,0x4E4E
10.761692166666666,0,0x6007,0xFFFF
10.761717500000000,0,0xEFEF,0x0000
10.761743041666668,0,0x6006,0xFFFF
10.761767916666667,0,0xF0F0,0x0000
10.761793375000000,0,0x6004,0xFFFF
10.761818458333334,0,0xF1F1,0x0000
10.761844708333333,0,0x2005,0xFFFF
10.761869624999999,0,0xA0A0,0xFFFF
10.761894833333333,0,0x200A,0xFFFF
10.761919541666666,0,0x4F4F,0xFFFF
10.761944708333333,0,0x6004,0xFFFF
10.761969791666667,0,0xF2F2,0x0000
10.761995166666667,0,0x6009,0xFFFF
10.762019875000000,0,0xF3F3,0x8888
10.762045333333333,0,0x6008,0xFFFF
10.762070083333333,0,0xF4F4,0xACAC
10.762095458333333,0,0x6007,0xFFFF
10.762120500000000,0,0xF5F5,0x3030
10.762145833333333,0,0x6006,0xFFFF
10.762170666666666,0,0xF6F6,0x0000
10.762196083333333,0,0x6004,0xFFFF
10.762220958333334,0,0xF7F7,0x0000
10.762246625000000,0,0x2005,0xFFFF
10.762271083333333,0,0xA0A0,0xFFFF
10.762296208333334,0,0x200A,0xFFFF
10.762320791666667,0,0x4F4F,0xFFFF
10.762345916666666,0,0x6004,0xFFFF
10.762370750000001,0,0xF8F8,0x0000
10.762396333333333,0,0x6009,0xFFFF
10.762421375000001,0,0xF9F9,0x8080
10.762446666666667,0,0x6008,0xFFFF
10.762471625000000,0,0xFAFA,0x0000
10.762497083333333,0,0x6007,0xFFFF
10.762521958333334,0,0xFBFB,0x4040
10.762547500000000,0,0x6006,0xFFFF
10.762572166666667,0,0xFCFC,0x0000
10.762597583333333,0,0x6004,0xFFFF
10.762622250000000,0,0xFDFD,0x0000
10.762647708333333,0,0x2005,0xFFFF
10.762672458333334,0,0xA0A0,0xFFFF
10.762697749999999,0,0x200A,0xFFFF
10.762722666666667,0,0x4F4F,0xFFFF
10.762747833333334,0,0x6004,0xFFFF
10.762772958333333,0,0xFEFE,0x0000
10.762798333333333,0,0x6009,0xFFFF
10.762823375000000,0,0xFFFF,0x2222
10.762848875000000,0,0x6008,0xFFFF
10.762873791666667,0,0x0000,0x8E8E
10.762899250000000,0,0x6007,0xFFFF
10.762924249999999,0,0x0101,0x5050
10.762949666666668,0,0x6006,0xFFFF
10.762974541666667,0,0x0202,0x0000
10.763000000000000,0,0x6004,0xFFFF
10.763024874999999,0,0x0303,0x0000
10.763050375000001,0,0x2005,0xFFFF
10.763075000000001,0,0xA0A0,0xFFFF
10.763100208333332,0,0x200A,0xFFFF
10.763124958333334,0,0x4F4F,0xFFFF
10.763150166666666,0,0x6004,0xFFFF
10.763175000000000,0,0x0404,0x0000
10.763200416666667,0,0x6009,0xFFFF
10.763225250000000,0,0x0505,0x8888
10.763250749999999,0,0x6008,0xFFFF
10.763275750000000,0,0x0606,0xECEC
10.763301291666666,0,0x6007,0xFFFF
10.763326166666667,0,0x0707,0x3030
10.763351458333334,0,0x6006,0xFFFF
10.763376291666667,0,0x0808,0x0000
10.763401916666666,0,0x6004,0xFFFF
10.763426958333334,0,0x0909,0x0000
10.763452416666667,0,0x2005,0xFFFF
10.763477249999999,0,0xA0A0,0xFFFF
10.763502458333333,0,0x200A,0xFFFF
10.763527083333333,0,0x4F4F,0xFFFF
10.763552333333333,0,0x6004,0xFFFF
10.763577166666666,0,0x0A0A,0x0000
10.763602583333334,0,0x6009,0xFFFF
10.763627500000000,0,0x0B0B,0x8080
10.763652875000000,0,0x6008,0xFFFF
10.763677791666666,0,0x0C0C,0x0000
10.763703166666666,0,0x6007,0xFFFF
10.763728041666667,0,0x0D0D,0x2020
10.763753291666667,0,0x6006,0xFFFF
10.763778166666667,0,0x0E0E,0x0000
10.763803458333333,0,0x6004,0xFFFF
10.763828333333333,0,0x0F0F,0x0000
10.763853458333333,0,0x2005,0xFFFF
10.763878000000000,0,0xA0A0,0xFFFF
10.763903291666667,0,0x200A,0xFFFF
10.763928000000000,0,0x4F4F,0xFFFF
10.763953125000000,0,0x6004,0xFFFF
10.763978458333334,0,0x1010,0x0000
10.764004291666666,0,0x6009,0xFFFF
10.764029416666666,0,0x1111,0x8080
10.764054916666666,0,0x6008,0xFFFF
10.764080041666666,0,0x1212,0x0101
10.764105458333333,0,0x6007,0xFFFF
10.764130416666667,0,0x1313,0x0000
10.764155791666667,0,0x6006,0xFFFF
10.764180666666666,0,0x1414,0x0000
10.764206124999999,0,0x6004,0xFFFF
10.764231125000000,0,0x1515,0x0000
10.764256333333334,0,0x2005,0xFFFF
10.764280958333334,0,0xA0A0,0xFFFF
10.764306083333333,0,0x200A,0xFFFF
10.764330666666666,0,0x4F4F,0xFFFF
10.764356083333332,0,0x6004,0xFFFF
10.764380958333334,0,0x1616,0x0000
10.764406749999999,0,0x6009,0xFFFF
10.764429166666666,0,0x1717,0xA4A4
10.764443958333333,0,0x6008,0xFFFF
10.764461208333334,0,0x1818,0x0000
10.764475500000000,0,0x6007,0xFFFF
10.764489416666667,0,0x1919,0x5050
10.764503250000001,0,0x6006,0xFFFF
10.764517583333333,0,0x1A1A,0x0000
10.764532166666667,0,0x6004,0xFFFF
10.764546333333334,0,0x1B1B,0x0000
10.764561291666666,0,0x2005,0xFFFF
10.764585125000000,0,0xA0A0,0xFFFF
10.764610458333333,0,0x200A,0xFFFF
10.764634541666666,0,0x4F4F,0xFFFF
10.764659291666666,0,0x6004,0xFFFF
10.764683416666667,0,0x1C1C,0x0000
10.764708416666666,0,0x6009,0xFFFF
10.764732499999999,0,0x1D1D,0x6A6A
10.764757166666667,0,0x6008,0xFFFF
10.764781333333334,0,0x1E1E,0xC6C6
10.764805916666667,0,0x6007,0xFFFF
10.764830125000000,0,0x1F1F,0x5050
10.764854750000000,0,0x6006,0xFFFF
10.764879083333334,0,0x2020,0x0000
10.764903750000000,0,0x6004,0xFFFF
10.764927666666667,0,0x2121,0x0000
10.764952250000000,0,0x2005,0xFFFF
10.764976291666667,0,0xA0A0,0xFFFF
10.765000625000001,0,0x200A,0xFFFF
10.765024583333334,0,0x4F4F,0xFFFF
10.765048999999999,0,0x6004,0xFFFF
10.765073125000001,0,0x2222,0x0000
10.765097833333334,0,0x6009,0xFFFF
10.765121833333334,0,0x2323,0x2222
10.765146583333333,0,0x6008,0xFFFF
10.765170749999999,0,0x2424,0x8E8E
10.765195333333333,0,0x6007,0xFFFF
10.765219583333334,0,0x2525,0x5050
10.765244166666667,0,0x6006,0xFFFF
10.765268416666666,0,0x2626,0x0000
10.765293124999999,0,0x6004,0xFFFF
10.765317416666667,0,0x2727,0x0000
10.765342083333334,0,0x2005,0xFFFF
10.765366125000000,0,0xA0A0,0xFFFF
10.765390541666667,0,0x200A,0xFFFF
10.765414583333333,0,0x4F4F,0xFFFF
10.765439125000000,0,0x6004,0xFFFF
10.765463416666666,0,0x2828,0x0000
10.765488041666666,0,0x6009,0xFFFF
10.765512208333334,0,0x2929,0x1818
10.765536958333334,0,0x6008,0xFFFF
10.765561041666666,0,0x2A2A,0x0C0C
10.765585916666666,0,0x6007,0xFFFF
10.765609958333334,0,0x2B2B,0x2020
10.765634625000001,0,0x6006,0xFFFF
10.765664833333334,0,0x2C2C,0x0000
10.765690375000000,0,0x6004,0xFFFF
10.765715041666667,0,0x2D2D,0x0000
10.765739916666666,0,0x2005,0xFFFF
10.765763833333333,0,0xA0A0,0xFFFF
10.765788458333333,0,0x200A,0xFFFF
10.765812583333334,0,0x4F4F,0xFFFF
10.765837083333333,0,0x6004,0xFFFF
10.765861208333334,0,0x2E2E,0x0000
10.765886000000000,0,0x6009,0xFFFF
10.765910375000001,0,0x2F2F,0x8888
10.765935166666667,0,0x6008,0xFFFF
10.765959250000000,0,0x3030,0xE6E6
10.765984041666666,0,0x6007,0xFFFF
10.766008291666667,0,0x3131,0x5050
10.766033041666667,0,0x6006,0xFFFF
10.766057291666666,0,0x3232,0x0000
10.766081833333333,0,0x6004,0xFFFF
10.766106000000001,0,0x3333,0x0000
10.766130916666667,0,0x2005,0xFFFF
10.766155083333333,0,0xA0A0,0xFFFF
10.766179708333333,0,0x200A,0xFFFF
10.766203833333334,0,0x4F4F,0xFFFF
10.766228458333334,0,0x6004,0xFFFF
10.766252958333334,0,0x3434,0x0000
10.766277916666667,0,0x6009,0xFFFF
10.766302000000000,0,0x3535,0x8080
10.766326625000000,0,0x6008,0xFFFF
10.766350750000001,0,0x3636,0x0000
10.766375541666667,0,0x6007,0xFFFF
10.766399708333333,0,0x3737,0x2020
10.766424291666667,0,0x6006,0xFFFF
10.766448333333333,0,0x3838,0x0000
10.766472958333333,0,0x6004,0xFFFF
10.766497166666667,0,0x3939,0x0000
10.766521833333334,0,0x2005,0xFFFF
10.766546041666667,0,0xA0A0,0xFFFF
10.766570500000000,0,0x200A,0xFFFF
10.766594458333334,0,0x4F4F,0xFFFF
10.766619041666667,0,0x6004,0xFFFF
10.766643208333333,0,0x3A3A,0x0000
10.766668083333334,0,0x6009,0xFFFF
10.766692208333334,0,0x3B3B,0x2323
10.766717125000000,0,0x6008,0xFFFF
10.766741375000001,0,0x3C3C,0x0E0E
10.766766125000000,0,0x6007,0xFFFF
10.766790291666666,0,0x3D3D,0x0000
10.766814875000000,0,0x6006,0xFFFF
10.766839041666667,0,0x3E3E,0x0000
10.766863875000000,0,0x6004,0xFFFF
10.766888166666666,0,0x3F3F,0x0000
10.766913083333334,0,0x2005,0xFFFF
10.766937083333334,0,0xA0A0,0xFFFF
10.766961458333334,0,0x200A,0xFFFF
10.766985416666667,0,0x4F4F,0xFFFF
10.767010000000001,0,0x6004,0xFFFF
10.767034333333333,0,0x4040,0x0000
10.767059041666666,0,0x6009,0xFFFF
10.767083333333334,0,0x4141,0x8A8A
10.767108208333333,0,0x6008,0xFFFF
10.767132416666668,0,0x4242,0x2C2C
10.767157250000000,0,0x6007,0xFFFF
10.767181458333333,0,0x4343,0x3030
10.767206041666666,0,0x6006,0xFFFF
10.767230208333334,0,0x4444,0x0000
10.767254958333334,0,0x6004,0xFFFF
10.767279208333333,0,0x4545,0x0000
10.767303875000000,0,0x2005,0xFFFF
10.767327916666666,0,0xA0A0,0xFFFF
10.767352416666666,0,0x200A,0xFFFF
10.767376333333333,0,0x4F4F,0xFFFF
10.767400916666666,0,0x6004,0xFFFF
10.767425208333334,0,0x4646,0x0000
10.767449875000001,0,0x6009,0xFFFF
10.767474083333333,0,0x4747,0x2222
10.767499041666667,0,0x6008,0xFFFF
10.767523208333333,0,0x4848,0x8E8E
10.767548000000000,0,0x6007,0xFFFF
10.767572291666667,0,0x4949,0x5050
10.767597041666667,0,0x6006,0xFFFF
10.767621249999999,0,0x4A4A,0x0000
10.767645999999999,0,0x6004,0xFFFF
10.767670499999999,0,0x4B4B,0x0000
10.767695291666668,0,0x2005,0xFFFF
10.767719375000000,0,0xA0A0,0xFFFF
10.767743833333334,0,0x200A,0xFFFF
10.767767541666666,0,0x4F4F,0xFFFF
10.767792041666667,0,0x6004,0xFFFF
10.767816208333333,0,0x4C4C,0x0000
10.767840833333333,0,0x6009,0xFFFF
10.767865000000000,0,0x4D4D,0x2E2E
10.767889875000000,0,0x6008,0xFFFF
10.767914333333334,0,0x4E4E,0xCCCC
10.767938875000000,0,0x6007,0xFFFF
10.767963000000000,0,0x4F4F,0x2020
10.767987625000000,0,0x6006,0xFFFF
10.768011666666666,0,0x5050,0x0000
10.768036458333333,0,0x6004,0xFFFF
10.768060625000000,0,0x5151,0x0000
10.768085250000000,0,0x2005,0xFFFF
10.768109333333333,0,0xA0A0,0xFFFF
10.768133625000001,0,0x200A,0xFFFF
10.768157541666667,0,0x4F4F,0xFFFF
10.768181958333333,0,0x6004,0xFFFF
10.768206041666666,0,0x5252,0x0000
10.768230666666666,0,0x6009,0xFFFF
10.768254916666667,0,0x5353,0xA9A9
10.768279500000000,0,0x6008,0xFFFF
10.768303708333333,0,0x5454,0xA0A0
10.768328333333333,0,0x6007,0xFFFF
10.768352666666667,0,0x5555,0x5050
10.768377208333334,0,0x6006,0xFFFF
10.768401375000000,0,0x5656,0x0000
10.768426041666666,0,0x6004,0xFFFF
10.768450166666666,0,0x5757,0x0000
10.768474833333334,0,0x2005,0xFFFF
10.768498749999999,0,0xA0A0,0xFFFF
10.768523249999999,0,0x200A,0xFFFF
10.768547166666666,0,0x4F4F,0xFFFF
10.768571750000000,0,0x6004,0xFFFF
10.768596041666667,0,0x5858,0x0000
10.768620750000000,0,0x6009,0xFFFF
10.768644958333333,0,0x5959,0x2222
10.768669708333332,0,0x6008,0xFFFF
10.768693791666667,0,0x5A5A,0x8E8E
10.768718458333334,0,0x6007,0xFFFF
10.768742708333333,0,0x5B5B,0x5050
10.768767583333334,0,0x6006,0xFFFF
10.768791708333334,0,0x5C5C,0x0000
10.768816458333333,0,0x6004,0xFFFF
10.768840833333334,0,0x5D5D,0x0000
10.768865583333334,0,0x2005,0xFFFF
10.768889666666666,0,0xA0A0,0xFFFF
10.768914208333333,0,0x200A,0xFFFF
10.768938250000000,0,0x4F4F,0xFFFF
10.768962750000000,0,0x6004,0xFFFF
10.768986875000000,0,0x5E5E,0x0000
10.769011708333334,0,0x6009,0xFFFF
10.769036083333333,0,0x5F5F,0xD1D1
10.769060791666666,0,0x6008,0xFFFF
10.769085125000000,0,0x6060,0xECEC
10.769109833333333,0,0x6007,0xFFFF
10.769134083333334,0,0x6161,0x2020
10.769158750000001,0,0x6006,0xFFFF
10.769182875000000,0,0x6262,0x0000
10.769207708333333,0,0x6004,0xFFFF
10.769231833333333,0,0x6363,0x0000
10.769256708333334,0,0x2005,0xFFFF
10.769280708333334,0,0xA0A0,0xFFFF
10.769305083333334,0,0x200A,0xFFFF
10.769329041666667,0,0x4F4F,0xFFFF
10.769353541666666,0,0x6004,0xFFFF
10.769377541666667,0,0x6464,0x0000
10.769402166666667,0,0x6009,0xFFFF
10.769426250000000,0,0x6565,0x2929
10.769451000000000,0,0x6008,0xFFFF
10.769475291666666,0,0x6666,0xC6C6
10.769499958333334,0,0x6007,0xFFFF
10.769524166666667,0,0x6767,0x5050
10.769548708333334,0,0x6006,0xFFFF
10.769572833333333,0,0x6868,0x0000
10.769597458333333,0,0x6004,0xFFFF
10.769621583333333,0,0x6969,0x0000
10.769646083333333,0,0x2005,0xFFFF
10.769675208333334,0,0xA0A0,0xFFFF
10.769700250000000,0,0x200A,0xFFFF
10.769724583333334,0,0x4F4F,0xFFFF
10.769749166666667,0,0x6004,0xFFFF
10.769773708333334,0,0x6A6A,0x0000
10.769798583333333,0,0x6009,0xFFFF
10.769822708333333,0,0x6B6B,0x2929
10.769847166666667,0,0x6008,0xFFFF
10.769871333333333,0,0x6C6C,0xA4A4
10.769896083333334,0,0x6007,0xFFFF
10.769920166666667,0,0x6D6D,0x5050
10.769944875000000,0,0x6006,0xFFFF
10.769968916666667,0,0x6E6E,0x0000
10.769993625000000,0,0x6004,0xFFFF
10.770017833333334,0,0x6F6F,0x0000
10.770042416666668,0,0x2005,0xFFFF
10.770066458333334,0,0xA0A0,0xFFFF
10.770090750000000,0,0x200A,0xFFFF
10.770114625000000,0,0x4F4F,0xFFFF
10.770139166666667,0,0x6004,0xFFFF
10.770163333333333,0,0x7070,0x0000
10.770187999999999,0,0x6009,0xFFFF
10.770212083333334,0,0x7171,0x2222
10.770236875000000,0,0x6008,0xFFFF
10.770261208333332,0,0x7272,0x8E8E
10.770285916666667,0,0x6007,0xFFFF
10.770309958333334,0,0x7373,0x5050
10.770334583333334,0,0x6006,0xFFFF
10.770358583333334,0,0x7474,0x0000
10.770383250000000,0,0x6004,0xFFFF
10.770407499999999,0,0x7575,0x0000
10.770432250000001,0,0x2005,0xFFFF
10.770455999999999,0,0xA0A0,0xFFFF
10.770480291666667,0,0x200A,0xFFFF
10.770504250000000,0,0x4F4F,0xFFFF
10.770528791666667,0,0x6004,0xFFFF
10.770552958333333,0,0x7676,0x0000
10.770577833333334,0,0x6009,0xFFFF
10.770602374999999,0,0x7777,0xEBEB
10.770627333333334,0,0x6008,0xFFFF
10.770651583333333,0,0x7878,0x4C4C
10.770676375000001,0,0x6007,0xFFFF
10.770700583333333,0,0x7979,0x0000
10.770725458333333,0,0x6006,0xFFFF
10.770749750000000,0,0x7A7A,0x0000
10.770774500000000,0,0x6004,0xFFFF
10.770798541666666,0,0x7B7B,0x0000
10.770823375000001,0,0x2005,0xFFFF
10.770847416666667,0,0xA0A0,0xFFFF
10.770871874999999,0,0x200A,0xFFFF
10.770895833333332,0,0x4F4F,0xFFFF
10.770920166666667,0,0x6004,0xFFFF
10.770944374999999,0,0x7C7C,0x0000
10.770969041666667,0,0x6009,0xFFFF
10.770993166666667,0,0x7D7D,0x8080
10.771017916666667,0,0x6008,0xFFFF
10.771042000000000,0,0x7E7E,0x0000
10.771066708333333,0,0x6007,0xFFFF
10.771090833333334,0,0x7F7F,0x3030
10.771115583333334,0,0x6006,0xFFFF
10.771139708333333,0,0x8080,0x0000
10.771164583333332,0,0x6004,0xFFFF
10.771188791666667,0,0x8181,0x0000
10.771213625000000,0,0x2005,0xFFFF
10.771237583333333,0,0xA0A0,0xFFFF
10.771262249999999,0,0x200A,0xFFFF
10.771286041666666,0,0x4F4F,0xFFFF
10.771310625000000,0,0x6004,0xFFFF
10.771334791666666,0,0x8282,0x0000
10.771359583333334,0,0x6009,0xFFFF
10.771383750000000,0,0x8383,0x2323
10.771408666666666,0,0x6008,0xFFFF
10.771432833333334,0,0x8484,0x4E4E
10.771457541666667,0,0x6007,0xFFFF
10.771481791666666,0,0x8585,0x5050
10.771506541666668,0,0x6006,0xFFFF
10.771530500000001,0,0x8686,0x0000
10.771555333333334,0,0x6004,0xFFFF
10.771579666666666,0,0x8787,0x0000
10.771604500000000,0,0x2005,0xFFFF
10.771628500000000,0,0xA0A0,0xFFFF
10.771653250000000,0,0x200A,0xFFFF
10.771677208333333,0,0x4F4F,0xFFFF
10.771701708333334,0,0x6004,0xFFFF
10.771725916666666,0,0x8888,0x0000
10.771750708333334,0,0x6009,0xFFFF
10.771774875000000,0,0x8989,0x8B8B
10.771799541666667,0,0x6008,0xFFFF
10.771823833333332,0,0x8A8A,0x8C8C
10.771848666666667,0,0x6007,0xFFFF
10.771872916666666,0,0x8B8B,0x3030
10.771897791666667,0,0x6006,0xFFFF
10.771922958333333,0,0x8C8C,0x0000
10.771948291666666,0,0x6004,0xFFFF
10.771972583333334,0,0x8D8D,0x0000
10.771997208333334,0,0x2005,0xFFFF
10.772021250000000,0,0xA0A0,0xFFFF
10.772045791666667,0,0x200A,0xFFFF
10.772069708333333,0,0x4F4F,0xFFFF
10.772094458333333,0,0x6004,0xFFFF
10.772118791666667,0,0x8E8E,0x0000
10.772143666666667,0,0x6009,0xFFFF
10.772168208333333,0,0x8F8F,0x3030
10.772193166666666,0,0x6008,0xFFFF
10.772217333333334,0,0x9090,0xC0C0
10.772242208333333,0,0x6007,0xFFFF
10.772266291666666,0,0x9191,0x5050
10.772290958333333,0,0x6006,0xFFFF
10.772315083333334,0,0x9292,0x0000
10.772339750000000,0,0x6004,0xFFFF
10.772363916666666,0,0x9393,0x0000
10.772388500000000,0,0x2005,0xFFFF
10.772412583333333,0,0xA0A0,0xFFFF
10.772437083333333,0,0x200A,0xFFFF
10.772461125000000,0,0x4F4F,0xFFFF
10.772485708333333,0,0x6004,0xFFFF
10.772510000000000,0,0x9494,0x0000
10.772534666666667,0,0x6009,0xFFFF
10.772558958333333,0,0x9595,0xA2A2
10.772583666666666,0,0x6008,0xFFFF
10.772607791666667,0,0x9696,0xEEEE
10.772632500000000,0,0x6007,0xFFFF
10.772656625000000,0,0x9797,0x5050
10.772681416666666,0,0x6006,0xFFFF
10.772705583333334,0,0x9898,0x0000
10.772730166666667,0,0x6004,0xFFFF
10.772754291666667,0,0x9999,0x0000
10.772779083333333,0,0x2005,0xFFFF
10.772803083333333,0,0xA0A0,0xFFFF
10.772827708333333,0,0x200A,0xFFFF
10.772851624999999,0,0x4F4F,0xFFFF
10.772876249999999,0,0x6004,0xFFFF
10.772900583333334,0,0x9A9A,0x0000
10.772925458333333,0,0x6009,0xFFFF
10.772949541666666,0,0x9B9B,0x8C8C
10.772974333333334,0,0x6008,0xFFFF
10.772998666666666,0,0x9C9C,0x4C4C
10.773023374999999,0,0x6007,0xFFFF
10.773047708333333,0,0x9D9D,0x3030
10.773072833333334,0,0x6006,0xFFFF
10.773096750000001,0,0x9E9E,0x0000
10.773121458333334,0,0x6004,0xFFFF
10.773145625000000,0,0x9F9F,0x0000
10.773170291666666,0,0x2005,0xFFFF
10.773194250000000,0,0xA0A0,0xFFFF
10.773218750000000,0,0x200A,0xFFFF
10.773242625000000,0,0x4F4F,0xFFFF
10.773267291666667,0,0x6004,0xFFFF
10.773291416666666,0,0xA0A0,0x0000
10.773316083333333,0,0x6009,0xFFFF
10.773340291666667,0,0xA1A1,0x6969
10.773365083333333,0,0x6008,0xFFFF
10.773389333333334,0,0xA2A2,0x6666
10.773414166666667,0,0x6007,0xFFFF
10.773438375000000,0,0xA3A3,0x5050
10.773463041666666,0,0x6006,0xFFFF
10.773487333333334,0,0xA4A4,0x0000
10.773512166666666,0,0x6004,0xFFFF
10.773536208333333,0,0xA5A5,0x0000
10.773560958333332,0,0x2005,0xFFFF
10.773585125000000,0,0xA0A0,0xFFFF
10.773609625000001,0,0x200A,0xFFFF
10.773633541666667,0,0x4F4F,0xFFFF
10.773661916666667,0,0x6004,0xFFFF
10.773687375000000,0,0xA6A6,0x0000
10.773712416666667,0,0x6009,0xFFFF
10.773736791666666,0,0xA7A7,0x3030
10.773761791666667,0,0x6008,0xFFFF
10.773785958333333,0,0xA8A8,0x2424
10.773810750000001,0,0x6007,0xFFFF
10.773834916666667,0,0xA9A9,0x5050
10.773859708333333,0,0x6006,0xFFFF
10.773883708333333,0,0xAAAA,0x0000
10.773908333333333,0,0x6004,0xFFFF
10.773932458333332,0,0xABAB,0x0000
10.773957375000000,0,0x2005,0xFFFF
10.773981666666666,0,0xA0A0,0xFFFF
10.774006125000000,0,0x200A,0xFFFF
10.774030083333333,0,0x4F4F,0xFFFF
10.774055708333334,0,0x6004,0xFFFF
10.774080583333333,0,0xACAC,0x0000
10.774105583333334,0,0x6009,0xFFFF
10.774129916666666,0,0xADAD,0x2121
10.774154708333333,0,0x6008,0xFFFF
10.774178750000001,0,0xAEAE,0x6666
10.774203416666667,0,0x6007,0xFFFF
10.774227583333333,0,0xAFAF,0x5050
10.774252416666666,0,0x6006,0xFFFF
10.774276666666667,0,0xB0B0,0x0000
10.774301291666667,0,0x6004,0xFFFF
10.774325541666666,0,0xB1B1,0x0000
10.774350125000000,0,0x2005,0xFFFF
10.774374041666666,0,0xA0A0,0xFFFF
10.774398416666667,0,0x200A,0xFFFF
10.774422416666667,0,0x4F4F,0xFFFF
10.774446708333333,0,0x6004,0xFFFF
10.774470916666667,0,0xB2B2,0x0000
10.774495666666667,0,0x6009,0xFFFF
10.774519874999999,0,0xB3B3,0x3030
10.774544416666666,0,0x6008,0xFFFF
10.774568541666667,0,0xB4B4,0x8484
10.774593333333334,0,0x6007,0xFFFF
10.774617375000000,0,0xB5B5,0x5050
10.774646458333333,0,0x6006,0xFFFF
10.774661416666667,0,0xB6B6,0x0000
10.774675875000000,0,0x6004,0xFFFF
10.774689958333333,0,0xB7B7,0x0000
10.774704916666666,0,0x2005,0xFFFF
10.774718583333334,0,0xA0A0,0xFFFF
10.774733708333333,0,0x200A,0xFFFF
10.774757624999999,0,0x4F4F,0xFFFF
10.774782583333334,0,0x6004,0xFFFF
10.774806874999999,0,0xB8B8,0x0000
10.774831666666667,0,0x6009,0xFFFF
10.774855875000000,0,0xB9B9,0x2929
10.774880749999999,0,0x6008,0xFFFF
10.774904958333334,0,0xBABA,0xA6A6
10.774929833333333,0,0x6007,0xFFFF
10.774954041666666,0,0xBBBB,0x5050
10.774978875000000,0,0x6006,0xFFFF
10.775003000000000,0,0xBCBC,0x0000
10.775027750000000,0,0x6004,0xFFFF
10.775052083333334,0,0xBDBD,0x0000
10.775076958333333,0,0x2005,0xFFFF
10.775100999999999,0,0xA0A0,0xFFFF
10.775125458333333,0,0x200A,0xFFFF
10.775149458333333,0,0x4F4F,0xFFFF
10.775174000000000,0,0x6004,0xFFFF
10.775198124999999,0,0xBEBE,0x0000
10.775222875000001,0,0x6009,0xFFFF
10.775247374999999,0,0xBFBF,0x4040
10.775272250000000,0,0x6008,0xFFFF
10.775296333333333,0,0xC0C0,0x0606
10.775321208333333,0,0x6007,0xFFFF
10.775345333333334,0,0xC1C1,0x2020
10.775370083333334,0,0x6006,0xFFFF
10.775394250000000,0,0xC2C2,0x0000
10.775418916666666,0,0x6004,0xFFFF
10.775443166666667,0,0xC3C3,0x0000
10.775467791666667,0,0x2005,0xFFFF
10.775491916666667,0,0xA0A0,0xFFFF
10.775516375000000,0,0x200A,0xFFFF
10.775540250000001,0,0x4F4F,0xFFFF
10.775564666666666,0,0x6004,0xFFFF
10.775588958333334,0,0xC4C4,0x0000
10.775613625000000,0,0x6009,0xFFFF
10.775637500000000,0,0xC5C5,0x8080
10.775662333333333,0,0x6008,0xFFFF
10.775686541666667,0,0xC6C6,0x0000
10.775711250000001,0,0x6007,0xFFFF
10.775735416666667,0,0xC7C7,0x3030
10.775760166666666,0,0x6006,0xFFFF
10.775784333333334,0,0xC8C8,0x0000
10.775809000000001,0,0x6004,0xFFFF
10.775833333333333,0,0xC9C9,0x0000
10.775858041666666,0,0x2005,0xFFFF
10.775881999999999,0,0xA0A0,0xFFFF
10.775906541666666,0,0x200A,0xFFFF
10.775930499999999,0,0x4F4F,0xFFFF
10.775955000000000,0,0x6004,0xFFFF
10.775979250000001,0,0xCACA,0x0000
10.776004208333333,0,0x6009,0xFFFF
10.776028291666666,0,0xCBCB,0x2323
10.776053166666667,0,0x6008,0xFFFF
10.776077541666666,0,0xCCCC,0x4E4E
10.776102333333334,0,0x6007,0xFFFF
10.776126625000000,0,0xCDCD,0x5050
10.776151416666666,0,0x6006,0xFFFF
10.776175500000001,0,0xCECE,0x0000
10.776200208333334,0,0x6004,0xFFFF
10.776224375000000,0,0xCFCF,0x0000
10.776248916666667,0,0x2005,0xFFFF
10.776272833333334,0,0xA0A0,0xFFFF
10.776297375000000,0,0x200A,0xFFFF
10.776321416666667,0,0x4F4F,0xFFFF
10.776345916666667,0,0x6004,0xFFFF
10.776369958333333,0,0xD0D0,0x0000
10.776394666666667,0,0x6009,0xFFFF
10.776418791666666,0,0xD1D1,0x8D8D
10.776443416666666,0,0x6008,0xFFFF
10.776467583333334,0,0xD2D2,0x0C0C
10.776492291666667,0,0x6007,0xFFFF
10.776516500000000,0,0xD3D3,0x3030
10.776541125000000,0,0x6006,0xFFFF
10.776565208333333,0,0xD4D4,0x0000
10.776589833333333,0,0x6004,0xFFFF
10.776614041666667,0,0xD5D5,0x0000
10.776638666666667,0,0x2005,0xFFFF
10.776662708333333,0,0xA0A0,0xFFFF
10.776687208333334,0,0x200A,0xFFFF
10.776711333333333,0,0x4F4F,0xFFFF
10.776735875000000,0,0x6004,0xFFFF
10.776759999999999,0,0xD6D6,0x0000
10.776784749999999,0,0x6009,0xFFFF
10.776809041666667,0,0xD7D7,0x2929
10.776833874999999,0,0x6008,0xFFFF
10.776857958333334,0,0xD8D8,0xA0A0
10.776882583333334,0,0x6007,0xFFFF
10.776906666666667,0,0xD9D9,0x5050
10.776931291666667,0,0x6006,0xFFFF
10.776955375000000,0,0xDADA,0x0000
10.776979833333334,0,0x6004,0xFFFF
10.777004000000000,0,0xDBDB,0x0000
10.777028583333333,0,0x2005,0xFFFF
10.777052583333333,0,0xA0A0,0xFFFF
10.777077000000000,0,0x200A,0xFFFF
10.777101041666667,0,0x4F4F,0xFFFF
10.777125541666667,0,0x6004,0xFFFF
10.777149791666666,0,0xDCDC,0x0000
10.777174458333333,0,0x6009,0xFFFF
10.777198666666667,0,0xDDDD,0xA2A2
10.777223500000000,0,0x6008,0xFFFF
10.777247708333332,0,0xDEDE,0xEEEE
10.777272375000001,0,0x6007,0xFFFF
10.777296583333333,0,0xDFDF,0x5050
10.777321250000000,0,0x6006,0xFFFF
10.777345666666667,0,0xE0E0,0x0000
10.777370250000001,0,0x6004,0xFFFF
10.777394250000000,0,0xE1E1,0x0000
10.777419041666667,0,0x2005,0xFFFF
10.777443000000000,0,0xA0A0,0xFFFF
10.777467625000000,0,0x200A,0xFFFF
10.777491416666667,0,0x4F4F,0xFFFF
10.777515916666667,0,0x6004,0xFFFF
10.777540125000000,0,0xE2E2,0x0000
10.777564874999999,0,0x6009,0xFFFF
10.777589083333334,0,0xE3E3,0xD8D8
10.777613833333334,0,0x6008,0xFFFF
10.777637958333333,0,0xE4E4,0x6C6C
10.777667624999999,0,0x6007,0xFFFF
10.777693500000000,0,0xE5E5,0x0000
10.777718708333333,0,0x6006,0xFFFF
10.777742999999999,0,0xE6E6,0x0000
10.777767916666667,0,0x6004,0xFFFF
10.777792125000000,0,0xE7E7,0x0000
10.777816791666666,0,0x2005,0xFFFF
10.777840791666666,0,0xA0A0,0xFFFF
10.777865125000000,0,0x200A,0xFFFF
10.777889083333333,0,0x4F4F,0xFFFF
10.777913666666667,0,0x6004,0xFFFF
10.777938000000001,0,0xE8E8,0x0000
10.777962583333334,0,0x6009,0xFFFF
10.777986916666666,0,0xE9E9,0x2121
10.778011833333334,0,0x6008,0xFFFF
10.778036083333333,0,0xEAEA,0x6666
10.778060875000000,0,0x6007,0xFFFF
10.778085041666667,0,0xEBEB,0x5050
10.778109708333334,0,0x6006,0xFFFF
10.778134041666666,0,0xECEC,0x0000
10.778158666666666,0,0x6004,0xFFFF
10.778183166666667,0,0xEDED,0x0000
10.778207958333333,0,0x2005,0xFFFF
10.778231958333333,0,0xA0A0,0xFFFF
10.778256416666666,0,0x200A,0xFFFF
10.778280250000000,0,0x4F4F,0xFFFF
10.778304583333334,0,0x6004,0xFFFF
10.778328625000000,0,0xEEEE,0x0000
10.778353416666667,0,0x6009,0xFFFF
10.778377916666667,0,0xEFEF,0x2C2C
10.778402916666666,0,0x6008,0xFFFF
10.778427125000000,0,0xF0F0,0x0404
10.778451958333333,0,0x6007,0xFFFF
10.778476250000001,0,0xF1F1,0x5050
10.778500916666667,0,0x6006,0xFFFF
10.778525250000000,0,0xF2F2,0x0000
10.778550041666668,0,0x6004,0xFFFF
10.778574041666667,0,0xF3F3,0x0000
10.778598833333334,0,0x2005,0xFFFF
10.778622875000000,0,0xA0A0,0xFFFF
10.778647291666667,0,0x200A,0xFFFF
10.778671250000000,0,0x4F4F,0xFFFF
10.778695833333334,0,0x6004,0xFFFF
10.778720000000000,0,0xF4F4,0x0000
10.778744791666666,0,0x6009,0xFFFF
10.778769000000000,0,0xF5F5,0x2222
10.778793625000000,0,0x6008,0xFFFF
10.778817666666667,0,0xF6F6,0x8E8E
10.778842458333333,0,0x6007,0xFFFF
10.778866583333333,0,0xF7F7,0x5050
10.778891249999999,0,0x6006,0xFFFF
10.778915291666667,0,0xF8F8,0x0000
10.778939833333334,0,0x6004,0xFFFF
10.778963916666667,0,0xF9F9,0x0000
10.778988541666667,0,0x2005,0xFFFF
10.779012375000001,0,0xA0A0,0xFFFF
10.779036874999999,0,0x200A,0xFFFF
10.779060625000000,0,0x4F4F,0xFFFF
10.779085291666666,0,0x6004,0xFFFF
10.779109500000001,0,0xFAFA,0x0000
10.779134333333333,0,0x6009,0xFFFF
10.779158541666666,0,0xFBFB,0xD8D8
10.779183291666667,0,0x6008,0xFFFF
10.779207666666666,0,0xFCFC,0x6C6C
10.779232458333333,0,0x6007,0xFFFF
10.779256583333334,0,0xFDFD,0x0000
10.779281166666667,0,0x6006,0xFFFF
10.779305416666666,0,0xFEFE,0x0000
10.779329833333334,0,0x6004,0xFFFF
10.779353875000000,0,0xFFFF,0x0000
10.779378541666667,0,0x2005,0xFFFF
10.779402583333333,0,0xA0A0,0xFFFF
10.779427208333333,0,0x200A,0xFFFF
10.779451416666667,0,0x4F4F,0xFFFF
10.779475750000000,0,0x6004,0xFFFF
10.779499708333333,0,0x0000,0x0000
10.779524458333333,0,0x6009,0xFFFF
10.779548500000001,0,0x0101,0x0202
10.779573208333334,0,0x6008,0xFFFF
10.779597416666666,0,0x0202,0x6060
10.779622083333333,0,0x6007,0xFFFF
10.779646333333334,0,0x0303,0x5050
10.779671000000000,0,0x6006,0xFFFF
10.779695208333333,0,0x0404,0x0000
10.779719958333333,0,0x6004,0xFFFF
10.779744041666667,0,0x0505,0x0000
10.779768791666667,0,0x2005,0xFFFF
10.779792875000000,0,0xA0A0,0xFFFF
10.779817541666667,0,0x200A,0xFFFF
10.779841666666666,0,0x4F4F,0xFFFF
10.779866041666667,0,0x6004,0xFFFF
10.779890333333332,0,0x0606,0x0000
10.779914874999999,0,0x6009,0xFFFF
10.779939416666666,0,0x0707,0x2121
10.779964250000001,0,0x6008,0xFFFF
10.779988458333333,0,0x0808,0x6666
10.780013208333333,0,0x6007,0xFFFF
10.780037416666667,0,0x0909,0x5050
10.780062291666667,0,0x6006,0xFFFF
10.780086291666667,0,0x0A0A,0x0000
10.780110875000000,0,0x6004,0xFFFF
10.780134916666666,0,0x0B0B,0x0000
10.780159625000000,0,0x2005,0xFFFF
10.780183708333333,0,0xA0A0,0xFFFF
10.780208125000000,0,0x200A,0xFFFF
10.780232000000000,0,0x4F4F,0xFFFF
10.780256458333334,0,0x6004,0xFFFF
10.780280749999999,0,0x0C0C,0x0000
10.780305374999999,0,0x6009,0xFFFF
10.780329458333334,0,0x0D0D,0x1C1C
10.780354000000001,0,0x6008,0xFFFF
10.780378041666667,0,0x0E0E,0x5A5A
10.780402750000000,0,0x6007,0xFFFF
10.780426916666666,0,0x0F0F,0x2020
10.780451833333334,0,0x6006,0xFFFF
10.780476000000000,0,0x1010,0x0000
10.780500666666667,0,0x6004,0xFFFF
10.780524791666666,0,0x1111,0x0000
10.780549375000000,0,0x2005,0xFFFF
10.780573291666666,0,0xA0A0,0xFFFF
10.780597833333333,0,0x200A,0xFFFF
10.780621916666666,0,0x4F4F,0xFFFF
10.780646416666666,0,0x6004,0xFFFF
10.780670666666667,0,0x1212,0x0000
10.780695458333334,0,0x6009,0xFFFF
10.780719749999999,0,0x1313,0x8080
10.780744416666666,0,0x6008,0xFFFF
10.780768666666667,0,0x1414,0x0101
10.780793291666667,0,0x6007,0xFFFF
10.780817375000000,0,0x1515,0x0000
10.780842083333333,0,0x6006,0xFFFF
10.780866166666666,0,0x1616,0x0000
10.780891041666667,0,0x6004,0xFFFF
10.780915083333333,0,0x1717,0x0000
10.780939958333333,0,0x2005,0xFFFF
10.780963958333333,0,0xA0A0,0xFFFF
10.780988583333333,0,0x200A,0xFFFF
10.781012499999999,0,0x4F4F,0xFFFF
10.781037041666666,0,0x6004,0xFFFF
10.781061125000001,0,0x1818,0x0000
10.781086000000000,0,0x6009,0xFFFF
10.781109958333333,0,0x1919,0xA1A1
10.781134583333333,0,0x6008,0xFFFF
10.781158833333333,0,0x1A1A,0x2626
10.781183416666666,0,0x6007,0xFFFF
10.781207500000001,0,0x1B1B,0x5050
10.781232291666667,0,0x6006,0xFFFF
10.781256333333333,0,0x1C1C,0x0000
10.781281083333333,0,0x6004,0xFFFF
10.781305291666667,0,0x1D1D,0x0000
10.781330083333334,0,0x2005,0xFFFF
10.781354166666667,0,0xA0A0,0xFFFF
10.781378750000000,0,0x200A,0xFFFF
10.781402666666667,0,0x4F4F,0xFFFF
10.781427250000000,0,0x6004,0xFFFF
10.781451416666666,0,0x1E1E,0x0000
10.781476250000001,0,0x6009,0xFFFF
10.781500749999999,0,0x1F1F,0x6B6B
10.781525708333334,0,0x6008,0xFFFF
10.781549875000000,0,0x2020,0x8686
10.781574624999999,0,0x6007,0xFFFF
10.781598750000001,0,0x2121,0x8080
10.781623625000000,0,0x6006,0xFFFF
10.781647749999999,0,0x2222,0x0000
10.781677458333334,0,0x6004,0xFFFF
10.781702666666666,0,0x2323,0x0000
10.781727791666667,0,0x2005,0xFFFF
10.781751916666666,0,0xA0A0,0xFFFF
10.781776499999999,0,0x200A,0xFFFF
10.781800416666666,0,0x4F4F,0xFFFF
10.781824791666667,0,0x6004,0xFFFF
10.781849041666666,0,0x2424,0x0000
10.781873791666667,0,0x6009,0xFFFF
10.781897958333333,0,0x2525,0x0202
10.781922666666667,0,0x6008,0xFFFF
10.781946958333334,0,0x2626,0x6666
10.781971625000001,0,0x6007,0xFFFF
10.781996333333334,0,0x2727,0x3030
10.782021875000000,0,0x6006,0xFFFF
10.782046333333334,0,0x2828,0x0000
10.782071374999999,0,0x6004,0xFFFF
10.782095541666667,0,0x2929,0x0000
10.782120458333333,0,0x2005,0xFFFF
10.782144499999999,0,0xA0A0,0xFFFF
10.782169041666666,0,0x200A,0xFFFF
10.782192999999999,0,0x4F4F,0xFFFF
10.782217458333333,0,0x6004,0xFFFF
10.782241583333333,0,0x2A2A,0x0000
10.782266416666667,0,0x6009,0xFFFF
10.782290625000000,0,0x2B2B,0xA1A1
10.782315333333333,0,0x6008,0xFFFF
10.782339500000001,0,0x2C2C,0x2626
10.782364208333334,0,0x6007,0xFFFF
10.782388624999999,0,0x2D2D,0x2020
10.782413541666667,0,0x6006,0xFFFF
10.782437708333333,0,0x2E2E,0x0000
10.782462458333333,0,0x6004,0xFFFF
10.782486625000001,0,0x2F2F,0x0000
10.782511375000000,0,0x2005,0xFFFF
10.782535333333334,0,0xA0A0,0xFFFF
10.782559833333334,0,0x200A,0xFFFF
10.782583833333334,0,0x4F4F,0xFFFF
10.782608541666667,0,0x6004,0xFFFF
10.782632749999999,0,0x3030,0x0000
10.782657458333333,0,0x6009,0xFFFF
10.782681583333334,0,0x3131,0x8080
10.782706166666667,0,0x6008,0xFFFF
10.782730333333333,0,0x3232,0x0101
10.782755041666666,0,0x6007,0xFFFF
10.782779250000001,0,0x3333,0xB0B0
10.782804083333334,0,0x6006,0xFFFF
10.782828291666666,0,0x3434,0x0000
10.782853208333334,0,0x6004,0xFFFF
10.782877208333334,0,0x3535,0x0000
10.782902000000000,0,0x2005,0xFFFF
10.782925958333333,0,0xA0A0,0xFFFF
10.782950666666666,0,0x200A,0xFFFF
10.782974791666666,0,0x4F4F,0xFFFF
10.782999458333334,0,0x6004,0xFFFF
10.783023583333334,0,0x3636,0x0000
10.783048333333333,0,0x6009,0xFFFF
10.783073000000000,0,0x3737,0x2222
10.783097916666666,0,0x6008,0xFFFF
10.783122000000001,0,0x3838,0x8E8E
10.783146791666667,0,0x6007,0xFFFF
10.783170916666666,0,0x3939,0x5050
10.783195666666666,0,0x6006,0xFFFF
10.783219916666667,0,0x3A3A,0x0000
10.783244666666667,0,0x6004,0xFFFF
10.783268666666666,0,0x3B3B,0x0000
10.783293333333333,0,0x2005,0xFFFF
10.783317500000001,0,0xA0A0,0xFFFF
10.783342041666666,0,0x200A,0xFFFF
10.783366041666667,0,0x4F4F,0xFFFF
10.783390791666667,0,0x6004,0xFFFF
10.783414958333333,0,0x3C3C,0x0000
10.783439958333334,0,0x6009,0xFFFF
10.783463958333334,0,0x3D3D,0xA4A4
10.783488833333333,0,0x6008,0xFFFF
10.783513041666666,0,0x3E3E,0x8C8C
10.783537875000000,0,0x6007,0xFFFF
10.783562125000000,0,0x3F3F,0x0000
10.783586791666666,0,0x6006,0xFFFF
10.783610916666667,0,0x4040,0x0000
10.783635708333334,0,0x6004,0xFFFF
10.783660083333332,0,0x4141,0x0000
10.783684750000001,0,0x2005,0xFFFF
10.783708708333334,0,0xA0A0,0xFFFF
10.783733166666666,0,0x200A,0xFFFF
10.783757083333333,0,0x4F4F,0xFFFF
10.783781749999999,0,0x6004,0xFFFF
10.783805916666667,0,0x4242,0x0000
10.783830625000000,0,0x6009,0xFFFF
10.783854791666666,0,0x4343,0x8080
10.783879416666666,0,0x6008,0xFFFF
10.783903625000001,0,0x4444,0x0606
10.783928208333334,0,0x6007,0xFFFF
10.783952250000000,0,0x4545,0x5050
10.783977041666667,0,0x6006,0xFFFF
10.784001249999999,0,0x4646,0x0000
10.784026000000001,0,0x6004,0xFFFF
10.784050166666667,0,0x4747,0x0000
10.784075041666666,0,0x2005,0xFFFF
10.784099041666666,0,0xA0A0,0xFFFF
10.784123500000000,0,0x200A,0xFFFF
10.784148125000000,0,0x4F4F,0xFFFF
10.784173375000000,0,0x6004,0xFFFF
10.784197708333334,0,0x4848,0x0000
10.784222625000000,0,0x6009,0xFFFF
10.784247041666667,0,0x4949,0x1C1C
10.784271708333334,0,0x6008,0xFFFF
10.784295875000000,0,0x4A4A,0xC8C8
10.784320749999999,0,0x6007,0xFFFF
10.784345000000000,0,0x4B4B,0x2020
10.784369791666666,0,0x6006,0xFFFF
10.784394041666667,0,0x4C4C,0x0000
10.784418875000000,0,0x6004,0xFFFF
10.784443166666666,0,0x4D4D,0x0000
10.784467916666667,0,0x2005,0xFFFF
10.784492250000000,0,0xA0A0,0xFFFF
10.784516666666667,0,0x200A,0xFFFF
10.784540583333333,0,0x4F4F,0xFFFF
10.784565083333334,0,0x6004,0xFFFF
10.784589250000000,0,0x4E4E,0x0000
10.784604249999999,0,0x6009,0xFFFF
10.784628583333333,0,0x4F4F,0x4444
10.784653499999999,0,0x6008,0xFFFF
10.784677708333334,0,0x5050,0x0909
10.784702458333333,0,0x6007,0xFFFF
10.784726583333333,0,0x5151,0x5050
10.784751375000001,0,0x6006,0xFFFF
10.784775541666667,0,0x5252,0x0000
10.784798708333334,0,0x6004,0xFFFF
10.784823666666666,0,0x5353,0x0000
10.784849375000000,0,0x2005,0xFFFF
10.784873583333333,0,0xA0A0,0xFFFF
10.784898291666666,0,0x200A,0xFFFF
10.784922208333333,0,0x4F4F,0xFFFF
10.784946874999999,0,0x6004,0xFFFF
10.784971125000000,0,0x5454,0x0000
10.784995750000000,0,0x6009,0xFFFF
10.785019916666666,0,0x5555,0x2222
10.785044624999999,0,0x6008,0xFFFF
10.785068791666667,0,0x5656,0xEEEE
10.785093500000000,0,0x6007,0xFFFF
10.785117666666666,0,0x5757,0x5050
10.785142458333333,0,0x6006,0xFFFF
10.785166583333334,0,0x5858,0x0000
10.785191333333334,0,0x6004,0xFFFF
10.785215458333333,0,0x5959,0x0000
10.785240166666666,0,0x2005,0xFFFF
10.785264333333334,0,0xA0A0,0xFFFF
10.785288749999999,0,0x200A,0xFFFF
10.785312666666666,0,0x4F4F,0xFFFF
10.785337208333333,0,0x6004,0xFFFF
10.785361458333334,0,0x5A5A,0x0000
10.785386291666667,0,0x6009,0xFFFF
10.785410416666666,0,0x5B5B,0x8F8F
10.785435208333332,0,0x6008,0xFFFF
10.785459416666667,0,0x5C5C,0xECEC
10.785484250000000,0,0x6007,0xFFFF
10.785508249999999,0,0x5D5D,0x3030
10.785532999999999,0,0x6006,0xFFFF
10.785557083333334,0,0x5E5E,0x0000
10.785581916666667,0,0x6004,0xFFFF
10.785606000000000,0,0x5F5F,0x0000
10.785630833333334,0,0x2005,0xFFFF
10.785654958333334,0,0xA0A0,0xFFFF
10.785684625000000,0,0x200A,0xFFFF
10.785709708333334,0,0x4F4F,0xFFFF
10.785734541666667,0,0x6004,0xFFFF
10.785758875000001,0,0x6060,0x0000
10.785783625000001,0,0x6009,0xFFFF
10.785807833333333,0,0x6161,0x1B1B
10.785832541666666,0,0x6008,0xFFFF
10.785856958333333,0,0x6262,0xA8A8
10.785881666666667,0,0x6007,0xFFFF
10.785905874999999,0,0x6363,0x0000
10.785930583333334,0,0x6006,0xFFFF
10.785954791666667,0,0x6464,0x0000
10.785979458333333,0,0x6004,0xFFFF
10.786003583333333,0,0x6565,0x0000
10.786028249999999,0,0x2005,0xFFFF
10.786052166666666,0,0xA0A0,0xFFFF
10.786076833333333,0,0x200A,0xFFFF
10.786100791666666,0,0x4F4F,0xFFFF
10.786125083333333,0,0x6004,0xFFFF
10.786149583333334,0,0x6666,0x0000
10.786174958333334,0,0x6009,0xFFFF
10.786199416666667,0,0x6767,0xA9A9
10.786224125000000,0,0x6008,0xFFFF
10.786248416666666,0,0x6868,0xA0A0
10.786273250000001,0,0x6007,0xFFFF
10.786297333333334,0,0x6969,0x1010
10.786322374999999,0,0x6006,0xFFFF
10.786346666666667,0,0x6A6A,0x0000
10.786371333333333,0,0x6004,0xFFFF
10.786395666666667,0,0x6B6B,0x0000
10.786420208333332,0,0x2005,0xFFFF
10.786444208333334,0,0xA0A0,0xFFFF
10.786468708333333,0,0x200A,0xFFFF
10.786492833333334,0,0x4F4F,0xFFFF
10.786517083333333,0,0x6004,0xFFFF
10.786541333333334,0,0x6C6C,0x0000
10.786566083333334,0,0x6009,0xFFFF
10.786590250000000,0,0x6D6D,0x4242
10.786614958333333,0,0x6008,0xFFFF
10.786639041666668,0,0x6E6E,0x8888
10.786663833333334,0,0x6007,0xFFFF
10.786687958333333,0,0x6F6F,0x6060
10.786712666666666,0,0x6006,0xFFFF
10.786736625000000,0,0x7070,0x0000
10.786761291666666,0,0x6004,0xFFFF
10.786785541666667,0,0x7171,0x0000
10.786810166666667,0,0x2005,0xFFFF
10.786834000000001,0,0xA0A0,0xFFFF
10.786858499999999,0,0x200A,0xFFFF
10.786882666666667,0,0x4F4F,0xFFFF
10.786907125000001,0,0x6004,0xFFFF
10.786931291666667,0,0x7272,0x0000
10.786956083333333,0,0x6009,0xFFFF
10.786980291666667,0,0x7373,0x8080
10.787005166666667,0,0x6008,0xFFFF
10.787029374999999,0,0x7474,0x0101
10.787054166666667,0,0x6007,0xFFFF
10.787078333333334,0,0x7575,0x5050
10.787103041666667,0,0x6006,0xFFFF
10.787127166666666,0,0x7676,0x0000
10.787151750000000,0,0x6004,0xFFFF
10.787175791666666,0,0x7777,0x0000
10.787200416666666,0,0x2005,0xFFFF
10.787224416666668,0,0xA0A0,0xFFFF
10.787248999999999,0,0x200A,0xFFFF
10.787273041666667,0,0x4F4F,0xFFFF
10.787297499999999,0,0x6004,0xFFFF
10.787321625000001,0,0x7878,0x0000
10.787346416666667,0,0x6009,0xFFFF
10.787370749999999,0,0x7979,0xCACA
10.787395583333334,0,0x6008,0xFFFF
10.787419708333333,0,0x7A7A,0x8080
10.787444416666666,0,0x6007,0xFFFF
10.787468708333334,0,0x7B7B,0x1010
10.787493375000000,0,0x6006,0xFFFF
10.787517541666666,0,0x7C7C,0x0000
10.787542416666666,0,0x6004,0xFFFF
10.787566625000000,0,0x7D7D,0x0000
10.787591375000000,0,0x2005,0xFFFF
10.787615291666667,0,0xA0A0,0xFFFF
10.787639583333334,0,0x200A,0xFFFF
10.787663625000000,0,0x4F4F,0xFFFF
10.787688250000000,0,0x6004,0xFFFF
10.787712583333333,0,0x7E7E,0x0000
10.787737291666666,0,0x6009,0xFFFF
10.787762000000001,0,0x7F7F,0xCACA
10.787786875000000,0,0x6008,0xFFFF
10.787811166666666,0,0x8080,0x6060
10.787835875000001,0,0x6007,0xFFFF
10.787860208333333,0,0x8181,0x5050
10.787884999999999,0,0x6006,0xFFFF
10.787909208333334,0,0x8282,0x0000
10.787933833333334,0,0x6004,0xFFFF
10.787958208333333,0,0x8383,0x0000
10.787982833333333,0,0x2005,0xFFFF
10.788006749999999,0,0xA0A0,0xFFFF
10.788031374999999,0,0x200A,0xFFFF
10.788055291666666,0,0x4F4F,0xFFFF
10.788079874999999,0,0x6004,0xFFFF
10.788104000000001,0,0x8484,0x0000
10.788128625000001,0,0x6009,0xFFFF
10.788152708333334,0,0x8585,0xA9A9
10.788177458333333,0,0x6008,0xFFFF
10.788201583333333,0,0x8686,0xA0A0
10.788226249999999,0,0x6007,0xFFFF
10.788250500000000,0,0x8787,0x5050
10.788275250000000,0,0x6006,0xFFFF
10.788299416666666,0,0x8888,0x0000
10.788323999999999,0,0x6004,0xFFFF
10.788348333333333,0,0x8989,0x0000
10.788372916666667,0,0x2005,0xFFFF
10.788396791666667,0,0xA0A0,0xFFFF
10.788421291666667,0,0x200A,0xFFFF
10.788445083333333,0,0x4F4F,0xFFFF
10.788469458333333,0,0x6004,0xFFFF
10.788493666666668,0,0x8A8A,0x0000
10.788518458333334,0,0x6009,0xFFFF
10.788542666666666,0,0x8B8B,0x3434
10.788567416666666,0,0x6008,0xFFFF
10.788591583333334,0,0x8C8C,0xC6C6
10.788616291666667,0,0x6007,0xFFFF
10.788640541666666,0,0x8D8D,0x5050
10.788668124999999,0,0x6006,0xFFFF
10.788693125000000,0,0x8E8E,0x0000
10.788718041666666,0,0x6004,0xFFFF
10.788742166666667,0,0x8F8F,0x0000
10.788766916666667,0,0x2005,0xFFFF
10.788790791666667,0,0xA0A0,0xFFFF
10.788815208333334,0,0x200A,0xFFFF
10.788839125000001,0,0x4F4F,0xFFFF
10.788863750000001,0,0x6004,0xFFFF
10.788888000000000,0,0x9090,0x0000
10.788912666666667,0,0x6009,0xFFFF
10.788937041666667,0,0x9191,0x2222
10.788961791666667,0,0x6008,0xFFFF
10.788986083333333,0,0x9292,0x8E8E
10.789010749999999,0,0x6007,0xFFFF
10.789034958333334,0,0x9393,0x5050
10.789059666666667,0,0x6006,0xFFFF
10.789083833333333,0,0x9494,0x0000
10.789108541666666,0,0x6004,0xFFFF
10.789132666666667,0,0x9595,0x0000
10.789157416666667,0,0x2005,0xFFFF
10.789181333333334,0,0xA0A0,0xFFFF
10.789205875000000,0,0x200A,0xFFFF
10.789229875000000,0,0x4F4F,0xFFFF
10.789254416666667,0,0x6004,0xFFFF
10.789278541666667,0,0x9696,0x0000
10.789303666666667,0,0x6009,0xFFFF
10.789328166666667,0,0x9797,0x3535
10.789352958333334,0,0x6008,0xFFFF
10.789377083333333,0,0x9898,0x0C0C
10.789402000000001,0,0x6007,0xFFFF
10.789426125000000,0,0x9999,0x2020
10.789450958333333,0,0x6006,0xFFFF
10.789475124999999,0,0x9A9A,0x0000
10.789499833333334,0,0x6004,0xFFFF
10.789523958333334,0,0x9B9B,0x0000
10.789548500000000,0,0x2005,0xFFFF
10.789572416666667,0,0xA0A0,0xFFFF
10.789597000000001,0,0x200A,0xFFFF
10.789621208333333,0,0x4F4F,0xFFFF
10.789645500000001,0,0x6004,0xFFFF
10.789669791666666,0,0x9C9C,0x0000
10.789702041666667,0,0x6009,0xFFFF
10.789717291666667,0,0x9D9D,0x0101
10.789731750000000,0,0x6008,0xFFFF
10.789753583333333,0,0x9E9E,0x6666
10.789767583333333,0,0x6007,0xFFFF
10.789782875000000,0,0x9F9F,0x5050
10.789807000000000,0,0x6006,0xFFFF
10.789832250000000,0,0xA0A0,0x0000
10.789856583333334,0,0x6004,0xFFFF
10.789881500000000,0,0xA1A1,0x0000
10.789905833333334,0,0x2005,0xFFFF
10.789930500000001,0,0xA0A0,0xFFFF
10.789955083333334,0,0x200A,0xFFFF
10.789979625000001,0,0x4F4F,0xFFFF
10.790003708333334,0,0x6004,0xFFFF
10.790028375000000,0,0xA2A2,0x0000
10.790052458333333,0,0x6009,0xFFFF
10.790077083333333,0,0xA3A3,0x8080
10.790101249999999,0,0x6008,0xFFFF
10.790125916666666,0,0xA4A4,0x0000
10.790150083333334,0,0x6007,0xFFFF
10.790174958333333,0,0xA5A5,0x2020
10.790199250000001,0,0x6006,0xFFFF
10.790224041666667,0,0xA6A6,0x0000
10.790248208333333,0,0x6004,0xFFFF
10.790272916666666,0,0xA7A7,0x0000
10.790297125000000,0,0x2005,0xFFFF
10.790321666666667,0,0xA0A0,0xFFFF
10.790345583333334,0,0x200A,0xFFFF
10.790370291666667,0,0x4F4F,0xFFFF
10.790394291666667,0,0x6004,0xFFFF
10.790419166666666,0,0xA8A8,0x0000
10.790443458333334,0,0x6009,0xFFFF
10.790468250000000,0,0xA9A9,0x2222
10.790492458333333,0,0x6008,0xFFFF
10.790517208333334,0,0xAAAA,0xCECE
10.790541333333334,0,0x6007,0xFFFF
10.790566166666666,0,0xABAB,0x5050
10.790590333333334,0,0x6006,0xFFFF
10.790615166666667,0,0xACAC,0x0000
10.790639375000000,0,0x6004,0xFFFF
10.790664124999999,0,0xADAD,0x0000
10.790688333333334,0,0x2005,0xFFFF
10.790712666666666,0,0xA0A0,0xFFFF
10.790736750000001,0,0x200A,0xFFFF
10.790761333333334,0,0x4F4F,0xFFFF
10.790785291666667,0,0x6004,0xFFFF
10.790810083333334,0,0xAEAE,0x0000
10.790834500000001,0,0x6009,0xFFFF
10.790859749999999,0,0xAFAF,0x9292
10.790883916666667,0,0x6008,0xFFFF
10.790908625000000,0,0xB0B0,0xACAC
10.790932791666666,0,0x6007,0xFFFF
10.790957416666666,0,0xB1B1,0x3030
10.790981625000001,0,0x6006,0xFFFF
10.791006500000000,0,0xB2B2,0x0000
10.791030583333333,0,0x6004,0xFFFF
10.791055291666666,0,0xB3B3,0x0000
10.791079416666667,0,0x2005,0xFFFF
10.791103916666666,0,0xA0A0,0xFFFF
10.791127833333332,0,0x200A,0xFFFF
10.791152416666666,0,0x4F4F,0xFFFF
10.791176541666667,0,0x6004,0xFFFF
10.791201333333333,0,0xB4B4,0x0000
10.791225583333333,0,0x6009,0xFFFF
10.791250458333334,0,0xB5B5,0x0000
10.791274666666666,0,0x6008,0xFFFF
10.791299374999999,0,0xB6B6,0xE6E6
10.791323666666667,0,0x6007,0xFFFF
10.791348291666667,0,0xB7B7,0x5050
10.791372500000000,0,0x6006,0xFFFF
10.791397125000000,0,0xB8B8,0x0000
10.791421583333333,0,0x6004,0xFFFF
10.791446291666666,0,0xB9B9,0x0000
10.791470625000001,0,0x2005,0xFFFF
10.791495083333333,0,0xA0A0,0xFFFF
10.791518875000000,0,0x200A,0xFFFF
10.791543458333333,0,0x4F4F,0xFFFF
10.791567666666667,0,0x6004,0xFFFF
10.791592375000000,0,0xBABA,0x0000
10.791616625000000,0,0x6009,0xFFFF
10.791641416666666,0,0xBBBB,0x7E7E
10.791665666666667,0,0x6008,0xFFFF
10.791690375000000,0,0xBCBC,0xC6C6
10.791714666666667,0,0x6007,0xFFFF
10.791739375000001,0,0xBDBD,0x2020
10.791763666666666,0,0x6006,0xFFFF
10.791788416666666,0,0xBEBE,0x0000
10.791812791666667,0,0x6004,0xFFFF
10.791837458333333,0,0xBFBF,0x0000
10.791861708333334,0,0x2005,0xFFFF
10.791886041666666,0,0xA0A0,0xFFFF
10.791910083333333,0,0x200A,0xFFFF
10.791934666666666,0,0x4F4F,0xFFFF
10.791958583333333,0,0x6004,0xFFFF
10.791983458333334,0,0xC0C0,0x0000
10.792007708333333,0,0x6009,0xFFFF
10.792032541666666,0,0xC1C1,0x0101
10.792056791666667,0,0x6008,0xFFFF
10.792082000000001,0,0xC2C2,0x4646
10.792106916666667,0,0x6007,0xFFFF
10.792131708333333,0,0xC3C3,0x4040
10.792155958333334,0,0x6006,0xFFFF
10.792180833333333,0,0xC4C4,0x0000
10.792205083333334,0,0x6004,0xFFFF
10.792229750000001,0,0xC5C5,0x0000
10.792254041666666,0,0x2005,0xFFFF
10.792278458333334,0,0xA0A0,0xFFFF
10.792302583333333,0,0x200A,0xFFFF
10.792327125000000,0,0x4F4F,0xFFFF
10.792351291666666,0,0x6004,0xFFFF
10.792376208333334,0,0xC6C6,0x0000
10.792400958333333,0,0x6009,0xFFFF
10.792426041666667,0,0xC7C7,0x2323
10.792450291666666,0,0x6008,0xFFFF
10.792475041666666,0,0xC8C8,0x2E2E
10.792499208333334,0,0x6007,0xFFFF
10.792523916666667,0,0xC9C9,0x2020
10.792548083333333,0,0x6006,0xFFFF
10.792572958333333,0,0xCACA,0x0000
10.792597125000000,0,0x6004,0xFFFF
10.792621833333333,0,0xCBCB,0x0000
10.792645958333333,0,0x2005,0xFFFF
10.792670458333333,0,0xA0A0,0xFFFF
10.792694333333333,0,0x200A,0xFFFF
10.792718666666667,0,0x4F4F,0xFFFF
10.792742541666666,0,0x6004,0xFFFF
10.792767250000001,0,0xCCCC,0x0000
10.792791541666666,0,0x6009,0xFFFF
10.792816291666666,0,0xCDCD,0x9292
10.792840708333333,0,0x6008,0xFFFF
10.792865208333334,0,0xCECE,0xACAC
10.792889541666666,0,0x6007,0xFFFF
10.792914416666667,0,0xCFCF,0x3030
10.792938583333333,0,0x6006,0xFFFF
10.792963374999999,0,0xD0D0,0x0000
10.792987500000001,0,0x6004,0xFFFF
10.793012375000000,0,0xD1D1,0x0000
10.793036499999999,0,0x2005,0xFFFF
10.793061124999999,0,0xA0A0,0xFFFF
10.793085041666666,0,0x200A,0xFFFF
10.793109541666666,0,0x4F4F,0xFFFF
10.793133458333333,0,0x6004,0xFFFF
10.793158166666666,0,0xD2D2,0x0000
10.793182333333334,0,0x6009,0xFFFF
10.793206708333333,0,0xD3D3,0x0000
10.793230749999999,0,0x6008,0xFFFF
10.793255374999999,0,0xD4D4,0xE6E6
10.793279416666667,0,0x6007,0xFFFF
10.793304083333334,0,0xD5D5,0x5050
10.793328125000000,0,0x6006,0xFFFF
10.793352833333334,0,0xD6D6,0x0000
10.793377041666666,0,0x6004,0xFFFF
10.793401666666666,0,0xD7D7,0x0000
10.793425583333333,0,0x2005,0xFFFF
10.793450000000000,0,0xA0A0,0xFFFF
10.793474124999999,0,0x200A,0xFFFF
10.793498583333333,0,0x4F4F,0xFFFF
10.793522583333333,0,0x6004,0xFFFF
10.793547333333333,0,0xD8D8,0x0000
10.793571541666667,0,0x6009,0xFFFF
10.793596333333333,0,0xD9D9,0x8080
10.793620499999999,0,0x6008,0xFFFF
10.793645291666667,0,0xDADA,0x0000
10.793669541666667,0,0x6007,0xFFFF
10.793699416666668,0,0xDBDB,0x3030
10.793724333333333,0,0x6006,0xFFFF
10.793749249999999,0,0xDCDC,0x0000
10.793773625000000,0,0x6004,0xFFFF
10.793798416666666,0,0xDDDD,0x0000
10.793822666666667,0,0x2005,0xFFFF
10.793847250000001,0,0xA0A0,0xFFFF
10.793871125000001,0,0x200A,0xFFFF
10.793895500000000,0,0x4F4F,0xFFFF
10.793919375000000,0,0x6004,0xFFFF
10.793944166666666,0,0xDEDE,0x0000
10.793968458333334,0,0x6009,0xFFFF
10.793993541666667,0,0xDFDF,0x2222
10.794017916666666,0,0x6008,0xFFFF
10.794042583333333,0,0xE0E0,0x8E8E
10.794066666666666,0,0x6007,0xFFFF
10.794091375000001,0,0xE1E1,0x5050
10.794115583333333,0,0x6006,0xFFFF
10.794140291666666,0,0xE2E2,0x0000
10.794164541666667,0,0x6004,0xFFFF
10.794189333333334,0,0xE3E3,0x0000
10.794213500000000,0,0x2005,0xFFFF
10.794238833333333,0,0xA0A0,0xFFFF
10.794263208333334,0,0x200A,0xFFFF
10.794288125000000,0,0x4F4F,0xFFFF
10.794312083333333,0,0x6004,0xFFFF
10.794336833333332,0,0xE4E4,0x0000
10.794361041666667,0,0x6009,0xFFFF
10.794385791666667,0,0xE5E5,0x9393
10.794409916666666,0,0x6008,0xFFFF
10.794434583333333,0,0xE6E6,0x0C0C
10.794458750000000,0,0x6007,0xFFFF
10.794483541666667,0,0xE7E7,0x3030
10.794507583333333,0,0x6006,0xFFFF
10.794532166666666,0,0xE8E8,0x0000
10.794556333333333,0,0x6004,0xFFFF
10.794581000000001,0,0xE9E9,0x0000
10.794605000000001,0,0x2005,0xFFFF
10.794629499999999,0,0xA0A0,0xFFFF
10.794653500000001,0,0x200A,0xFFFF
10.794677916666666,0,0x4F4F,0xFFFF
10.794701791666666,0,0x6004,0xFFFF
10.794726458333333,0,0xEAEA,0x0000
10.794750708333334,0,0x6009,0xFFFF
10.794775333333334,0,0xEBEB,0x0101
10.794799625000000,0,0x6008,0xFFFF
10.794824541666667,0,0xECEC,0x4646
10.794848833333333,0,0x6007,0xFFFF
10.794873458333333,0,0xEDED,0x5050
10.794897625000001,0,0x6006,0xFFFF
10.794923166666667,0,0xEEEE,0x0000
10.794947833333334,0,0x6004,0xFFFF
10.794972749999999,0,0xEFEF,0x0000
10.794997125000000,0,0x2005,0xFFFF
10.795021708333334,0,0xA0A0,0xFFFF
10.795045708333333,0,0x200A,0xFFFF
10.795070291666667,0,0x4F4F,0xFFFF
10.795094208333333,0,0x6004,0xFFFF
10.795118958333333,0,0xF0F0,0x0000
10.795143166666668,0,0x6009,0xFFFF
10.795167791666668,0,0xF1F1,0x0000
10.795191875000000,0,0x6008,0xFFFF
10.795216666666667,0,0xF2F2,0xE6E6
10.795240874999999,0,0x6007,0xFFFF
10.795265625000001,0,0xF3F3,0x2020
10.795289750000000,0,0x6006,0xFFFF
10.795314625000000,0,0xF4F4,0x0000
10.795338583333333,0,0x6004,0xFFFF
10.795363333333333,0,0xF5F5,0x0000
10.795387458333334,0,0x2005,0xFFFF
10.795411916666668,0,0xA0A0,0xFFFF
10.795435958333334,0,0x200A,0xFFFF
10.795460416666666,0,0x4F4F,0xFFFF
10.795484374999999,0,0x6004,0xFFFF
10.795508999999999,0,0xF6F6,0x0000
10.795533250000000,0,0x6009,0xFFFF
10.795558500000000,0,0xF7F7,0x8080
10.795582749999999,0,0x6008,0xFFFF
10.795607291666666,0,0xF8F8,0x0000
10.795631458333334,0,0x6007,0xFFFF
10.795656125000001,0,0xF9F9,0x4040
10.795680041666667,0,0x6006,0xFFFF
10.795704875000000,0,0xFAFA,0x0000
10.795729041666666,0,0x6004,0xFFFF
10.795753791666666,0,0xFBFB,0x0000
10.795777833333334,0,0x2005,0xFFFF
10.795802291666666,0,0xA0A0,0xFFFF
10.795826166666666,0,0x200A,0xFFFF
10.795850666666666,0,0x4F4F,0xFFFF
10.795874666666666,0,0x6004,0xFFFF
10.795899291666666,0,0xFCFC,0x0000
10.795923374999999,0,0x6009,0xFFFF
10.795948208333334,0,0xFDFD,0x0000
10.795972333333333,0,0x6008,0xFFFF
10.795996833333334,0,0xFEFE,0x0000
10.796020875000000,0,0x6007,0xFFFF
10.796045708333333,0,0xFFFF,0x5050
10.796070041666667,0,0x6006,0xFFFF
10.796094791666667,0,0x0000,0x0000
10.796118999999999,0,0x6004,0xFFFF
10.796143791666667,0,0x0101,0x0000
10.796167958333333,0,0x2005,0xFFFF
10.796192375000000,0,0xA0A0,0xFFFF
10.796216291666667,0,0x200A,0xFFFF
10.796240791666667,0,0x4F4F,0xFFFF
10.796264708333334,0,0x6004,0xFFFF
10.796289500000000,0,0x0202,0x0000
10.796313458333334,0,0x6009,0xFFFF
10.796338250000000,0,0x0303,0x2222
10.796362416666666,0,0x6008,0xFFFF
10.796387208333334,0,0x0404,0x8E8E
10.796411416666666,0,0x6007,0xFFFF
10.796436125000000,0,0x0505,0x5050
10.796460291666667,0,0x6006,0xFFFF
10.796484833333333,0,0x0606,0x0000
10.796509208333333,0,0x6004,0xFFFF
10.796534041666666,0,0x0707,0x0000
10.796558250000000,0,0x2005,0xFFFF
10.796582541666666,0,0xA0A0,0xFFFF
10.796606458333333,0,0x200A,0xFFFF
10.796630875000000,0,0x4F4F,0xFFFF
10.796654833333333,0,0x6004,0xFFFF
10.796679541666666,0,0x0808,0x0000
10.796703833333334,0,0x6009,0xFFFF
10.796728541666667,0,0x0909,0x2121
10.796752791666666,0,0x6008,0xFFFF
10.796777416666666,0,0x0A0A,0x0C0C
10.796801666666667,0,0x6007,0xFFFF
10.796826291666667,0,0x0B0B,0x2020
10.796850583333333,0,0x6006,0xFFFF
10.796875249999999,0,0x0C0C,0x0000
10.796899625000000,0,0x6004,0xFFFF
10.796924333333333,0,0x0D0D,0x0000
10.796948708333334,0,0x2005,0xFFFF
10.796973416666667,0,0xA0A0,0xFFFF
10.796997500000000,0,0x200A,0xFFFF
10.797021875000000,0,0x4F4F,0xFFFF
10.797045875000000,0,0x6004,0xFFFF
10.797070583333333,0,0x0E0E,0x0000
10.797094916666667,0,0x6009,0xFFFF
10.797119708333334,0,0x0F0F,0x2A2A
10.797144166666667,0,0x6008,0xFFFF
10.797168916666667,0,0x1010,0x6666
10.797193291666666,0,0x6007,0xFFFF
10.797218041666667,0,0x1111,0x5050
10.797242250000000,0,0x6006,0xFFFF
10.797266791666667,0,0x1212,0x0000
10.797290875000000,0,0x6004,0xFFFF
10.797315666666666,0,0x1313,0x0000
10.797339791666667,0,0x2005,0xFFFF
10.797364166666666,0,0xA0A0,0xFFFF
10.797388083333333,0,0x200A,0xFFFF
10.797412500000000,0,0x4F4F,0xFFFF
10.797436666666666,0,0x6004,0xFFFF
10.797461500000001,0,0x1414,0x0000
10.797485625000000,0,0x6009,0xFFFF
10.797510166666667,0,0x1515,0x7F7F
10.797534416666666,0,0x6008,0xFFFF
10.797558875000000,0,0x1616,0xE4E4
10.797582916666666,0,0x6007,0xFFFF
10.797607708333333,0,0x1717,0x5050
10.797631916666667,0,0x6006,0xFFFF
10.797656666666667,0,0x1818,0x0000
10.797680916666666,0,0x6004,0xFFFF
10.797711250000001,0,0x1919,0x0000
10.797736333333333,0,0x2005,0xFFFF
10.797761041666666,0,0xA0A0,0xFFFF
10.797784916666666,0,0x200A,0xFFFF
10.797809583333333,0,0x4F4F,0xFFFF
10.797833625000001,0,0x6004,0xFFFF
10.797858583333333,0,0x1A1A,0x0000
10.797882749999999,0,0x6009,0xFFFF
10.797907625000001,0,0x1B1B,0x2222
10.797931916666666,0,0x6008,0xFFFF
10.797956833333334,0,0x1C1C,0x8E8E
10.797980958333333,0,0x6007,0xFFFF
10.798005583333333,0,0x1D1D,0x5050
10.798029916666666,0,0x6006,0xFFFF
10.798054625000001,0,0x1E1E,0x0000
10.798078666666667,0,0x6004,0xFFFF
10.798103375000000,0,0x1F1F,0x0000
10.798127583333333,0,0x2005,0xFFFF
10.798152291666666,0,0xA0A0,0xFFFF
10.798176249999999,0,0x200A,0xFFFF
10.798200833333333,0,0x4F4F,0xFFFF
10.798224833333334,0,0x6004,0xFFFF
10.798249541666667,0,0x2020,0x0000
10.798273708333333,0,0x6009,0xFFFF
10.798298416666666,0,0x2121,0xB2B2
10.798322666666667,0,0x6008,0xFFFF
10.798347458333334,0,0x2222,0x4C4C
10.798371458333333,0,0x6007,0xFFFF
10.798396250000000,0,0x2323,0x0000
10.798420291666666,0,0x6006,0xFFFF
10.798445041666668,0,0x2424,0x0000
10.798469166666667,0,0x6004,0xFFFF
10.798493875000000,0,0x2525,0x0000
10.798518000000000,0,0x2005,0xFFFF
10.798542458333333,0,0xA0A0,0xFFFF
10.798566458333333,0,0x200A,0xFFFF
10.798590916666667,0,0x4F4F,0xFFFF
10.798614958333333,0,0x6004,0xFFFF
10.798639666666666,0,0x2626,0x0000
10.798663875000001,0,0x6009,0xFFFF
10.798689000000000,0,0x2727,0x7F7F
10.798713333333334,0,0x6008,0xFFFF
10.798738250000000,0,0x2828,0xE6E6
10.798762416666667,0,0x6007,0xFFFF
10.798787166666667,0,0x2929,0x5050
10.798811458333333,0,0x6006,0xFFFF
10.798836208333332,0,0x2A2A,0x0000
10.798860333333334,0,0x6004,0xFFFF
10.798885125000000,0,0x2B2B,0x0000
10.798909416666667,0,0x2005,0xFFFF
10.798933999999999,0,0xA0A0,0xFFFF
10.798958000000001,0,0x200A,0xFFFF
10.798982583333334,0,0x4F4F,0xFFFF
10.799006333333333,0,0x6004,0xFFFF
10.799030999999999,0,0x2C2C,0x0000
10.799055208333334,0,0x6009,0xFFFF
10.799079916666667,0,0x2D2D,0x2222
10.799103958333333,0,0x6008,0xFFFF
10.799128749999999,0,0x2E2E,0x8E8E
10.799153000000000,0,0x6007,0xFFFF
10.799177750000000,0,0x2F2F,0x5050
10.799202291666667,0,0x6006,0xFFFF
10.799227208333333,0,0x3030,0x0000
10.799251333333334,0,0x6004,0xFFFF
10.799276166666667,0,0x3131,0x0000
10.799300375000000,0,0x2005,0xFFFF
10.799324916666666,0,0xA0A0,0xFFFF
10.799348791666667,0,0x200A,0xFFFF
10.799373250000000,0,0x4F4F,0xFFFF
10.799397208333334,0,0x6004,0xFFFF
10.799421875000000,0,0x3232,0x0000
10.799446166666666,0,0x6009,0xFFFF
10.799470875000001,0,0x3333,0xA8A8
10.799494916666667,0,0x6008,0xFFFF
10.799519583333334,0,0x3434,0x8C8C
10.799543791666666,0,0x6007,0xFFFF
10.799568583333333,0,0x3535,0x0000
10.799592708333334,0,0x6006,0xFFFF
10.799617458333334,0,0x3636,0x0000
10.799641500000000,0,0x6004,0xFFFF
10.799666166666666,0,0x3737,0x0000
10.799690500000001,0,0x2005,0xFFFF
10.799715000000001,0,0xA0A0,0xFFFF
10.799738958333334,0,0x200A,0xFFFF
10.799763458333333,0,0x4F4F,0xFFFF
10.799787625000000,0,0x6004,0xFFFF
10.799812291666667,0,0x3838,0x0000
10.799836583333333,0,0x6009,0xFFFF
10.799861458333334,0,0x3939,0xA0A0
10.799885625000000,0,0x6008,0xFFFF
10.799910291666666,0,0x3A3A,0x8686
10.799934541666667,0,0x6007,0xFFFF
10.799959333333334,0,0x3B3B,0x5050
10.799983541666666,0,0x6006,0xFFFF
10.800008416666667,0,0x3C3C,0x0000
10.800032625000000,0,0x6004,0xFFFF
10.800057416666666,0,0x3D3D,0x0000
10.800081583333334,0,0x2005,0xFFFF
10.800105916666666,0,0xA0A0,0xFFFF
10.800129708333333,0,0x200A,0xFFFF
10.800154083333334,0,0x4F4F,0xFFFF
10.800177916666666,0,0x6004,0xFFFF
10.800202583333334,0,0x3E3E,0x0000
10.800226666666667,0,0x6009,0xFFFF
10.800251625000000,0,0x3F3F,0x0101
10.800275958333334,0,0x6008,0xFFFF
10.800300666666667,0,0x4040,0xE4E4
10.800325000000001,0,0x6007,0xFFFF
10.800349625000001,0,0x4141,0x5050
10.800373666666667,0,0x6006,0xFFFF
10.800398500000000,0,0x4242,0x0000
10.800422708333333,0,0x6004,0xFFFF
10.800447458333334,0,0x4343,0x0000
10.800471750000000,0,0x2005,0xFFFF
10.800496083333334,0,0xA0A0,0xFFFF
10.800520208333333,0,0x200A,0xFFFF
10.800544791666667,0,0x4F4F,0xFFFF
10.800568708333333,0,0x6004,0xFFFF
10.800593458333333,0,0x4444,0x0000
10.800617750000001,0,0x6009,0xFFFF
10.800642500000000,0,0x4545,0x2222
10.800666750000000,0,0x6008,0xFFFF
10.800691333333333,0,0x4646,0x8E8E
10.800715625000000,0,0x6007,0xFFFF
10.800740458333333,0,0x4747,0x5050
10.800764416666667,0,0x6006,0xFFFF
10.800789083333333,0,0x4848,0x0000
10.800813124999999,0,0x6004,0xFFFF
10.800837874999999,0,0x4949,0x0000
10.800862208333333,0,0x2005,0xFFFF
10.800886708333334,0,0xA0A0,0xFFFF
10.800910541666667,0,0x200A,0xFFFF
10.800935041666667,0,0x4F4F,0xFFFF
10.800959041666667,0,0x6004,0xFFFF
10.800983875000000,0,0x4A4A,0x0000
10.801007916666666,0,0x6009,0xFFFF
10.801032708333333,0,0x4B4B,0x0000
10.801056833333334,0,0x6008,0xFFFF
10.801081583333334,0,0x4C4C,0xACAC
10.801105833333333,0,0x6007,0xFFFF
10.801130583333334,0,0x4D4D,0x0000
10.801154458333333,0,0x6006,0xFFFF
10.801179041666666,0,0x4E4E,0x0000
10.801203208333334,0,0x6004,0xFFFF
10.801228000000000,0,0x4F4F,0x0000
10.801252208333333,0,0x2005,0xFFFF
10.801276791666666,0,0xA0A0,0xFFFF
10.801301041666667,0,0x200A,0xFFFF
10.801325458333332,0,0x4F4F,0xFFFF
10.801349458333334,0,0x6004,0xFFFF
10.801374041666667,0,0x5050,0x0000
10.801398166666667,0,0x6009,0xFFFF
10.801422875000000,0,0x5151,0x0101
10.801447083333333,0,0x6008,0xFFFF
10.801471791666666,0,0x5252,0xE6E6
10.801496041666667,0,0x6007,0xFFFF
10.801520750000000,0,0x5353,0x5050
10.801544958333333,0,0x6006,0xFFFF
10.801569666666667,0,0x5454,0x0000
10.801593750000000,0,0x6004,0xFFFF
10.801618250000001,0,0x5555,0x0000
10.801642416666667,0,0x2005,0xFFFF
10.801667083333333,0,0xA0A0,0xFFFF
10.801691208333333,0,0x200A,0xFFFF
10.801719458333332,0,0x4F4F,0xFFFF
10.801744375000000,0,0x6004,0xFFFF
10.801770083333333,0,0x5656,0x0000
10.801795125000000,0,0x6009,0xFFFF
10.801820666666666,0,0x5757,0x2222
10.801845791666667,0,0x6008,0xFFFF
10.801871000000000,0,0x5858,0x8E8E
10.801895666666667,0,0x6007,0xFFFF
10.801921083333333,0,0x5959,0x5050
10.801946041666667,0,0x6006,0xFFFF
10.801971333333332,0,0x5A5A,0x0000
10.801996166666667,0,0x6004,0xFFFF
10.802021583333334,0,0x5B5B,0x0000
10.802046499999999,0,0x2005,0xFFFF
10.802071666666667,0,0xA0A0,0xFFFF
10.802096208333333,0,0x200A,0xFFFF
10.802121333333334,0,0x4F4F,0xFFFF
10.802145833333332,0,0x6004,0xFFFF
10.802171625000000,0,0x5C5C,0x0000
10.802197208333334,0,0x6009,0xFFFF
10.802222833333333,0,0x5D5D,0x0101
10.802247708333333,0,0x6008,0xFFFF
10.802273166666666,0,0x5E5E,0xACAC
10.802298250000000,0,0x6007,0xFFFF
10.802323666666666,0,0x5F5F,0x0000
10.802348666666667,0,0x6006,0xFFFF
10.802373916666667,0,0x6060,0x0000
10.802398708333333,0,0x6004,0xFFFF
10.802423958333334,0,0x6161,0x0000
10.802448833333333,0,0x2005,0xFFFF
10.802474041666667,0,0xA0A0,0xFFFF
10.802498625000000,0,0x200A,0xFFFF
10.802523624999999,0,0x4F4F,0xFFFF
10.802548041666666,0,0x6004,0xFFFF
10.802573458333333,0,0x6262,0x0000
10.802598458333334,0,0x6009,0xFFFF
10.802623708333334,0,0x6363,0x8080
10.802648500000000,0,0x6008,0xFFFF
10.802673916666667,0,0x6464,0x0606
10.802698708333333,0,0x6007,0xFFFF
10.802723958333333,0,0x6565,0x5050
10.802748625000000,0,0x6006,0xFFFF
10.802773958333333,0,0x6666,0x0000
10.802798833333334,0,0x6004,0xFFFF
10.802824208333334,0,0x6767,0x0000
10.802849125000000,0,0x2005,0xFFFF
10.802874250000000,0,0xA0A0,0xFFFF
10.802898916666667,0,0x200A,0xFFFF
10.802924083333334,0,0x4F4F,0xFFFF
10.802948625000001,0,0x6004,0xFFFF
10.802973958333334,0,0x6868,0x0000
10.802998791666667,0,0x6009,0xFFFF
10.803024250000000,0,0x6969,0x0E0E
10.803049124999999,0,0x6008,0xFFFF
10.803074416666666,0,0x6A6A,0xCECE
10.803099416666667,0,0x6007,0xFFFF
10.803124833333333,0,0x6B6B,0x5050
10.803149625000000,0,0x6006,0xFFFF
10.803175083333333,0,0x6C6C,0x0000
10.803199958333334,0,0x6004,0xFFFF
10.803225166666667,0,0x6D6D,0x0000
10.803249958333334,0,0x2005,0xFFFF
10.803275041666666,0,0xA0A0,0xFFFF
10.803299666666666,0,0x200A,0xFFFF
10.803324874999999,0,0x4F4F,0xFFFF
10.803349499999999,0,0x6004,0xFFFF
10.803375000000001,0,0x6E6E,0x0000
10.803399875000000,0,0x6009,0xFFFF
10.803425791666667,0,0x6F6F,0xAEAE
10.803450833333333,0,0x6008,0xFFFF
10.803476000000000,0,0x7070,0xCCCC
10.803500708333333,0,0x6007,0xFFFF
10.803526041666666,0,0x7171,0x3030
10.803551041666667,0,0x6006,0xFFFF
10.803576166666666,0,0x7272,0x0000
10.803601083333334,0,0x6004,0xFFFF
10.803626375000000,0,0x7373,0x0000
10.803651083333333,0,0x2005,0xFFFF
10.803676041666666,0,0xA0A0,0xFFFF
10.803700541666666,0,0x200A,0xFFFF
10.803725625000000,0,0x4F4F,0xFFFF
10.803750000000001,0,0x6004,0xFFFF
10.803775125000000,0,0x7474,0x0000
10.803789500000001,0,0x6009,0xFFFF
10.803813958333333,0,0x7575,0x0B0B
10.803839333333332,0,0x6008,0xFFFF
10.803864166666667,0,0x7676,0x6E6E
10.803889500000000,0,0x6007,0xFFFF
10.803914333333333,0,0x7777,0x5050
10.803939750000000,0,0x6006,0xFFFF
10.803964708333334,0,0x7878,0x0000
10.803989916666668,0,0x6004,0xFFFF
10.804014708333334,0,0x7979,0x0000
10.804040000000001,0,0x2005,0xFFFF
10.804064583333334,0,0xA0A0,0xFFFF
10.804089666666666,0,0x200A,0xFFFF
10.804114083333333,0,0x4F4F,0xFFFF
10.804139166666667,0,0x6004,0xFFFF
10.804164125000000,0,0x7A7A,0x0000
10.804189458333333,0,0x6009,0xFFFF
10.804214291666666,0,0x7B7B,0xAEAE
10.804239500000000,0,0x6008,0xFFFF
10.804264125000000,0,0x7C7C,0xCCCC
10.804289499999999,0,0x6007,0xFFFF
10.804314833333333,0,0x7D7D,0x3030
10.804340958333333,0,0x6006,0xFFFF
10.804366083333333,0,0x7E7E,0x0000
10.804391499999999,0,0x6004,0xFFFF
10.804416208333333,0,0x7F7F,0x0000
10.804441499999999,0,0x2005,0xFFFF
10.804466416666667,0,0xA0A0,0xFFFF
10.804491499999999,0,0x200A,0xFFFF
10.804516208333334,0,0x4F4F,0xFFFF
10.804541374999999,0,0x6004,0xFFFF
10.804566291666667,0,0x8080,0x0000
10.804591666666667,0,0x6009,0xFFFF
10.804616458333333,0,0x8181,0x8888
10.804641708333333,0,0x6008,0xFFFF
10.804666458333333,0,0x8282,0x4646
10.804691791666666,0,0x6007,0xFFFF
10.804716500000000,0,0x8383,0x5050
10.804741833333333,0,0x6006,0xFFFF
10.804766416666666,0,0x8484,0x0000
10.804791625000000,0,0x6004,0xFFFF
10.804816499999999,0,0x8585,0x0000
10.804841541666667,0,0x2005,0xFFFF
10.804866083333334,0,0xA0A0,0xFFFF
10.804891250000001,0,0x200A,0xFFFF
10.804915666666666,0,0x4F4F,0xFFFF
10.804940541666667,0,0x6004,0xFFFF
10.804965291666667,0,0x8686,0x0000
10.804991916666667,0,0x6009,0xFFFF
10.805018375000000,0,0x8787,0x6464
10.805044083333334,0,0x6008,0xFFFF
10.805068833333333,0,0x8888,0x1A1A
10.805094291666666,0,0x6007,0xFFFF
10.805119291666667,0,0x8989,0x2020
10.805144458333332,0,0x6006,0xFFFF
10.805169250000001,0,0x8A8A,0x0000
10.805194541666667,0,0x6004,0xFFFF
10.805219333333334,0,0x8B8B,0x0000
10.805244583333334,0,0x2005,0xFFFF
10.805269208333334,0,0xA0A0,0xFFFF
10.805294166666666,0,0x200A,0xFFFF
10.805318750000000,0,0x4F4F,0xFFFF
10.805343666666667,0,0x6004,0xFFFF
10.805368500000000,0,0x8C8C,0x0000
10.805393666666667,0,0x6009,0xFFFF
10.805418458333333,0,0x8D8D,0x8080
10.805443708333334,0,0x6008,0xFFFF
10.805468541666666,0,0x8E8E,0x0707
10.805493833333333,0,0x6007,0xFFFF
10.805518791666668,0,0x8F8F,0x5050
10.805543958333333,0,0x6006,0xFFFF
10.805568624999999,0,0x9090,0x0000
10.805593916666666,0,0x6004,0xFFFF
10.805618708333334,0,0x9191,0x0000
10.805643874999999,0,0x2005,0xFFFF
10.805668458333333,0,0xA0A0,0xFFFF
10.805693833333333,0,0x200A,0xFFFF
10.805724666666666,0,0x4F4F,0xFFFF
10.805750333333334,0,0x6004,0xFFFF
10.805775416666666,0,0x9292,0x0000
10.805800916666668,0,0x6009,0xFFFF
10.805825666666667,0,0x9393,0x2323
10.805850958333334,0,0x6008,0xFFFF
10.805875833333333,0,0x9494,0x0E0E
10.805901333333333,0,0x6007,0xFFFF
10.805926083333333,0,0x9595,0x5050
10.805951333333333,0,0x6006,0xFFFF
10.805976083333332,0,0x9696,0x0000
10.806001583333334,0,0x6004,0xFFFF
10.806026375000000,0,0x9797,0x0000
10.806051750000000,0,0x2005,0xFFFF
10.806076708333332,0,0xA0A0,0xFFFF
10.806101999999999,0,0x200A,0xFFFF
10.806126666666668,0,0x4F4F,0xFFFF
10.806151625000000,0,0x6004,0xFFFF
10.806176416666666,0,0x9898,0x0000
10.806201833333333,0,0x6009,0xFFFF
10.806226666666667,0,0x9999,0xFEFE
10.806251874999999,0,0x6008,0xFFFF
10.806276625000001,0,0x9A9A,0x4C4C
10.806301833333332,0,0x6007,0xFFFF
10.806326583333334,0,0x9B9B,0x1010
10.806351875000001,0,0x6006,0xFFFF
10.806376666666667,0,0x9C9C,0x0000
10.806401916666667,0,0x6004,0xFFFF
10.806426583333334,0,0x9D9D,0x0000
10.806451916666667,0,0x2005,0xFFFF
10.806476416666667,0,0xA0A0,0xFFFF
10.806501624999999,0,0x200A,0xFFFF
10.806526125000000,0,0x4F4F,0xFFFF
10.806551250000000,0,0x6004,0xFFFF
10.806575958333333,0,0x9E9E,0x0000
10.806602000000000,0,0x6009,0xFFFF
10.806626958333334,0,0x9F9F,0x3B3B
10.806652625000000,0,0x6008,0xFFFF
10.806677708333334,0,0xA0A0,0xA8A8
10.806703000000001,0,0x6007,0xFFFF
10.806727791666667,0,0xA1A1,0x2020
10.806752958333334,0,0x6006,0xFFFF
10.806777875000000,0,0xA2A2,0x0000
10.806803083333334,0,0x6004,0xFFFF
10.806827916666666,0,0xA3A3,0x0000
10.806853208333333,0,0x2005,0xFFFF
10.806877958333333,0,0xA0A0,0xFFFF
10.806902916666667,0,0x200A,0xFFFF
10.806927416666667,0,0x4F4F,0xFFFF
10.806952416666666,0,0x6004,0xFFFF
10.806977249999999,0,0xA4A4,0x0000
10.807002291666667,0,0x6009,0xFFFF
10.807026958333333,0,0xA5A5,0x3F3F
10.807052250000000,0,0x6008,0xFFFF
10.807077083333333,0,0xA6A6,0x4949
10.807102291666666,0,0x6007,0xFFFF
10.807127083333333,0,0xA7A7,0x5050
10.807152500000001,0,0x6006,0xFFFF
10.807177291666667,0,0xA8A8,0x0000
10.807202500000001,0,0x6004,0xFFFF
10.807227250000000,0,0xA9A9,0x0000
10.807252249999999,0,0x2005,0xFFFF
10.807276791666666,0,0xA0A0,0xFFFF
10.807301750000001,0,0x200A,0xFFFF
10.807326375000001,0,0x4F4F,0xFFFF
10.807351375000000,0,0x6004,0xFFFF
10.807376041666666,0,0xAAAA,0x0000
10.807401375000000,0,0x6009,0xFFFF
10.807426208333334,0,0xABAB,0x8080
10.807451333333333,0,0x6008,0xFFFF
10.807476125000001,0,0xACAC,0x0000
10.807501291666666,0,0x6007,0xFFFF
10.807526166666667,0,0xADAD,0x6060
10.807551374999999,0,0x6006,0xFFFF
10.807575999999999,0,0xAEAE,0x0000
10.807601333333333,0,0x6004,0xFFFF
10.807626166666667,0,0xAFAF,0x0000
10.807651416666667,0,0x2005,0xFFFF
10.807676000000001,0,0xA0A0,0xFFFF
10.807701083333333,0,0x200A,0xFFFF
10.807725583333333,0,0x4F4F,0xFFFF
10.807750875000000,0,0x6004,0xFFFF
10.807775791666666,0,0xB0B0,0x0000
10.807801083333333,0,0x6009,0xFFFF
10.807826166666667,0,0xB1B1,0x8080
10.807851416666667,0,0x6008,0xFFFF
10.807876166666667,0,0xB2B2,0x0000
10.807901583333333,0,0x6007,0xFFFF
10.807926374999999,0,0xB3B3,0x6060
10.807951666666666,0,0x6006,0xFFFF
10.807976458333334,0,0xB4B4,0x0000
10.808001624999999,0,0x6004,0xFFFF
10.808026416666667,0,0xB5B5,0x0000
10.808051541666666,0,0x2005,0xFFFF
10.808076249999999,0,0xA0A0,0xFFFF
10.808101416666666,0,0x200A,0xFFFF
10.808126041666666,0,0x4F4F,0xFFFF
10.808151125000000,0,0x6004,0xFFFF
10.808175708333334,0,0xB6B6,0x0000
10.808201000000000,0,0x6009,0xFFFF
10.808225875000000,0,0xB7B7,0xA1A1
10.808251208333333,0,0x6008,0xFFFF
10.808275958333333,0,0xB8B8,0x2727
10.808301208333333,0,0x6007,0xFFFF
10.808325833333333,0,0xB9B9,0x7070
10.808351166666666,0,0x6006,0xFFFF
10.808375916666666,0,0xBABA,0x0000
10.808401416666667,0,0x6004,0xFFFF
10.808426125000000,0,0xBBBB,0x0000
10.808451291666668,0,0x2005,0xFFFF
10.808475749999999,0,0xA0A0,0xFFFF
10.808500875000000,0,0x200A,0xFFFF
10.808525625000000,0,0x4F4F,0xFFFF
10.808550625000001,0,0x6004,0xFFFF
10.808575250000001,0,0xBCBC,0x0000
10.808600625000000,0,0x6009,0xFFFF
10.808625458333333,0,0xBDBD,0x2222
10.808650666666667,0,0x6008,0xFFFF
10.808675458333333,0,0xBEBE,0xEEEE
10.808700833333333,0,0x6007,0xFFFF
10.808725791666667,0,0xBFBF,0x5050
10.808751083333334,0,0x6006,0xFFFF
10.808775958333333,0,0xC0C0,0x0000
10.808801166666667,0,0x6004,0xFFFF
10.808826000000000,0,0xC1C1,0x0000
10.808851166666667,0,0x2005,0xFFFF
10.808875666666667,0,0xA0A0,0xFFFF
10.808900833333333,0,0x200A,0xFFFF
10.808925041666667,0,0x4F4F,0xFFFF
10.808949958333333,0,0x6004,0xFFFF
10.808974750000001,0,0xC2C2,0x0000
10.809000125000001,0,0x6009,0xFFFF
10.809024916666667,0,0xC3C3,0x9797
10.809050083333334,0,0x6008,0xFFFF
10.809074708333334,0,0xC4C4,0xCCCC
10.809100083333334,0,0x6007,0xFFFF
10.809124875000000,0,0xC5C5,0x3030
10.809150125000000,0,0x6006,0xFFFF
10.809174916666667,0,0xC6C6,0x0000
10.809200208333333,0,0x6004,0xFFFF
10.809224791666667,0,0xC7C7,0x0000
10.809250166666667,0,0x2005,0xFFFF
10.809274666666667,0,0xA0A0,0xFFFF
10.809299833333334,0,0x200A,0xFFFF
10.809324250000000,0,0x4F4F,0xFFFF
10.809349541666666,0,0x6004,0xFFFF
10.809374375000001,0,0xC8C8,0x0000
10.809399708333334,0,0x6009,0xFFFF
10.809424541666667,0,0xC9C9,0x4040
10.809449833333334,0,0x6008,0xFFFF
10.809474541666667,0,0xCACA,0x6868
10.809499958333333,0,0x6007,0xFFFF
10.809524750000000,0,0xCBCB,0x2020
10.809550166666666,0,0x6006,0xFFFF
10.809574874999999,0,0xCCCC,0x0000
10.809600083333333,0,0x6004,0xFFFF
10.809624749999999,0,0xCDCD,0x0000
10.809650124999999,0,0x2005,0xFFFF
10.809674916666667,0,0xA0A0,0xFFFF
10.809699999999999,0,0x200A,0xFFFF
10.809729666666666,0,0x4F4F,0xFFFF
10.809755500000000,0,0x6004,0xFFFF
10.809780625000000,0,0xCECE,0x0000
10.809806208333333,0,0x6009,0xFFFF
10.809831166666667,0,0xCFCF,0x8080
10.809856458333334,0,0x6008,0xFFFF
10.809881375000000,0,0xD0D0,0x0101
10.809906708333333,0,0x6007,0xFFFF
10.809931583333332,0,0xD1D1,0x7070
10.809956791666666,0,0x6006,0xFFFF
10.809981583333334,0,0xD2D2,0x0000
10.810006958333334,0,0x6004,0xFFFF
10.810031791666667,0,0xD3D3,0x0000
10.810057083333334,0,0x2005,0xFFFF
10.810081875000000,0,0xA0A0,0xFFFF
10.810107041666667,0,0x200A,0xFFFF
10.810131458333334,0,0x4F4F,0xFFFF
10.810156333333333,0,0x6004,0xFFFF
10.810181125000000,0,0xD4D4,0x0000
10.810206333333333,0,0x6009,0xFFFF
10.810231083333333,0,0xD5D5,0x2323
10.810256416666666,0,0x6008,0xFFFF
10.810281083333333,0,0xD6D6,0x0E0E
10.810306333333333,0,0x6007,0xFFFF
10.810331208333332,0,0xD7D7,0x0000
10.810356416666666,0,0x6006,0xFFFF
10.810381083333333,0,0xD8D8,0x0000
10.810406458333333,0,0x6004,0xFFFF
10.810431208333334,0,0xD9D9,0x0000
10.810456416666666,0,0x2005,0xFFFF
10.810480999999999,0,0xA0A0,0xFFFF
10.810506083333333,0,0x200A,0xFFFF
10.810530750000000,0,0x4F4F,0xFFFF
10.810555708333334,0,0x6004,0xFFFF
10.810580291666666,0,0xDADA,0x0000
10.810605499999999,0,0x6009,0xFFFF
10.810630250000001,0,0xDBDB,0xFEFE
10.810655499999999,0,0x6008,0xFFFF
10.810680375000000,0,0xDCDC,0x4C4C
10.810705499999999,0,0x6007,0xFFFF
10.810730416666667,0,0xDDDD,0x1010
10.810755833333333,0,0x6006,0xFFFF
10.810780541666666,0,0xDEDE,0x0000
10.810805625000000,0,0x6004,0xFFFF
10.810830416666667,0,0xDFDF,0x0000
10.810855583333334,0,0x2005,0xFFFF
10.810879958333333,0,0xA0A0,0xFFFF
10.810905125000000,0,0x200A,0xFFFF
10.810929625000000,0,0x4F4F,0xFFFF
10.810954708333334,0,0x6004,0xFFFF
10.810979333333334,0,0xE0E0,0x0000
10.811004791666667,0,0x6009,0xFFFF
10.811029583333333,0,0xE1E1,0x8282
10.811054875000000,0,0x6008,0xFFFF
10.811079666666666,0,0xE2E2,0xEEEE
10.811104916666666,0,0x6007,0xFFFF
10.811129666666666,0,0xE3E3,0x5050
10.811154958333333,0,0x6006,0xFFFF
10.811179624999999,0,0xE4E4,0x0000
10.811204958333333,0,0x6004,0xFFFF
10.811229708333334,0,0xE5E5,0x0000
10.811255125000001,0,0x2005,0xFFFF
10.811279750000001,0,0xA0A0,0xFFFF
10.811304874999999,0,0x200A,0xFFFF
10.811329541666666,0,0x4F4F,0xFFFF
10.811354750000000,0,0x6004,0xFFFF
10.811379583333334,0,0xE6E6,0x0000
10.811404833333333,0,0x6009,0xFFFF
10.811429708333334,0,0xE7E7,0x9999
10.811454916666667,0,0x6008,0xFFFF
10.811479708333334,0,0xE8E8,0x8C8C
10.811505000000000,0,0x6007,0xFFFF
10.811529833333333,0,0xE9E9,0x3030
10.811555000000000,0,0x6006,0xFFFF
10.811579750000000,0,0xEAEA,0x0000
10.811605250000000,0,0x6004,0xFFFF
10.811629999999999,0,0xEBEB,0x0000
10.811655333333333,0,0x2005,0xFFFF
10.811679874999999,0,0xA0A0,0xFFFF
10.811704916666667,0,0x200A,0xFFFF
10.811729541666667,0,0x4F4F,0xFFFF
10.811754583333334,0,0x6004,0xFFFF
10.811779500000000,0,0xECEC,0x0000
10.811804833333333,0,0x6009,0xFFFF
10.811829666666666,0,0xEDED,0xA6A6
10.811854958333333,0,0x6008,0xFFFF
10.811879875000001,0,0xEEEE,0xE0E0
10.811905375000000,0,0x6007,0xFFFF
10.811930083333333,0,0xEFEF,0x5050
10.811955166666667,0,0x6006,0xFFFF
10.811979875000000,0,0xF0F0,0x0000
10.812005125000001,0,0x6004,0xFFFF
10.812030041666667,0,0xF1F1,0x0000
10.812055583333333,0,0x2005,0xFFFF
10.812080249999999,0,0xA0A0,0xFFFF
10.812105624999999,0,0x200A,0xFFFF
10.812130124999999,0,0x4F4F,0xFFFF
10.812155250000000,0,0x6004,0xFFFF
10.812179916666667,0,0xF2F2,0x0000
10.812205041666667,0,0x6009,0xFFFF
10.812229750000000,0,0xF3F3,0x8C8C
10.812255791666667,0,0x6008,0xFFFF
10.812281833333333,0,0xF4F4,0x8E8E
10.812307708333334,0,0x6007,0xFFFF
10.812332625000000,0,0xF5F5,0x5050
10.812358041666666,0,0x6006,0xFFFF
10.812383416666666,0,0xF6F6,0x0000
10.812409000000001,0,0x6004,0xFFFF
10.812433875000000,0,0xF7F7,0x0000
10.812459041666667,0,0x2005,0xFFFF
10.812483750000000,0,0xA0A0,0xFFFF
10.812508916666667,0,0x200A,0xFFFF
10.812533458333334,0,0x4F4F,0xFFFF
10.812558541666666,0,0x6004,0xFFFF
10.812583458333334,0,0xF8F8,0x0000
10.812608875000000,0,0x6009,0xFFFF
10.812633750000000,0,0xF9F9,0x9999
10.812659000000000,0,0x6008,0xFFFF
10.812683666666667,0,0xFAFA,0xCCCC
10.812709166666666,0,0x6007,0xFFFF
10.812733916666666,0,0xFBFB,0x3030
10.812759291666667,0,0x6006,0xFFFF
10.812784125000000,0,0xFCFC,0x0000
10.812809416666667,0,0x6004,0xFFFF
10.812834166666667,0,0xFDFD,0x0000
10.812859583333333,0,0x2005,0xFFFF
10.812884125000000,0,0xA0A0,0xFFFF
10.812909208333334,0,0x200A,0xFFFF
10.812934000000000,0,0x4F4F,0xFFFF
10.812959166666667,0,0x6004,0xFFFF
10.812983875000000,0,0xFEFE,0x0000
10.813009208333334,0,0x6009,0xFFFF
10.813033958333333,0,0xFFFF,0x4040
10.813059208333334,0,0x6008,0xFFFF
10.813084041666666,0,0x0000,0x6868
10.813109499999999,0,0x6007,0xFFFF
10.813134208333333,0,0x0101,0x5050
10.813159291666667,0,0x6006,0xFFFF
10.813184124999999,0,0x0202,0x0000
10.813209250000000,0,0x6004,0xFFFF
10.813234041666666,0,0x0303,0x0000
10.813259208333333,0,0x2005,0xFFFF
10.813283875000000,0,0xA0A0,0xFFFF
10.813309208333333,0,0x200A,0xFFFF
10.813333625000000,0,0x4F4F,0xFFFF
10.813358875000000,0,0x6004,0xFFFF
10.813383791666666,0,0x0404,0x0000
10.813409208333333,0,0x6009,0xFFFF
10.813434041666667,0,0x0505,0x8080
10.813459375000001,0,0x6008,0xFFFF
10.813484250000000,0,0x0606,0x0000
10.813509791666666,0,0x6007,0xFFFF
10.813534291666667,0,0x0707,0x1010
10.813559625000000,0,0x6006,0xFFFF
10.813584416666666,0,0x0808,0x0000
10.813609625000000,0,0x6004,0xFFFF
10.813634416666666,0,0x0909,0x0000
10.813659833333332,0,0x2005,0xFFFF
10.813684333333333,0,0xA0A0,0xFFFF
10.813709458333333,0,0x200A,0xFFFF
10.813735958333334,0,0x4F4F,0xFFFF
10.813761916666667,0,0x6004,0xFFFF
10.813786833333333,0,0x0A0A,0x0000
10.813812416666666,0,0x6009,0xFFFF
10.813837291666667,0,0x0B0B,0x3636
10.813862625000001,0,0x6008,0xFFFF
10.813887416666667,0,0x0C0C,0xA0A0
10.813912833333333,0,0x6007,0xFFFF
10.813937583333333,0,0x0D0D,0x5050
10.813962833333333,0,0x6006,0xFFFF
10.813987750000001,0,0x0E0E,0x0000
10.814012999999999,0,0x6004,0xFFFF
10.814037875000000,0,0x0F0F,0x0000
10.814063083333334,0,0x2005,0xFFFF
10.814087625000001,0,0xA0A0,0xFFFF
10.814112791666666,0,0x200A,0xFFFF
10.814137499999999,0,0x4F4F,0xFFFF
10.814162583333333,0,0x6004,0xFFFF
10.814187374999999,0,0x1010,0x0000
10.814212708333333,0,0x6009,0xFFFF
10.814237541666667,0,0x1111,0x3333
10.814262749999999,0,0x6008,0xFFFF
10.814287541666667,0,0x1212,0xA6A6
10.814312791666667,0,0x6007,0xFFFF
10.814337416666667,0,0x1313,0x5050
10.814362750000001,0,0x6006,0xFFFF
10.814387666666667,0,0x1414,0x0000
10.814416541666667,0,0x6004,0xFFFF
10.814441875000000,0,0x1515,0x0000
10.814467333333333,0,0x2005,0xFFFF
10.814491958333333,0,0xA0A0,0xFFFF
10.814516875000001,0,0x200A,0xFFFF
10.814541416666666,0,0x4F4F,0xFFFF
10.814566583333333,0,0x6004,0xFFFF
10.814591333333333,0,0x1616,0x0000
10.814616791666667,0,0x6009,0xFFFF
10.814641750000000,0,0x1717,0x8080
10.814667000000000,0,0x6008,0xFFFF
10.814691666666667,0,0x1818,0x0000
10.814716916666667,0,0x6007,0xFFFF
10.814741666666666,0,0x1919,0x2020
10.814766916666667,0,0x6006,0xFFFF
10.814791625000000,0,0x1A1A,0x0000
10.814816833333333,0,0x6004,0xFFFF
10.814841625000000,0,0x1B1B,0x0000
10.814866875000000,0,0x2005,0xFFFF
10.814891625000000,0,0xA0A0,0xFFFF
10.814916708333334,0,0x200A,0xFFFF
10.814941333333334,0,0x4F4F,0xFFFF
10.814966708333333,0,0x6004,0xFFFF
10.814991333333333,0,0x1C1C,0x0000
10.815016666666667,0,0x6009,0xFFFF
10.815041333333333,0,0x1D1D,0x2222
10.815066666666667,0,0x6008,0xFFFF
10.815092249999999,0,0x1E1E,0xAEAE
10.815118416666667,0,0x6007,0xFFFF
10.815143333333333,0,0x1F1F,0x5050
10.815168750000000,0,0x6006,0xFFFF
10.815193583333333,0,0x2020,0x0000
10.815218958333332,0,0x6004,0xFFFF
10.815243833333334,0,0x2121,0x0000
10.815269208333333,0,0x2005,0xFFFF
10.815294041666666,0,0xA0A0,0xFFFF
10.815319208333333,0,0x200A,0xFFFF
10.815343833333333,0,0x4F4F,0xFFFF
10.815368958333334,0,0x6004,0xFFFF
10.815393916666666,0,0x2222,0x0000
10.815419083333333,0,0x6009,0xFFFF
10.815443999999999,0,0x2323,0x9A9A
10.815469208333333,0,0x6008,0xFFFF
10.815493999999999,0,0x2424,0x8C8C
10.815519291666666,0,0x6007,0xFFFF
10.815544125000001,0,0x2525,0x3030
10.815569375000001,0,0x6006,0xFFFF
10.815594083333334,0,0x2626,0x0000
10.815619500000000,0,0x6004,0xFFFF
10.815644166666667,0,0x2727,0x0000
10.815669416666667,0,0x2005,0xFFFF
10.815694000000001,0,0xA0A0,0xFFFF
10.815719208333332,0,0x200A,0xFFFF
10.815743791666666,0,0x4F4F,0xFFFF
10.815768958333333,0,0x6004,0xFFFF
10.815793749999999,0,0x2828,0x0000
10.815818958333333,0,0x6009,0xFFFF
10.815843958333334,0,0x2929,0x2222
10.815869125000001,0,0x6008,0xFFFF
10.815893958333334,0,0x2A2A,0x8E8E
10.815919333333333,0,0x6007,0xFFFF
10.815944249999999,0,0x2B2B,0x5050
10.815969500000000,0,0x6006,0xFFFF
10.815994291666666,0,0x2C2C,0x0000
10.816019583333333,0,0x6004,0xFFFF
10.816044375000001,0,0x2D2D,0x0000
10.816069875000000,0,0x2005,0xFFFF
10.816094500000000,0,0xA0A0,0xFFFF
10.816119416666666,0,0x200A,0xFFFF
10.816144083333333,0,0x4F4F,0xFFFF
10.816169208333333,0,0x6004,0xFFFF
10.816194083333333,0,0x2E2E,0x0000
10.816219541666667,0,0x6009,0xFFFF
10.816244458333333,0,0x2F2F,0xA1A1
10.816269833333333,0,0x6008,0xFFFF
10.816294541666666,0,0x3030,0x8C8C
10.816319625000000,0,0x6007,0xFFFF
10.816344375000000,0,0x3131,0x3030
10.816369750000000,0,0x6006,0xFFFF
10.816394541666666,0,0x3232,0x0000
10.816419791666666,0,0x6004,0xFFFF
10.816444458333333,0,0x3333,0x0000
10.816469708333333,0,0x2005,0xFFFF
10.816494375000000,0,0xA0A0,0xFFFF
10.816519500000000,0,0x200A,0xFFFF
10.816544041666667,0,0x4F4F,0xFFFF
10.816569124999999,0,0x6004,0xFFFF
10.816594041666667,0,0x3434,0x0000
10.816619333333334,0,0x6009,0xFFFF
10.816644333333333,0,0x3535,0x0202
10.816669541666666,0,0x6008,0xFFFF
10.816694249999999,0,0x3636,0xCECE
10.816719583333333,0,0x6007,0xFFFF
10.816744458333334,0,0x3737,0x0000
10.816769708333334,0,0x6006,0xFFFF
10.816794583333333,0,0x3838,0x0000
10.816819750000001,0,0x6004,0xFFFF
10.816844541666667,0,0x3939,0x0000
10.816869583333334,0,0x2005,0xFFFF
10.816894208333334,0,0xA0A0,0xFFFF
10.816919291666666,0,0x200A,0xFFFF
10.816943916666666,0,0x4F4F,0xFFFF
10.816969166666667,0,0x6004,0xFFFF
10.816993916666666,0,0x3A3A,0x0000
10.817019416666668,0,0x6009,0xFFFF
10.817044250000000,0,0x3B3B,0xA0A0
10.817069583333334,0,0x6008,0xFFFF
10.817094333333333,0,0x3C3C,0x2C2C
10.817119666666667,0,0x6007,0xFFFF
10.817144416666666,0,0x3D3D,0x3030
10.817169750000000,0,0x6006,0xFFFF
10.817194625000001,0,0x3E3E,0x0000
10.817219833333333,0,0x6004,0xFFFF
10.817244625000001,0,0x3F3F,0x0000
10.817269958333334,0,0x2005,0xFFFF
10.817294416666666,0,0xA0A0,0xFFFF
10.817319500000000,0,0x200A,0xFFFF
10.817344166666667,0,0x4F4F,0xFFFF
10.817369416666667,0,0x6004,0xFFFF
10.817394166666666,0,0x4040,0x0000
10.817419500000000,0,0x6009,0xFFFF
10.817444208333333,0,0x4141,0x3636
10.817469666666666,0,0x6008,0xFFFF
10.817494375000001,0,0x4242,0xA6A6
10.817519583333333,0,0x6007,0xFFFF
10.817544166666666,0,0x4343,0x0000
10.817569541666666,0,0x6006,0xFFFF
10.817594250000001,0,0x4444,0x0000
10.817619625000001,0,0x6004,0xFFFF
10.817644541666667,0,0x4545,0x0000
10.817669750000000,0,0x2005,0xFFFF
10.817694416666667,0,0xA0A0,0xFFFF
10.817724708333333,0,0x200A,0xFFFF
10.817750708333334,0,0x4F4F,0xFFFF
10.817776500000001,0,0x6004,0xFFFF
10.817801208333334,0,0x4646,0x0000
10.817826875000000,0,0x6009,0xFFFF
10.817851791666667,0,0x4747,0x4040
10.817877250000000,0,0x6008,0xFFFF
10.817902041666667,0,0x4848,0x6868
10.817927416666667,0,0x6007,0xFFFF
10.817952208333333,0,0x4949,0x5050
10.817977375000000,0,0x6006,0xFFFF
10.818002125000000,0,0x4A4A,0x0000
10.818027375000000,0,0x6004,0xFFFF
10.818052208333333,0,0x4B4B,0x0000
10.818077541666666,0,0x2005,0xFFFF
10.818101958333333,0,0xA0A0,0xFFFF
10.818126958333334,0,0x200A,0xFFFF
10.818151541666667,0,0x4F4F,0xFFFF
10.818176791666666,0,0x6004,0xFFFF
10.818201541666667,0,0x4C4C,0x0000
10.818226916666667,0,0x6009,0xFFFF
10.818251708333333,0,0x4D4D,0x8080
10.818277041666667,0,0x6008,0xFFFF
10.818301750000000,0,0x4E4E,0x0000
10.818327083333333,0,0x6007,0xFFFF
10.818351958333333,0,0x4F4F,0x1010
10.818377541666667,0,0x6006,0xFFFF
10.818402291666667,0,0x5050,0x0000
10.818427750000000,0,0x6004,0xFFFF
10.818452416666666,0,0x5151,0x0000
10.818477791666666,0,0x2005,0xFFFF
10.818502250000000,0,0xA0A0,0xFFFF
10.818527375000000,0,0x200A,0xFFFF
10.818552000000000,0,0x4F4F,0xFFFF
10.818577083333333,0,0x6004,0xFFFF
10.818601875000001,0,0x5252,0x0000
10.818627250000000,0,0x6009,0xFFFF
10.818652000000000,0,0x5353,0x8080
10.818677333333333,0,0x6008,0xFFFF
10.818702125000000,0,0x5454,0x0000
10.818727416666666,0,0x6007,0xFFFF
10.818752208333333,0,0x5555,0x4040
10.818777624999999,0,0x6006,0xFFFF
10.818802416666667,0,0x5656,0x0000
10.818827750000001,0,0x6004,0xFFFF
10.818852458333334,0,0x5757,0x0000
10.818877750000000,0,0x2005,0xFFFF
10.818902333333334,0,0xA0A0,0xFFFF
10.818927250000000,0,0x200A,0xFFFF
10.818951875000000,0,0x4F4F,0xFFFF
10.818977291666666,0,0x6004,0xFFFF
10.819002166666667,0,0x5858,0x0000
10.819027333333333,0,0x6009,0xFFFF
10.819052166666667,0,0x5959,0x2323
10.819077249999999,0,0x6008,0xFFFF
10.819102125000001,0,0x5A5A,0x0E0E
10.819127291666666,0,0x6007,0xFFFF
10.819152041666667,0,0x5B5B,0x5050
10.819177375000001,0,0x6006,0xFFFF
10.819202208333333,0,0x5C5C,0x0000
10.819227500000000,0,0x6004,0xFFFF
10.819252416666666,0,0x5D5D,0x0000
10.819277791666666,0,0x2005,0xFFFF
10.819302625000001,0,0xA0A0,0xFFFF
10.819327916666667,0,0x200A,0xFFFF
10.819352416666666,0,0x4F4F,0xFFFF
10.819377500000000,0,0x6004,0xFFFF
10.819402250000000,0,0x5E5E,0x0000
10.819427875000001,0,0x6009,0xFFFF
10.819452833333333,0,0x5F5F,0x9F9F
10.819478250000000,0,0x6008,0xFFFF
10.819503125000001,0,0x6060,0xECEC
10.819528375000001,0,0x6007,0xFFFF
10.819553250000000,0,0x6161,0x3030
10.819578500000000,0,0x6006,0xFFFF
10.819603333333333,0,0x6262,0x0000
10.819628583333333,0,0x6004,0xFFFF
10.819653458333333,0,0x6363,0x0000
10.819678666666666,0,0x2005,0xFFFF
10.819703416666666,0,0xA0A0,0xFFFF
10.819728749999999,0,0x200A,0xFFFF
10.819753333333333,0,0x4F4F,0xFFFF
10.819778416666667,0,0x6004,0xFFFF
10.819803250000000,0,0x6464,0x0000
10.819828375000000,0,0x6009,0xFFFF
10.819853291666666,0,0x6565,0x2020
10.819878541666666,0,0x6008,0xFFFF
10.819903375000001,0,0x6666,0x6E6E
10.819928666666666,0,0x6007,0xFFFF
10.819953458333334,0,0x6767,0x5050
10.819978750000001,0,0x6006,0xFFFF
10.820003375000001,0,0x6868,0x0000
10.820028666666667,0,0x6004,0xFFFF
10.820053541666667,0,0x6969,0x0000
10.820078791666667,0,0x2005,0xFFFF
10.820103416666667,0,0xA0A0,0xFFFF
10.820128666666667,0,0x200A,0xFFFF
10.820153208333334,0,0x4F4F,0xFFFF
10.820178458333332,0,0x6004,0xFFFF
10.820203375000000,0,0x6A6A,0x0000
10.820228625000000,0,0x6009,0xFFFF
10.820253541666666,0,0x6B6B,0x9C9C
10.820278999999999,0,0x6008,0xFFFF
10.820303791666667,0,0x6C6C,0x8C8C
10.820329333333333,0,0x6007,0xFFFF
10.820353916666667,0,0x6D6D,0x3030
10.820379416666666,0,0x6006,0xFFFF
10.820404333333334,0,0x6E6E,0x0000
10.820429750000001,0,0x6004,0xFFFF
10.820454500000000,0,0x6F6F,0x0000
10.820479750000001,0,0x2005,0xFFFF
10.820504333333334,0,0xA0A0,0xFFFF
10.820529416666666,0,0x200A,0xFFFF
10.820553958333333,0,0x4F4F,0xFFFF
10.820578958333334,0,0x6004,0xFFFF
10.820603750000000,0,0x7070,0x0000
10.820628916666667,0,0x6009,0xFFFF
10.820653833333333,0,0x7171,0x4141
10.820679041666667,0,0x6008,0xFFFF
10.820703666666667,0,0x7272,0xA8A8
10.820729083333333,0,0x6007,0xFFFF
10.820753791666666,0,0x7373,0x5050
10.820779083333333,0,0x6006,0xFFFF
10.820803874999999,0,0x7474,0x0000
10.820829124999999,0,0x6004,0xFFFF
10.820853874999999,0,0x7575,0x0000
10.820879208333332,0,0x2005,0xFFFF
10.820903833333332,0,0xA0A0,0xFFFF
10.820928833333333,0,0x200A,0xFFFF
10.820953541666666,0,0x4F4F,0xFFFF
10.820978750000000,0,0x6004,0xFFFF
10.821003583333333,0,0x7676,0x0000
10.821029166666667,0,0x6009,0xFFFF
10.821053916666667,0,0x7777,0xA9A9
10.821079500000000,0,0x6008,0xFFFF
10.821104166666666,0,0x7878,0xA0A0
10.821129624999999,0,0x6007,0xFFFF
10.821154291666666,0,0x7979,0x5050
10.821179541666666,0,0x6006,0xFFFF
10.821204291666668,0,0x7A7A,0x0000
10.821229583333333,0,0x6004,0xFFFF
10.821254375000001,0,0x7B7B,0x0000
10.821279750000000,0,0x2005,0xFFFF
10.821304375000000,0,0xA0A0,0xFFFF
10.821329333333333,0,0x200A,0xFFFF
10.821353958333333,0,0x4F4F,0xFFFF
10.821379125000000,0,0x6004,0xFFFF
10.821403999999999,0,0x7C7C,0x0000
10.821429250000000,0,0x6009,0xFFFF
10.821454125000001,0,0x7D7D,0xA4A4
10.821479208333333,0,0x6008,0xFFFF
10.821503916666666,0,0x7E7E,0xA0A0
10.821529166666666,0,0x6007,0xFFFF
10.821554000000001,0,0x7F7F,0x5050
10.821579166666666,0,0x6006,0xFFFF
10.821603958333334,0,0x8080,0x0000
10.821629166666666,0,0x6004,0xFFFF
10.821654041666667,0,0x8181,0x0000
10.821679208333334,0,0x2005,0xFFFF
10.821703749999999,0,0xA0A0,0xFFFF
10.821737375000000,0,0x200A,0xFFFF
10.821763833333334,0,0x4F4F,0xFFFF
10.821789541666666,0,0x6004,0xFFFF
10.821814708333333,0,0x8282,0x0000
10.821840041666666,0,0x6009,0xFFFF
10.821865041666667,0,0x8383,0x3636
10.821890249999999,0,0x6008,0xFFFF
10.821915250000000,0,0x8484,0x4646
10.821940708333333,0,0x6007,0xFFFF
10.821965750000000,0,0x8585,0x5050
10.821991041666667,0,0x6006,0xFFFF
10.822016166666666,0,0x8686,0x0000
10.822041291666666,0,0x6004,0xFFFF
10.822066333333334,0,0x8787,0x0000
10.822091750000000,0,0x2005,0xFFFF
10.822116541666666,0,0xA0A0,0xFFFF
10.822141583333334,0,0x200A,0xFFFF
10.822166291666667,0,0x4F4F,0xFFFF
10.822191458333334,0,0x6004,0xFFFF
10.822216375000000,0,0x8888,0x0000
10.822241458333334,0,0x6009,0xFFFF
10.822266458333333,0,0x8989,0xA4A4
10.822291583333334,0,0x6008,0xFFFF
10.822316833333334,0,0x8A8A,0xA0A0
10.822343416666667,0,0x6007,0xFFFF
10.822369291666666,0,0x8B8B,0x5050
10.822395125000000,0,0x6006,0xFFFF
10.822420291666667,0,0x8C8C,0x0000
10.822445750000000,0,0x6004,0xFFFF
10.822471083333333,0,0x8D8D,0x0000
10.822496458333333,0,0x2005,0xFFFF
10.822521249999999,0,0xA0A0,0xFFFF
10.822546333333333,0,0x200A,0xFFFF
10.822571291666666,0,0x4F4F,0xFFFF
10.822596416666666,0,0x6004,0xFFFF
10.822621583333333,0,0x8E8E,0x0000
10.822647083333333,0,0x6009,0xFFFF
10.822672291666667,0,0x8F8F,0xA9A9
10.822697625000000,0,0x6008,0xFFFF
10.822722791666667,0,0x9090,0xA0A0
10.822748208333334,0,0x6007,0xFFFF
10.822773375000001,0,0x9191,0x1010
10.822798625000001,0,0x6006,0xFFFF
10.822823583333333,0,0x9292,0x0000
10.822848791666667,0,0x6004,0xFFFF
10.822873708333333,0,0x9393,0x0000
10.822898958333333,0,0x2005,0xFFFF
10.822923749999999,0,0xA0A0,0xFFFF
10.822948916666666,0,0x200A,0xFFFF
10.822973583333333,0,0x4F4F,0xFFFF
10.822998666666667,0,0x6004,0xFFFF
10.823023750000001,0,0x9494,0x0000
10.823049125000001,0,0x6009,0xFFFF
10.823074041666667,0,0x9595,0x3636
10.823099500000000,0,0x6008,0xFFFF
10.823124458333334,0,0x9696,0x0606
10.823149750000001,0,0x6007,0xFFFF
10.823174666666667,0,0x9797,0x3030
10.823200041666666,0,0x6006,0xFFFF
10.823225125000000,0,0x9898,0x0000
10.823250458333334,0,0x6004,0xFFFF
10.823275666666667,0,0x9999,0x0000
10.823300916666666,0,0x2005,0xFFFF
10.823325625000001,0,0xA0A0,0xFFFF
10.823350708333333,0,0x200A,0xFFFF
10.823375750000000,0,0x4F4F,0xFFFF
10.823400708333333,0,0x6004,0xFFFF
10.823425666666667,0,0x9A9A,0x0000
10.823451041666667,0,0x6009,0xFFFF
10.823475958333333,0,0x9B9B,0x8080
10.823501416666666,0,0x6008,0xFFFF
10.823526333333334,0,0x9C9C,0x0000
10.823551541666667,0,0x6007,0xFFFF
10.823576624999999,0,0x9D9D,0x4040
10.823602041666666,0,0x6006,0xFFFF
10.823627416666668,0,0x9E9E,0x0000
10.823652750000001,0,0x6004,0xFFFF
10.823677750000000,0,0x9F9F,0x0000
10.823703208333333,0,0x2005,0xFFFF
10.823727958333333,0,0xA0A0,0xFFFF
10.823753166666666,0,0x200A,0xFFFF
10.823778000000001,0,0x4F4F,0xFFFF
10.823803125000000,0,0x6004,0xFFFF
10.823828208333333,0,0xA0A0,0x0000
10.823853375000001,0,0x6009,0xFFFF
10.823878458333333,0,0xA1A1,0x2222
10.823903833333333,0,0x6008,0xFFFF
10.823928875000000,0,0xA2A2,0xEEEE
10.823954041666667,0,0x6007,0xFFFF
10.823978916666666,0,0xA3A3,0x5050
10.824004250000000,0,0x6006,0xFFFF
10.824029333333334,0,0xA4A4,0x0000
10.824054791666667,0,0x6004,0xFFFF
10.824079833333334,0,0xA5A5,0x0000
10.824104999999999,0,0x2005,0xFFFF
10.824130000000000,0,0xA0A0,0xFFFF
10.824155041666666,0,0x200A,0xFFFF
10.824179916666667,0,0x4F4F,0xFFFF
10.824205041666668,0,0x6004,0xFFFF
10.824229958333333,0,0xA6A6,0x0000
10.824255583333333,0,0x6009,0xFFFF
10.824280625000000,0,0xA7A7,0x9E9E
10.824305958333333,0,0x6008,0xFFFF
10.824330874999999,0,0xA8A8,0x6C6C
10.824356208333333,0,0x6007,0xFFFF
10.824381166666667,0,0xA9A9,0x3030
10.824406541666667,0,0x6006,0xFFFF
10.824431875000000,0,0xAAAA,0x0000
10.824457291666667,0,0x6004,0xFFFF
10.824482625000000,0,0xABAB,0x0000
10.824508833333333,0,0x2005,0xFFFF
10.824534000000000,0,0xA0A0,0xFFFF
10.824559166666667,0,0x200A,0xFFFF
10.824583958333333,0,0x4F4F,0xFFFF
10.824609125000000,0,0x6004,0xFFFF
10.824634124999999,0,0xACAC,0x0000
10.824659625000001,0,0x6009,0xFFFF
10.824684625000000,0,0xADAD,0x4040
10.824710083333333,0,0x6008,0xFFFF
10.824735291666666,0,0xAEAE,0x6868
10.824760666666666,0,0x6007,0xFFFF
10.824785708333334,0,0xAFAF,0x5050
10.824811083333334,0,0x6006,0xFFFF
10.824836041666666,0,0xB0B0,0x0000
10.824861374999999,0,0x6004,0xFFFF
10.824886416666667,0,0xB1B1,0x0000
10.824911750000000,0,0x2005,0xFFFF
10.824936583333333,0,0xA0A0,0xFFFF
10.824961833333333,0,0x200A,0xFFFF
10.824986500000000,0,0x4F4F,0xFFFF
10.825011666666667,0,0x6004,0xFFFF
10.825036541666666,0,0xB2B2,0x0000
10.825061916666666,0,0x6009,0xFFFF
10.825087083333333,0,0xB3B3,0x8080
10.825112416666666,0,0x6008,0xFFFF
10.825137541666667,0,0xB4B4,0x0000
10.825162958333333,0,0x6007,0xFFFF
10.825191374999999,0,0xB5B5,0x1010
10.825217166666667,0,0x6006,0xFFFF
10.825242333333334,0,0xB6B6,0x0000
10.825267750000000,0,0x6004,0xFFFF
10.825292666666666,0,0xB7B7,0x0000
10.825318166666667,0,0x2005,0xFFFF
10.825342958333334,0,0xA0A0,0xFFFF
10.825368041666668,0,0x200A,0xFFFF
10.825392750000001,0,0x4F4F,0xFFFF
10.825417791666666,0,0x6004,0xFFFF
10.825442666666667,0,0xB8B8,0x0000
10.825468250000000,0,0x6009,0xFFFF
10.825493333333334,0,0xB9B9,0x2222
10.825518541666666,0,0x6008,0xFFFF
10.825543541666667,0,0xBABA,0x8E8E
10.825569000000000,0,0x6007,0xFFFF
10.825594041666667,0,0xBBBB,0x5050
10.825619416666667,0,0x6006,0xFFFF
10.825644458333333,0,0xBCBC,0x0000
10.825669541666667,0,0x6004,0xFFFF
10.825694625000001,0,0xBDBD,0x0000
10.825719833333334,0,0x2005,0xFFFF
10.825744291666666,0,0xA0A0,0xFFFF
10.825769458333333,0,0x200A,0xFFFF
10.825794833333333,0,0x4F4F,0xFFFF
10.825819666666666,0,0x6004,0xFFFF
10.825845291666667,0,0xBEBE,0x0000
10.825870999999999,0,0x6009,0xFFFF
10.825896916666666,0,0xBFBF,0x9F9F
10.825922125000000,0,0x6008,0xFFFF
10.825947500000000,0,0xC0C0,0x8C8C
10.825972625000000,0,0x6007,0xFFFF
10.825997958333334,0,0xC1C1,0x3030
10.826023125000001,0,0x6006,0xFFFF
10.826048541666667,0,0xC2C2,0x0000
10.826063208333334,0,0x6004,0xFFFF
10.826077583333333,0,0xC3C3,0x0000
10.826091999999999,0,0x2005,0xFFFF
10.826116624999999,0,0xA0A0,0xFFFF
10.826141874999999,0,0x200A,0xFFFF
10.826166750000001,0,0x4F4F,0xFFFF
10.826191958333334,0,0x6004,0xFFFF
10.826216833333334,0,0xC4C4,0x0000
10.826242250000000,0,0x6009,0xFFFF
10.826267208333332,0,0xC5C5,0x4141
10.826292499999999,0,0x6008,0xFFFF
10.826317583333333,0,0xC6C6,0xA8A8
10.826342791666667,0,0x6007,0xFFFF
10.826367791666666,0,0xC7C7,0x5050
10.826393166666668,0,0x6006,0xFFFF
10.826418250000000,0,0xC8C8,0x0000
10.826443625000000,0,0x6004,0xFFFF
10.826468583333334,0,0xC9C9,0x0000
10.826493875000001,0,0x2005,0xFFFF
10.826518958333333,0,0xA0A0,0xFFFF
10.826544041666667,0,0x200A,0xFFFF
10.826568833333333,0,0x4F4F,0xFFFF
10.826593916666667,0,0x6004,0xFFFF
10.826618958333333,0,0xCACA,0x0000
10.826644458333334,0,0x6009,0xFFFF
10.826669541666666,0,0xCBCB,0xA9A9
10.826694874999999,0,0x6008,0xFFFF
10.826719833333334,0,0xCCCC,0xA0A0
10.826745208333334,0,0x6007,0xFFFF
10.826770458333334,0,0xCDCD,0x5050
10.826795708333334,0,0x6006,0xFFFF
10.826820750000000,0,0xCECE,0x0000
10.826846000000000,0,0x6004,0xFFFF
10.826871000000001,0,0xCFCF,0x0000
10.826896041666666,0,0x2005,0xFFFF
10.826920791666666,0,0xA0A0,0xFFFF
10.826945916666666,0,0x200A,0xFFFF
10.826970749999999,0,0x4F4F,0xFFFF
10.826995750000000,0,0x6004,0xFFFF
10.827020791666667,0,0xD0D0,0x0000
10.827046125000001,0,0x6009,0xFFFF
10.827071000000000,0,0xD1D1,0xA4A4
10.827096333333333,0,0x6008,0xFFFF
10.827121125000000,0,0xD2D2,0xA0A0
10.827146458333333,0,0x6007,0xFFFF
10.827171583333334,0,0xD3D3,0x5050
10.827196916666667,0,0x6006,0xFFFF
10.827221708333333,0,0xD4D4,0x0000
10.827246958333333,0,0x6004,0xFFFF
10.827271958333334,0,0xD5D5,0x0000
10.827297208333333,0,0x2005,0xFFFF
10.827321875000001,0,0xA0A0,0xFFFF
10.827347041666666,0,0x200A,0xFFFF
10.827371875000001,0,0x4F4F,0xFFFF
10.827396999999999,0,0x6004,0xFFFF
10.827422000000000,0,0xD6D6,0x0000
10.827447291666667,0,0x6009,0xFFFF
10.827472458333334,0,0xD7D7,0x3636
10.827498083333333,0,0x6008,0xFFFF
10.827523125000001,0,0xD8D8,0x4646
10.827548333333333,0,0x6007,0xFFFF
10.827573500000000,0,0xD9D9,0x5050
10.827598500000001,0,0x6006,0xFFFF
10.827623500000000,0,0xDADA,0x0000
10.827648708333333,0,0x6004,0xFFFF
10.827673541666666,0,0xDBDB,0x0000
10.827698833333333,0,0x2005,0xFFFF
10.827723375000000,0,0xA0A0,0xFFFF
10.827748416666667,0,0x200A,0xFFFF
10.827773208333333,0,0x4F4F,0xFFFF
10.827798166666666,0,0x6004,0xFFFF
10.827823250000000,0,0xDCDC,0x0000
10.827848375000000,0,0x6009,0xFFFF
10.827873333333333,0,0xDDDD,0xA4A4
10.827898458333333,0,0x6008,0xFFFF
10.827923500000001,0,0xDEDE,0xA0A0
10.827948791666667,0,0x6007,0xFFFF
10.827973583333334,0,0xDFDF,0x5050
10.827998875000000,0,0x6006,0xFFFF
10.828023999999999,0,0xE0E0,0x0000
10.828049208333333,0,0x6004,0xFFFF
10.828074333333333,0,0xE1E1,0x0000
10.828099541666667,0,0x2005,0xFFFF
10.828124375000000,0,0xA0A0,0xFFFF
10.828149458333334,0,0x200A,0xFFFF
10.828174208333333,0,0x4F4F,0xFFFF
10.828199208333332,0,0x6004,0xFFFF
10.828224291666666,0,0xE2E2,0x0000
10.828249708333333,0,0x6009,0xFFFF
10.828274750000000,0,0xE3E3,0xA9A9
10.828300291666666,0,0x6008,0xFFFF
10.828325375000000,0,0xE4E4,0xA0A0
10.828350708333334,0,0x6007,0xFFFF
10.828375791666666,0,0xE5E5,0x1010
10.828401083333333,0,0x6006,0xFFFF
10.828426041666667,0,0xE6E6,0x0000
10.828451208333334,0,0x6004,0xFFFF
10.828476125000000,0,0xE7E7,0x0000
10.828501333333334,0,0x2005,0xFFFF
10.828526291666666,0,0xA0A0,0xFFFF
10.828551250000000,0,0x200A,0xFFFF
10.828576166666666,0,0x4F4F,0xFFFF
10.828601416666666,0,0x6004,0xFFFF
10.828626625000000,0,0xE8E8,0x0000
10.828652041666667,0,0x6009,0xFFFF
10.828677166666667,0,0xE9E9,0x3636
10.828702416666667,0,0x6008,0xFFFF
10.828727666666667,0,0xEAEA,0x0606
10.828753125000000,0,0x6007,0xFFFF
10.828778208333333,0,0xEBEB,0x3030
10.828803416666666,0,0x6006,0xFFFF
10.828828583333333,0,0xECEC,0x0000
10.828853791666667,0,0x6004,0xFFFF
10.828878833333333,0,0xEDED,0x0000
10.828903916666667,0,0x2005,0xFFFF
10.828928666666666,0,0xA0A0,0xFFFF
10.828953708333334,0,0x200A,0xFFFF
10.828978583333333,0,0x4F4F,0xFFFF
10.829003625000000,0,0x6004,0xFFFF
10.829028500000000,0,0xEEEE,0x0000
10.829053875000000,0,0x6009,0xFFFF
10.829079374999999,0,0xEFEF,0x3636
10.829104666666666,0,0x6008,0xFFFF
10.829129750000000,0,0xF0F0,0x2626
10.829154958333334,0,0x6007,0xFFFF
10.829179750000000,0,0xF1F1,0x3030
10.829204916666667,0,0x6006,0xFFFF
10.829229916666666,0,0xF2F2,0x0000
10.829255166666666,0,0x6004,0xFFFF
10.829280041666667,0,0xF3F3,0x0000
10.829305541666667,0,0x2005,0xFFFF
10.829330666666667,0,0xA0A0,0xFFFF
10.829355666666666,0,0x200A,0xFFFF
10.829380375000000,0,0x4F4F,0xFFFF
10.829405625000000,0,0x6004,0xFFFF
10.829430666666667,0,0xF4F4,0x0000
10.829455875000001,0,0x6009,0xFFFF
10.829480958333333,0,0xF5F5,0x8080
10.829506000000000,0,0x6008,0xFFFF
10.829530916666666,0,0xF6F6,0x0000
10.829555958333334,0,0x6007,0xFFFF
10.829580875000000,0,0xF7F7,0x4040
10.829606041666667,0,0x6006,0xFFFF
10.829631041666667,0,0xF8F8,0x0000
10.829656291666666,0,0x6004,0xFFFF
10.829681666666668,0,0xF9F9,0x0000
10.829706916666666,0,0x2005,0xFFFF
10.829731666666667,0,0xA0A0,0xFFFF
10.829761166666668,0,0x200A,0xFFFF
10.829786500000001,0,0x4F4F,0xFFFF
10.829811833333334,0,0x6004,0xFFFF
10.829836916666666,0,0xFAFA,0x0000
10.829862166666667,0,0x6009,0xFFFF
10.829887083333332,0,0xFBFB,0x2222
10.829912250000000,0,0x6008,0xFFFF
10.829937333333334,0,0xFCFC,0xEEEE
10.829962583333334,0,0x6007,0xFFFF
10.829987666666666,0,0xFDFD,0x5050
10.830012916666666,0,0x6006,0xFFFF
10.830037916666667,0,0xFEFE,0x0000
10.830063041666667,0,0x6004,0xFFFF
10.830087958333333,0,0xFFFF,0x0000
10.830113375000000,0,0x2005,0xFFFF
10.830138125000000,0,0xA0A0,0xFFFF
10.830163125000000,0,0x200A,0xFFFF
10.830188041666666,0,0x4F4F,0xFFFF
10.830213083333334,0,0x6004,0xFFFF
10.830238166666666,0,0x0000,0x0000
10.830263541666667,0,0x6009,0xFFFF
10.830288375000000,0,0x0101,0x9E9E
10.830313750000000,0,0x6008,0xFFFF
10.830338708333333,0,0x0202,0x6C6C
10.830363916666666,0,0x6007,0xFFFF
10.830389125000000,0,0x0303,0x3030
10.830414458333333,0,0x6006,0xFFFF
10.830439500000001,0,0x0404,0x0000
10.830464624999999,0,0x6004,0xFFFF
10.830489625000000,0,0x0505,0x0000
10.830515000000000,0,0x2005,0xFFFF
10.830539791666666,0,0xA0A0,0xFFFF
10.830564958333333,0,0x200A,0xFFFF
10.830589833333333,0,0x4F4F,0xFFFF
10.830614875000000,0,0x6004,0xFFFF
10.830639833333333,0,0x0606,0x0000
10.830665208333333,0,0x6009,0xFFFF
10.830690333333333,0,0x0707,0x4040
10.830715791666666,0,0x6008,0xFFFF
10.830740791666667,0,0x0808,0x6868
10.830766083333334,0,0x6007,0xFFFF
10.830791166666666,0,0x0909,0x5050
10.830816541666668,0,0x6006,0xFFFF
10.830841583333333,0,0x0A0A,0x0000
10.830866791666667,0,0x6004,0xFFFF
10.830891625000000,0,0x0B0B,0x0000
10.830917083333333,0,0x2005,0xFFFF
10.830942000000000,0,0xA0A0,0xFFFF
10.830967250000000,0,0x200A,0xFFFF
10.830992166666666,0,0x4F4F,0xFFFF
10.831017291666667,0,0x6004,0xFFFF
10.831042208333333,0,0x0C0C,0x0000
10.831067375000000,0,0x6009,0xFFFF
10.831092249999999,0,0x0D0D,0x8080
10.831117624999999,0,0x6008,0xFFFF
10.831142541666667,0,0x0E0E,0x0000
10.831168125000000,0,0x6007,0xFFFF
10.831193333333333,0,0x0F0F,0x1010
10.831218750000000,0,0x6006,0xFFFF
10.831243875000000,0,0x1010,0x0000
10.831269291666667,0,0x6004,0xFFFF
10.831294375000001,0,0x1111,0x0000
10.831319666666667,0,0x2005,0xFFFF
10.831344416666667,0,0xA0A0,0xFFFF
10.831369541666668,0,0x200A,0xFFFF
10.831394416666667,0,0x4F4F,0xFFFF
10.831419541666667,0,0x6004,0xFFFF
10.831444541666666,0,0x1212,0x0000
10.831469625000000,0,0x6009,0xFFFF
10.831494500000000,0,0x1313,0x2222
10.831519875000000,0,0x6008,0xFFFF
10.831544833333334,0,0x1414,0x8E8E
10.831570041666666,0,0x6007,0xFFFF
10.831594875000000,0,0x1515,0x5050
10.831620250000000,0,0x6006,0xFFFF
10.831645291666666,0,0x1616,0x0000
10.831670583333333,0,0x6004,0xFFFF
10.831695750000000,0,0x1717,0x0000
10.831721041666666,0,0x2005,0xFFFF
10.831745791666666,0,0xA0A0,0xFFFF
10.831771000000000,0,0x200A,0xFFFF
10.831795666666666,0,0x4F4F,0xFFFF
10.831820666666667,0,0x6004,0xFFFF
10.831845749999999,0,0x1818,0x0000
10.831871166666666,0,0x6009,0xFFFF
10.831896250000000,0,0x1919,0x9F9F
10.831921541666667,0,0x6008,0xFFFF
10.831946500000001,0,0x1A1A,0x8C8C
10.831971958333334,0,0x6007,0xFFFF
10.831996999999999,0,0x1B1B,0x3030
10.832022625000000,0,0x6006,0xFFFF
10.832047583333333,0,0x1C1C,0x0000
10.832072833333333,0,0x6004,0xFFFF
10.832097875000001,0,0x1D1D,0x0000
10.832123250000000,0,0x2005,0xFFFF
10.832148083333333,0,0xA0A0,0xFFFF
10.832173041666668,0,0x200A,0xFFFF
10.832197833333334,0,0x4F4F,0xFFFF
10.832222874999999,0,0x6004,0xFFFF
10.832248000000000,0,0x1E1E,0x0000
10.832273333333333,0,0x6009,0xFFFF
10.832298625000000,0,0x1F1F,0x2F2F
10.832324083333333,0,0x6008,0xFFFF
10.832349208333333,0,0x2020,0xA8A8
10.832374541666667,0,0x6007,0xFFFF
10.832399625000001,0,0x2121,0x5050
10.832425000000001,0,0x6006,0xFFFF
10.832453833333334,0,0x2222,0x0000
10.832479458333333,0,0x6004,0xFFFF
10.832504625000000,0,0x2323,0x0000
10.832530000000000,0,0x2005,0xFFFF
10.832554958333333,0,0xA0A0,0xFFFF
10.832580166666666,0,0x200A,0xFFFF
10.832605041666667,0,0x4F4F,0xFFFF
10.832630125000000,0,0x6004,0xFFFF
10.832655166666667,0,0x2424,0x0000
10.832680791666666,0,0x6009,0xFFFF
10.832705791666667,0,0x2525,0x8080
10.832731041666667,0,0x6008,0xFFFF
10.832756000000000,0,0x2626,0x0000
10.832781499999999,0,0x6007,0xFFFF
10.832806625000000,0,0x2727,0x1010
10.832832041666666,0,0x6006,0xFFFF
10.832857083333334,0,0x2828,0x0000
10.832882124999999,0,0x6004,0xFFFF
10.832906916666667,0,0x2929,0x0000
10.832932124999999,0,0x2005,0xFFFF
10.832956749999999,0,0xA0A0,0xFFFF
10.832981999999999,0,0x200A,0xFFFF
10.833007041666667,0,0x4F4F,0xFFFF
10.833031958333333,0,0x6004,0xFFFF
10.833057000000000,0,0x2A2A,0x0000
10.833082250000000,0,0x6009,0xFFFF
10.833107125000000,0,0x2B2B,0xA9A9
10.833132375000000,0,0x6008,0xFFFF
10.833157333333334,0,0x2C2C,0xA0A0
10.833182458333333,0,0x6007,0xFFFF
10.833207208333333,0,0x2D2D,0x5050
10.833232375000000,0,0x6006,0xFFFF
10.833257500000000,0,0x2E2E,0x0000
10.833283000000000,0,0x6004,0xFFFF
10.833308083333334,0,0x2F2F,0x0000
10.833333333333334,0,0x2005,0xFFFF
10.833358291666666,0,0xA0A0,0xFFFF
10.833383500000000,0,0x200A,0xFFFF
10.833408125000000,0,0x4F4F,0xFFFF
10.833433291666667,0,0x6004,0xFFFF
10.833458250000000,0,0x3030,0x0000
10.833483458333333,0,0x6009,0xFFFF
10.833508416666668,0,0x3131,0xA4A4
10.833533458333333,0,0x6008,0xFFFF
10.833558416666667,0,0x3232,0xA0A0
10.833583750000001,0,0x6007,0xFFFF
10.833608750000000,0,0x3333,0x5050
10.833634083333333,0,0x6006,0xFFFF
10.833659166666667,0,0x3434,0x0000
10.833684333333334,0,0x6004,0xFFFF
10.833709416666666,0,0x3535,0x0000
10.833734666666667,0,0x2005,0xFFFF
10.833760958333333,0,0xA0A0,0xFFFF
10.833786416666667,0,0x200A,0xFFFF
10.833811375000000,0,0x4F4F,0xFFFF
10.833836375000001,0,0x6004,0xFFFF
10.833861291666667,0,0x3636,0x0000
10.833886625000000,0,0x6009,0xFFFF
10.833911958333333,0,0x3737,0x1C1C
10.833937375000000,0,0x6008,0xFFFF
10.833962541666667,0,0x3838,0x6060
10.833987791666667,0,0x6007,0xFFFF
10.834012666666666,0,0x3939,0x5050
10.834038083333333,0,0x6006,0xFFFF
10.834063125000000,0,0x3A3A,0x0000
10.834088500000000,0,0x6004,0xFFFF
10.834113458333333,0,0x3B3B,0x0000
10.834138625000000,0,0x2005,0xFFFF
10.834163458333334,0,0xA0A0,0xFFFF
10.834188458333333,0,0x200A,0xFFFF
10.834213333333333,0,0x4F4F,0xFFFF
10.834238458333333,0,0x6004,0xFFFF
10.834263583333334,0,0x3C3C,0x0000
10.834288916666667,0,0x6009,0xFFFF
10.834313791666666,0,0x3D3D,0xA4A4
10.834338875000000,0,0x6008,0xFFFF
10.834363791666666,0,0x3E3E,0xA0A0
10.834389041666666,0,0x6007,0xFFFF
10.834414083333334,0,0x3F3F,0x5050
10.834439500000000,0,0x6006,0xFFFF
10.834464583333334,0,0x4040,0x0000
10.834489916666667,0,0x6004,0xFFFF
10.834514833333333,0,0x4141,0x0000
10.834540125000000,0,0x2005,0xFFFF
10.834565375000000,0,0xA0A0,0xFFFF
10.834590958333333,0,0x200A,0xFFFF
10.834615916666667,0,0x4F4F,0xFFFF
10.834641083333333,0,0x6004,0xFFFF
10.834665958333334,0,0x4242,0x0000
10.834691250000001,0,0x6009,0xFFFF
10.834716458333334,0,0x4343,0xA9A9
10.834741791666668,0,0x6008,0xFFFF
10.834766750000000,0,0x4444,0xA0A0
10.834792000000000,0,0x6007,0xFFFF
10.834816999999999,0,0x4545,0x0000
10.834842249999999,0,0x6006,0xFFFF
10.834867333333333,0,0x4646,0x0000
10.834892666666667,0,0x6004,0xFFFF
10.834917916666667,0,0x4747,0x0000
10.834943250000000,0,0x2005,0xFFFF
10.834968000000000,0,0xA0A0,0xFFFF
10.834992958333334,0,0x200A,0xFFFF
10.835017625000001,0,0x4F4F,0xFFFF
10.835042750000000,0,0x6004,0xFFFF
10.835067791666667,0,0x4848,0x0000
10.835093041666667,0,0x6009,0xFFFF
10.835117916666666,0,0x4949,0x3636
10.835143083333334,0,0x6008,0xFFFF
10.835168083333333,0,0x4A4A,0x4040
10.835193416666666,0,0x6007,0xFFFF
10.835218583333333,0,0x4B4B,0x5050
10.835243708333334,0,0x6006,0xFFFF
10.835269583333334,0,0x4C4C,0x0000
10.835295583333334,0,0x6004,0xFFFF
10.835320875000001,0,0x4D4D,0x0000
10.835346166666668,0,0x2005,0xFFFF
10.835370958333334,0,0xA0A0,0xFFFF
10.835396083333332,0,0x200A,0xFFFF
10.835420833333334,0,0x4F4F,0xFFFF
10.835445958333333,0,0x6004,0xFFFF
10.835470916666667,0,0x4E4E,0x0000
10.835496166666667,0,0x6009,0xFFFF
10.835521666666667,0,0x4F4F,0xCDCD
10.835547083333333,0,0x6008,0xFFFF
10.835572250000000,0,0x5050,0xC0C0
10.835597416666667,0,0x6007,0xFFFF
10.835622333333333,0,0x5151,0x5050
10.835647791666666,0,0x6006,0xFFFF
10.835672916666667,0,0x5252,0x0000
10.835698166666667,0,0x6004,0xFFFF
10.835723124999999,0,0x5353,0x0000
10.835748375000000,0,0x2005,0xFFFF
10.835773166666666,0,0xA0A0,0xFFFF
10.835798208333333,0,0x200A,0xFFFF
10.835823000000000,0,0x4F4F,0xFFFF
10.835848083333333,0,0x6004,0xFFFF
10.835873166666667,0,0x5454,0x0000
10.835898374999999,0,0x6009,0xFFFF
10.835923375000000,0,0x5555,0x3636
10.835948666666667,0,0x6008,0xFFFF
10.835973791666667,0,0x5656,0xA0A0
10.835999083333334,0,0x6007,0xFFFF
10.836024000000000,0,0x5757,0x5050
10.836049291666667,0,0x6006,0xFFFF
10.836074291666666,0,0x5858,0x0000
10.836099666666666,0,0x6004,0xFFFF
10.836124708333333,0,0x5959,0x0000
10.836149958333333,0,0x2005,0xFFFF
10.836174916666666,0,0xA0A0,0xFFFF
10.836200041666666,0,0x200A,0xFFFF
10.836224916666668,0,0x4F4F,0xFFFF
10.836250291666667,0,0x6004,0xFFFF
10.836275333333333,0,0x5A5A,0x0000
10.836300500000000,0,0x6009,0xFFFF
10.836325541666668,0,0x5B5B,0x2222
10.836350833333332,0,0x6008,0xFFFF
10.836375750000000,0,0x5C5C,0x8E8E
10.836400875000001,0,0x6007,0xFFFF
10.836425791666667,0,0x5D5D,0x5050
10.836451083333333,0,0x6006,0xFFFF
10.836475958333333,0,0x5E5E,0x0000
10.836501208333333,0,0x6004,0xFFFF
10.836526166666667,0,0x5F5F,0x0000
10.836551541666667,0,0x2005,0xFFFF
10.836576291666667,0,0xA0A0,0xFFFF
10.836601541666667,0,0x200A,0xFFFF
10.836626333333333,0,0x4F4F,0xFFFF
10.836651291666668,0,0x6004,0xFFFF
10.836676333333333,0,0x6060,0x0000
10.836701375000001,0,0x6009,0xFFFF
10.836726375000000,0,0x6161,0xA8A8
10.836751583333333,0,0x6008,0xFFFF
10.836776499999999,0,0x6262,0x6C6C
10.836801708333333,0,0x6007,0xFFFF
10.836826541666667,0,0x6363,0x3030
10.836851749999999,0,0x6006,0xFFFF
10.836876583333334,0,0x6464,0x0000
10.836902083333333,0,0x6004,0xFFFF
10.836927125000001,0,0x6565,0x0000
10.836952541666667,0,0x2005,0xFFFF
10.836977166666667,0,0xA0A0,0xFFFF
10.837002291666666,0,0x200A,0xFFFF
10.837027458333333,0,0x4F4F,0xFFFF
10.837052583333334,0,0x6004,0xFFFF
10.837077499999999,0,0x6666,0x0000
10.837102916666666,0,0x6009,0xFFFF
10.837128166666666,0,0x6767,0x9999
10.837153750000001,0,0x6008,0xFFFF
10.837178833333333,0,0x6868,0xEEEE
10.837204249999999,0,0x6007,0xFFFF
10.837229333333333,0,0x6969,0x0000
10.837254541666667,0,0x6006,0xFFFF
10.837279541666666,0,0x6A6A,0x0000
10.837304916666668,0,0x6004,0xFFFF
10.837330083333333,0,0x6B6B,0x0000
10.837355499999999,0,0x2005,0xFFFF
10.837380333333334,0,0xA0A0,0xFFFF
10.837405499999999,0,0x200A,0xFFFF
10.837430250000001,0,0x4F4F,0xFFFF
10.837455583333334,0,0x6004,0xFFFF
10.837480583333333,0,0x6C6C,0x0000
10.837505833333333,0,0x6009,0xFFFF
10.837530791666667,0,0x6D6D,0xA1A1
10.837555999999999,0,0x6008,0xFFFF
10.837581000000000,0,0x6E6E,0x8C8C
10.837606458333333,0,0x6007,0xFFFF
10.837631458333334,0,0x6F6F,0x3030
10.837656666666666,0,0x6006,0xFFFF
10.837681583333334,0,0x7070,0x0000
10.837706875000000,0,0x6004,0xFFFF
10.837731708333333,0,0x7171,0x0000
10.837762500000000,0,0x2005,0xFFFF
10.837788375000001,0,0xA0A0,0xFFFF
10.837813916666667,0,0x200A,0xFFFF
10.837838916666668,0,0x4F4F,0xFFFF
10.837864124999999,0,0x6004,0xFFFF
10.837889375000000,0,0x7272,0x0000
10.837914749999999,0,0x6009,0xFFFF
10.837939708333334,0,0x7373,0x3636
10.837964916666667,0,0x6008,0xFFFF
10.837989833333333,0,0x7474,0x4040
10.838015041666667,0,0x6007,0xFFFF
10.838039958333333,0,0x7575,0x5050
10.838065125000000,0,0x6006,0xFFFF
10.838090375000000,0,0x7676,0x0000
10.838115791666667,0,0x6004,0xFFFF
10.838140791666667,0,0x7777,0x0000
10.838166250000000,0,0x2005,0xFFFF
10.838190958333334,0,0xA0A0,0xFFFF
10.838216166666667,0,0x200A,0xFFFF
10.838240833333334,0,0x4F4F,0xFFFF
10.838265916666666,0,0x6004,0xFFFF
10.838290958333333,0,0x7878,0x0000
10.838316583333333,0,0x6009,0xFFFF
10.838341500000000,0,0x7979,0xCDCD
10.838366750000000,0,0x6008,0xFFFF
10.838391708333333,0,0x7A7A,0xC0C0
10.838417000000000,0,0x6007,0xFFFF
10.838442125000000,0,0x7B7B,0x5050
10.838467416666667,0,0x6006,0xFFFF
10.838492541666668,0,0x7C7C,0x0000
10.838517958333334,0,0x6004,0xFFFF
10.838543000000000,0,0x7D7D,0x0000
10.838568291666666,0,0x2005,0xFFFF
10.838592916666666,0,0xA0A0,0xFFFF
10.838618125000000,0,0x200A,0xFFFF
10.838642958333333,0,0x4F4F,0xFFFF
10.838668166666666,0,0x6004,0xFFFF
10.838692999999999,0,0x7E7E,0x0000
10.838718374999999,0,0x6009,0xFFFF
10.838743750000001,0,0x7F7F,0xA9A9
10.838769416666667,0,0x6008,0xFFFF
10.838794583333334,0,0x8080,0xA0A0
10.838820041666667,0,0x6007,0xFFFF
10.838845041666668,0,0x8181,0x5050
10.838870416666667,0,0x6006,0xFFFF
10.838895375000000,0,0x8282,0x0000
10.838920833333333,0,0x6004,0xFFFF
10.838945875000000,0,0x8383,0x0000
10.838971250000000,0,0x2005,0xFFFF
10.838995958333333,0,0xA0A0,0xFFFF
10.839021041666667,0,0x200A,0xFFFF
10.839045791666667,0,0x4F4F,0xFFFF
10.839071083333334,0,0x6004,0xFFFF
10.839096166666666,0,0x8484,0x0000
10.839121499999999,0,0x6009,0xFFFF
10.839146666666666,0,0x8585,0xA4A4
10.839172000000000,0,0x6008,0xFFFF
10.839196875000001,0,0x8686,0xA0A0
10.839222083333333,0,0x6007,0xFFFF
10.839247000000000,0,0x8787,0x5050
10.839272458333333,0,0x6006,0xFFFF
10.839297291666666,0,0x8888,0x0000
10.839322500000000,0,0x6004,0xFFFF
10.839347374999999,0,0x8989,0x0000
10.839372833333334,0,0x2005,0xFFFF
10.839397416666667,0,0xA0A0,0xFFFF
10.839422375000000,0,0x200A,0xFFFF
10.839447041666666,0,0x4F4F,0xFFFF
10.839472208333333,0,0x6004,0xFFFF
10.839497166666666,0,0x8A8A,0x0000
10.839522416666666,0,0x6009,0xFFFF
10.839547291666667,0,0x8B8B,0x3636
10.839572708333334,0,0x6008,0xFFFF
10.839597708333333,0,0x8C8C,0x4040
10.839623000000000,0,0x6007,0xFFFF
10.839647958333334,0,0x8D8D,0x5050
10.839673250000001,0,0x6006,0xFFFF
10.839698291666666,0,0x8E8E,0x0000
10.839723666666666,0,0x6004,0xFFFF
10.839748500000001,0,0x8F8F,0x0000
10.839773916666667,0,0x2005,0xFFFF
10.839798666666667,0,0xA0A0,0xFFFF
10.839823583333333,0,0x200A,0xFFFF
10.839848333333334,0,0x4F4F,0xFFFF
10.839873291666667,0,0x6004,0xFFFF
10.839898208333333,0,0x9090,0x0000
10.839923416666666,0,0x6009,0xFFFF
10.839948375000001,0,0x9191,0xA4A4
10.839973666666667,0,0x6008,0xFFFF
10.839998500000000,0,0x9292,0xA0A0
10.840023583333334,0,0x6007,0xFFFF
10.840048583333333,0,0x9393,0x5050
10.840073916666666,0,0x6006,0xFFFF
10.840098833333334,0,0x9494,0x0000
10.840124041666666,0,0x6004,0xFFFF
10.840148833333334,0,0x9595,0x0000
10.840174083333334,0,0x2005,0xFFFF
10.840198958333334,0,0xA0A0,0xFFFF
10.840223999999999,0,0x200A,0xFFFF
10.840248833333334,0,0x4F4F,0xFFFF
10.840273833333333,0,0x6004,0xFFFF
10.840298666666667,0,0x9696,0x0000
10.840323916666666,0,0x6009,0xFFFF
10.840349249999999,0,0x9797,0xA9A9
10.840374750000001,0,0x6008,0xFFFF
10.840399833333333,0,0x9898,0xA0A0
10.840425249999999,0,0x6007,0xFFFF
10.840450250000000,0,0x9999,0x5050
10.840475583333333,0,0x6006,0xFFFF
10.840500499999999,0,0x9A9A,0x0000
10.840525791666666,0,0x6004,0xFFFF
10.840550708333334,0,0x9B9B,0x0000
10.840575958333334,0,0x2005,0xFFFF
10.840600708333334,0,0xA0A0,0xFFFF
10.840625541666666,0,0x200A,0xFFFF
10.840650458333334,0,0x4F4F,0xFFFF
10.840675583333333,0,0x6004,0xFFFF
10.840700750000000,0,0x9C9C,0x0000
10.840726166666666,0,0x6009,0xFFFF
10.840751291666667,0,0x9D9D,0x0202
10.840776666666667,0,0x6008,0xFFFF
10.840801666666666,0,0x9E9E,0xCECE
10.840826958333333,0,0x6007,0xFFFF
10.840852000000000,0,0x9F9F,0x5050
10.840877333333333,0,0x6006,0xFFFF
10.840902249999999,0,0xA0A0,0x0000
10.840927458333333,0,0x6004,0xFFFF
10.840952541666667,0,0xA1A1,0x0000
10.840977958333333,0,0x2005,0xFFFF
10.841002833333333,0,0xA0A0,0xFFFF
10.841027916666667,0,0x200A,0xFFFF
10.841052708333333,0,0x4F4F,0xFFFF
10.841077666666667,0,0x6004,0xFFFF
10.841102708333333,0,0xA2A2,0x0000
10.841127833333333,0,0x6009,0xFFFF
10.841152875000001,0,0xA3A3,0x0404
10.841178083333334,0,0x6008,0xFFFF
10.841203208333333,0,0xA4A4,0xCCCC
10.841228666666666,0,0x6007,0xFFFF
10.841253750000000,0,0xA5A5,0x2020
10.841279000000000,0,0x6006,0xFFFF
10.841303916666666,0,0xA6A6,0x0000
10.841329041666667,0,0x6004,0xFFFF
10.841354083333334,0,0xA7A7,0x0000
10.841379333333334,0,0x2005,0xFFFF
10.841404041666667,0,0xA0A0,0xFFFF
10.841429000000000,0,0x200A,0xFFFF
10.841453708333333,0,0x4F4F,0xFFFF
10.841478875000000,0,0x6004,0xFFFF
10.841503958333334,0,0xA8A8,0x0000
10.841529375000000,0,0x6009,0xFFFF
10.841554541666667,0,0xA9A9,0x1919
10.841579708333333,0,0x6008,0xFFFF
10.841604708333334,0,0xAAAA,0xEEEE
10.841630041666667,0,0x6007,0xFFFF
10.841654916666666,0,0xABAB,0x5050
10.841680208333333,0,0x6006,0xFFFF
10.841705208333334,0,0xACAC,0x0000
10.841730541666667,0,0x6004,0xFFFF
10.841760499999999,0,0xADAD,0x0000
10.841786958333334,0,0x2005,0xFFFF
10.841812041666667,0,0xA0A0,0xFFFF
10.841837458333334,0,0x200A,0xFFFF
10.841862291666667,0,0x4F4F,0xFFFF
10.841887500000000,0,0x6004,0xFFFF
10.841912541666666,0,0xAEAE,0x0000
10.841938000000001,0,0x6009,0xFFFF
10.841963333333334,0,0xAFAF,0xA8A8
10.841989000000000,0,0x6008,0xFFFF
10.842013916666666,0,0xB0B0,0x6C6C
10.842039249999999,0,0x6007,0xFFFF
10.842064291666667,0,0xB1B1,0x3030
10.842089583333333,0,0x6006,0xFFFF
10.842114583333334,0,0xB2B2,0x0000
10.842139958333334,0,0x6004,0xFFFF
10.842165000000000,0,0xB3B3,0x0000
10.842190208333333,0,0x2005,0xFFFF
10.842214999999999,0,0xA0A0,0xFFFF
10.842240166666667,0,0x200A,0xFFFF
10.842264958333333,0,0x4F4F,0xFFFF
10.842290333333333,0,0x6004,0xFFFF
10.842315333333334,0,0xB4B4,0x0000
10.842340500000001,0,0x6009,0xFFFF
10.842365541666666,0,0xB5B5,0x1B1B
10.842390708333333,0,0x6008,0xFFFF
10.842415541666666,0,0xB6B6,0x8686
10.842440874999999,0,0x6007,0xFFFF
10.842465833333334,0,0xB7B7,0x5050
10.842491166666667,0,0x6006,0xFFFF
10.842516416666667,0,0xB8B8,0x0000
10.842542708333333,0,0x6004,0xFFFF
10.842568208333333,0,0xB9B9,0x0000
10.842593500000000,0,0x2005,0xFFFF
10.842618375000001,0,0xA0A0,0xFFFF
10.842643583333333,0,0x200A,0xFFFF
10.842668500000000,0,0x4F4F,0xFFFF
10.842693625000001,0,0x6004,0xFFFF
10.842718583333333,0,0xBABA,0x0000
10.842743791666667,0,0x6009,0xFFFF
10.842768666666666,0,0xBBBB,0x4040
10.842793833333333,0,0x6008,0xFFFF
10.842818708333333,0,0xBCBC,0x6868
10.842843791666667,0,0x6007,0xFFFF
10.842868875000001,0,0xBDBD,0x2020
10.842894083333332,0,0x6006,0xFFFF
10.842919250000000,0,0xBEBE,0x0000
10.842944541666666,0,0x6004,0xFFFF
10.842969541666667,0,0xBFBF,0x0000
10.842994916666667,0,0x2005,0xFFFF
10.843019541666667,0,0xA0A0,0xFFFF
10.843044791666667,0,0x200A,0xFFFF
10.843069583333333,0,0x4F4F,0xFFFF
10.843094499999999,0,0x6004,0xFFFF
10.843119416666667,0,0xC0C0,0x0000
10.843144666666667,0,0x6009,0xFFFF
10.843169625000000,0,0xC1C1,0x2222
10.843194958333333,0,0x6008,0xFFFF
10.843219916666667,0,0xC2C2,0xCECE
10.843245208333334,0,0x6007,0xFFFF
10.843270041666667,0,0xC3C3,0x1010
10.843295166666667,0,0x6006,0xFFFF
10.843320250000000,0,0xC4C4,0x0000
10.843345833333334,0,0x6004,0xFFFF
10.843370875000000,0,0xC5C5,0x0000
10.843396083333333,0,0x2005,0xFFFF
10.843420750000000,0,0xA0A0,0xFFFF
10.843446041666667,0,0x200A,0xFFFF
10.843470958333333,0,0x4F4F,0xFFFF
10.843496208333333,0,0x6004,0xFFFF
10.843521291666667,0,0xC6C6,0x0000
10.843546750000000,0,0x6009,0xFFFF
10.843572458333334,0,0xC7C7,0xA2A2
10.843597791666667,0,0x6008,0xFFFF
10.843622999999999,0,0xC8C8,0x2C2C
10.843648208333333,0,0x6007,0xFFFF
10.843673375000000,0,0xC9C9,0x3030
10.843698541666667,0,0x6006,0xFFFF
10.843723541666666,0,0xCACA,0x0000
10.843748791666666,0,0x6004,0xFFFF
10.843773833333334,0,0xCBCB,0x0000
10.843799208333333,0,0x2005,0xFFFF
10.843823916666667,0,0xA0A0,0xFFFF
10.843849083333334,0,0x200A,0xFFFF
10.843873833333333,0,0x4F4F,0xFFFF
10.843898875000001,0,0x6004,0xFFFF
10.843923958333333,0,0xCCCC,0x0000
10.843949166666667,0,0x6009,0xFFFF
10.843974041666666,0,0xCDCD,0x3838
10.843999250000000,0,0x6008,0xFFFF
10.844024250000000,0,0xCECE,0x4040
10.844049416666667,0,0x6007,0xFFFF
10.844074458333333,0,0xCFCF,0x0000
10.844099750000000,0,0x6006,0xFFFF
10.844124833333334,0,0xD0D0,0x0000
10.844150291666667,0,0x6004,0xFFFF
10.844175375000001,0,0xD1D1,0x0000
10.844200541666666,0,0x2005,0xFFFF
10.844225416666667,0,0xA0A0,0xFFFF
10.844250416666666,0,0x200A,0xFFFF
10.844275250000001,0,0x4F4F,0xFFFF
10.844300458333333,0,0x6004,0xFFFF
10.844325666666666,0,0xD2D2,0x0000
10.844350958333333,0,0x6009,0xFFFF
10.844376375000000,0,0xD3D3,0x3838
10.844401749999999,0,0x6008,0xFFFF
10.844426916666666,0,0xD4D4,0x4646
10.844452125000000,0,0x6007,0xFFFF
10.844477083333333,0,0xD5D5,0x5050
10.844502333333333,0,0x6006,0xFFFF
10.844527375000000,0,0xD6D6,0x0000
10.844552708333334,0,0x6004,0xFFFF
10.844577875000001,0,0xD7D7,0x0000
10.844603083333332,0,0x2005,0xFFFF
10.844627833333334,0,0xA0A0,0xFFFF
10.844652958333333,0,0x200A,0xFFFF
10.844678583333334,0,0x4F4F,0xFFFF
10.844704000000000,0,0x6004,0xFFFF
10.844729166666667,0,0xD8D8,0x0000
10.844754500000001,0,0x6009,0xFFFF
10.844779500000000,0,0xD9D9,0x1B1B
10.844804833333333,0,0x6008,0xFFFF
10.844829916666667,0,0xDADA,0x8686
10.844855166666667,0,0x6007,0xFFFF
10.844880083333333,0,0xDBDB,0x2020
10.844905166666667,0,0x6006,0xFFFF
10.844930000000000,0,0xDCDC,0x0000
10.844955291666666,0,0x6004,0xFFFF
10.844980250000001,0,0xDDDD,0x0000
10.845005583333334,0,0x2005,0xFFFF
10.845030291666667,0,0xA0A0,0xFFFF
10.845055374999999,0,0x200A,0xFFFF
10.845080083333333,0,0x4F4F,0xFFFF
10.845105250000000,0,0x6004,0xFFFF
10.845130083333334,0,0xDEDE,0x0000
10.845156125000001,0,0x6009,0xFFFF
10.845181541666667,0,0xDFDF,0x2222
10.845207083333333,0,0x6008,0xFFFF
10.845232083333334,0,0xE0E0,0xEEEE
10.845257333333333,0,0x6007,0xFFFF
10.845282333333333,0,0xE1E1,0x2020
10.845307583333334,0,0x6006,0xFFFF
10.845332708333334,0,0xE2E2,0x0000
10.845359083333333,0,0x6004,0xFFFF
10.845384708333333,0,0xE3E3,0x0000
10.845410416666667,0,0x2005,0xFFFF
10.845435583333334,0,0xA0A0,0xFFFF
10.845460791666667,0,0x200A,0xFFFF
10.845485541666667,0,0x4F4F,0xFFFF
10.845510666666666,0,0x6004,0xFFFF
10.845535666666667,0,0xE4E4,0x0000
10.845560875000000,0,0x6009,0xFFFF
10.845585958333332,0,0xE5E5,0xA3A3
10.845611208333333,0,0x6008,0xFFFF
10.845636208333334,0,0xE6E6,0x2C2C
10.845661458333334,0,0x6007,0xFFFF
10.845686458333333,0,0xE7E7,0x3030
10.845711750000000,0,0x6006,0xFFFF
10.845736708333334,0,0xE8E8,0x0000
10.845768500000000,0,0x6004,0xFFFF
10.845795083333334,0,0xE9E9,0x0000
10.845820958333332,0,0x2005,0xFFFF
10.845846041666666,0,0xA0A0,0xFFFF
10.845871416666666,0,0x200A,0xFFFF
10.845896291666667,0,0x4F4F,0xFFFF
10.845921458333333,0,0x6004,0xFFFF
10.845946458333334,0,0xEAEA,0x0000
10.845971875000000,0,0x6009,0xFFFF
10.845997000000001,0,0xEBEB,0x2323
10.846022250000001,0,0x6008,0xFFFF
10.846047166666667,0,0xECEC,0x4E4E
10.846072541666667,0,0x6007,0xFFFF
10.846097833333333,0,0xEDED,0x0000
10.846123333333333,0,0x6006,0xFFFF
10.846148375000000,0,0xEEEE,0x0000
10.846173750000000,0,0x6004,0xFFFF
10.846198833333334,0,0xEFEF,0x0000
10.846224250000001,0,0x2005,0xFFFF
10.846249166666666,0,0xA0A0,0xFFFF
10.846274375000000,0,0x200A,0xFFFF
10.846299458333334,0,0x4F4F,0xFFFF
10.846324500000000,0,0x6004,0xFFFF
10.846349541666667,0,0xF0F0,0x0000
10.846374750000001,0,0x6009,0xFFFF
10.846399791666666,0,0xF1F1,0xA3A3
10.846425000000000,0,0x6008,0xFFFF
10.846450000000001,0,0xF2F2,0x2C2C
10.846475291666666,0,0x6007,0xFFFF
10.846500458333333,0,0xF3F3,0x3030
10.846525791666666,0,0x6006,0xFFFF
10.846550833333334,0,0xF4F4,0x0000
10.846576041666667,0,0x6004,0xFFFF
10.846600916666667,0,0xF5F5,0x0000
10.846626416666666,0,0x2005,0xFFFF
10.846651124999999,0,0xA0A0,0xFFFF
10.846676416666666,0,0x200A,0xFFFF
10.846701416666667,0,0x4F4F,0xFFFF
10.846726583333334,0,0x6004,0xFFFF
10.846751625000000,0,0xF6F6,0x0000
10.846777625000000,0,0x6009,0xFFFF
10.846802833333333,0,0xF7F7,0x3838
10.846828208333333,0,0x6008,0xFFFF
10.846853083333333,0,0xF8F8,0x4040
10.846878541666667,0,0x6007,0xFFFF
10.846903416666667,0,0xF9F9,0x5050
10.846928833333333,0,0x6006,0xFFFF
10.846953791666667,0,0xFAFA,0x0000
10.846979083333334,0,0x6004,0xFFFF
10.847004125000000,0,0xFBFB,0x0000
10.847029624999999,0,0x2005,0xFFFF
10.847054416666667,0,0xA0A0,0xFFFF
10.847079666666666,0,0x200A,0xFFFF
10.847104416666667,0,0x4F4F,0xFFFF
10.847129625000001,0,0x6004,0xFFFF
10.847154666666667,0,0xFCFC,0x0000
10.847180083333333,0,0x6009,0xFFFF
10.847204958333334,0,0xFDFD,0x3636
10.847230250000001,0,0x6008,0xFFFF
10.847255083333334,0,0xFEFE,0x4040
10.847280500000000,0,0x6007,0xFFFF
10.847305374999999,0,0xFFFF,0x5050
10.847330749999999,0,0x6006,0xFFFF
10.847355833333333,0,0x0000,0x0000
10.847381083333334,0,0x6004,0xFFFF
10.847406083333333,0,0x0101,0x0000
10.847431374999999,0,0x2005,0xFFFF
10.847456083333334,0,0xA0A0,0x