Time [s],Packet ID,MOSI,MISO
1.035667041666667,0,0x6004,0xFFFF
1.035691666666667,0,0x0000,0x0000
1.035710125000000,0,0x2005,0xFFFF
1.035734750000000,0,0x2020,0xFFFF
1.035748750000000,0,0x2006,0xFFFF
1.035769083333333,0,0xC0C0,0xFFFF
1.035782500000000,0,0x2007,0xFFFF
1.035802500000000,0,0xB3B3,0xFFFF
1.035816666666667,0,0x2008,0xFFFF
1.035836541666667,0,0xA2A2,0xFFFF
1.035849500000000,0,0x2009,0xFFFF
1.035869416666667,0,0x9191,0xFFFF
1.035883208333333,0,0x200A,0xFFFF
1.035903041666667,0,0xC1C1,0xFFFF
1.035916166666667,0,0x6004,0xFFFF
1.035935958333333,0,0x0000,0x0000
1.035987583333333,0,0x6004,0xFFFF
1.036008458333333,0,0x0000,0x0000
1.036021791666667,0,0x2005,0xFFFF
1.036042416666667,0,0x2020,0xFFFF
1.036056875000000,0,0x200A,0xFFFF
1.036076541666667,0,0xC1C1,0xFFFF
1.036089583333333,0,0x6004,0xFFFF
1.036109291666667,0,0x0000,0x0000
1.036123583333333,0,0x6006,0xFFFF
1.036143250000000,0,0x0000,0xC0C0
1.036156416666667,0,0x6007,0xFFFF
1.036176125000000,0,0x0000,0xB3B3
1.036190125000000,0,0x6008,0xFFFF
1.036209708333333,0,0x0000,0xA2A2
1.036222875000000,0,0x6009,0xFFFF
1.036242458333333,0,0x0000,0x9191
3.072494208333334,0,0x6000,0xFFFF
3.072524666666667,0,0x0000,0xCBCB
3.072620000000000,0,0x7000,0xFFFF
3.072647958333333,0,0x0000,0xCBCB
3.072776208333333,0,0x6000,0xFFFF
3.072796791666667,0,0x0000,0xCBCB
3.072854291666667,0,0x602F,0xFFFF
3.072877791666667,0,0x0000,0x1010
3.072925000000000,0,0x200D,0xFFFF
3.072944375000000,0,0x1313,0xFFFF
3.083078500000000,0,0x600D,0xFFFF
3.083097833333333,0,0x0000,0x1313
3.083143000000000,0,0x7000,0xFFFF
3.083164541666667,0,0x0000,0xCBCB
3.083202708333333,0,0x702F,0xFFFF
3.083221833333333,0,0x0000,0x1010
3.083259333333333,0,0x300D,0xFFFF
3.083281291666667,0,0x1313,0xFFFF
3.093411416666667,0,0x700D,0xFFFF
3.093433125000000,0,0x0000,0x1313
3.093538000000000,0,0x2003,0xFFFF
3.093558625000000,0,0xFFFF,0xFFFF
3.093592166666667,0,0x6003,0xFFFF
3.093616583333333,0,0x0000,0x1F1F
3.093656666666666,0,0x200D,0xFFFF
3.093676166666667,0,0x1313,0xFFFF
3.103818416666666,0,0x600D,0xFFFF
3.103841166666667,0,0x0000,0x1313
3.103895208333333,0,0x6004,0xFFFF
3.103918958333333,0,0x0000,0x0000
3.103935000000000,0,0x2005,0xFFFF
3.103955583333333,0,0x2020,0xFFFF
3.103969875000000,0,0x2006,0xFFFF
3.103990541666667,0,0xC0C0,0xFFFF
3.104004791666667,0,0x2007,0xFFFF
3.104024916666666,0,0xB3B3,0xFFFF
3.104039208333333,0,0x2008,0xFFFF
3.104059875000000,0,0xA2A2,0xFFFF
3.104074000000000,0,0x2009,0xFFFF
3.104093916666667,0,0x9191,0xFFFF
3.104107625000000,0,0x200A,0xFFFF
3.104128250000000,0,0xC1C1,0xFFFF
3.104142250000000,0,0x6004,0xFFFF
3.104162000000000,0,0x0000,0x0000
3.104198041666667,0,0x6004,0xFFFF
3.104218916666666,0,0x0000,0x0000
3.104233458333333,0,0x2005,0xFFFF
3.104253666666667,0,0x2020,0xFFFF
3.104267791666667,0,0x200A,0xFFFF
3.104289000000000,0,0xC1C1,0xFFFF
3.104303083333333,0,0x6004,0xFFFF
3.104322833333333,0,0x0000,0x0000
3.104337125000000,0,0x6006,0xFFFF
3.104357541666667,0,0x0000,0xC0C0
3.104371833333333,0,0x6007,0xFFFF
3.104391708333333,0,0x0000,0xB3B3
3.104405666666667,0,0x6008,0xFFFF
3.104426041666667,0,0x0000,0xA2A2
3.104440333333333,0,0x6009,0xFFFF
3.104459875000000,0,0x0000,0x9191
3.104504583333333,0,0x3003,0xFFFF
3.104525833333333,0,0xFFFF,0xFFFF
3.104563666666666,0,0x7003,0xFFFF
3.104583875000000,0,0x0000,0x1F1F
3.104620333333334,0,0x300D,0xFFFF
3.104642000000000,0,0x1313,0xFFFF
3.114780500000000,0,0x700D,0xFFFF
3.114801791666667,0,0x0000,0x1313
3.114846333333333,0,0x7004,0xFFFF
3.114867291666667,0,0x0000,0x0000
3.114883458333333,0,0x3005,0xFFFF
3.114904750000000,0,0x2020,0xFFFF
3.114918375000000,0,0x3006,0xFFFF
3.114938500000000,0,0xC0C0,0xFFFF
3.114952250000000,0,0x3007,0xFFFF
3.114972166666667,0,0xB3B3,0xFFFF
3.114985291666667,0,0x3008,0xFFFF
3.115005125000000,0,0xA2A2,0xFFFF
3.115018708333333,0,0x3009,0xFFFF
3.115038500000000,0,0x9191,0xFFFF
3.115051541666667,0,0x300A,0xFFFF
3.115071416666667,0,0xC1C1,0xFFFF
3.115085166666667,0,0x7004,0xFFFF
3.115105041666667,0,0x0000,0x0000
3.115162416666667,0,0x7004,0xFFFF
3.115189083333334,0,0x0000,0x0000
3.115204708333333,0,0x3005,0xFFFF
3.115225000000000,0,0x2020,0xFFFF
3.115238000000000,0,0x300A,0xFFFF
3.115257958333333,0,0xC1C1,0xFFFF
3.115271208333333,0,0x7004,0xFFFF
3.115290500000000,0,0x0000,0x0000
3.115303416666667,0,0x7006,0xFFFF
3.115323000000000,0,0x0000,0xC0C0
3.115336041666667,0,0x7007,0xFFFF
3.115355250000000,0,0x0000,0xB3B3
3.115368125000000,0,0x7008,0xFFFF
3.115387583333333,0,0x0000,0xA2A2
3.115400500000000,0,0x7009,0xFFFF
3.115419875000000,0,0x0000,0x9191
3.115579375000000,0,0x607E,0xFFFF
3.115599750000000,0,0x0000,0x0202
3.115641250000000,0,0x207E,0xFFFF
3.115663500000000,0,0x0202,0xFFFF
3.115703625000000,0,0x207E,0xFFFF
3.115724083333333,0,0x0808,0xFFFF
3.115756916666667,0,0x207E,0xFFFF
3.115777791666666,0,0x0E0E,0xFFFF
3.115809875000000,0,0x207E,0xFFFF
3.115830375000000,0,0x0000,0xFFFF
3.115866416666667,0,0x2051,0xFFFF
3.115887416666667,0,0x0000,0xFFFF
3.115968333333333,0,0x2052,0xFFFF
3.115988958333333,0,0x0000,0xFFFF
3.116023041666667,0,0x2053,0xFFFF
3.116043958333333,0,0x0000,0xFFFF
3.116076791666667,0,0x2054,0xFFFF
3.116096916666667,0,0x0000,0xFFFF
3.116133333333333,0,0x2055,0xFFFF
3.116154375000000,0,0x0000,0xFFFF
3.116186375000000,0,0x2056,0xFFFF
3.116211708333333,0,0x0000,0xFFFF
3.116243833333333,0,0x2057,0xFFFF
3.116264291666667,0,0x0000,0xFFFF
3.116297833333333,0,0x2058,0xFFFF
3.116318666666666,0,0x0000,0xFFFF
3.116353916666667,0,0x2059,0xFFFF
3.116374208333333,0,0x0000,0xFFFF
3.116406416666667,0,0x205A,0xFFFF
3.116427125000000,0,0x0000,0xFFFF
3.116457666666667,0,0x205B,0xFFFF
3.116477833333333,0,0x0000,0xFFFF
3.116509416666667,0,0x205C,0xFFFF
3.116530083333333,0,0x0000,0xFFFF
3.116561125000000,0,0x205D,0xFFFF
3.116581208333333,0,0x0000,0xFFFF
3.116613125000000,0,0x205E,0xFFFF
3.116633708333334,0,0x0000,0xFFFF
3.116664708333333,0,0x205F,0xFFFF
3.116684916666667,0,0x0000,0xFFFF
3.116716500000000,0,0x2060,0xFFFF
3.116736916666667,0,0x0000,0xFFFF
3.116767083333333,0,0x2061,0xFFFF
3.116787250000000,0,0x0000,0xFFFF
3.116835291666667,0,0x6004,0xFFFF
3.116855708333333,0,0x0000,0x0000
3.116869291666667,0,0x2005,0xFFFF
3.116889541666667,0,0xC0C0,0xFFFF
3.116903750000000,0,0x2006,0xFFFF
3.116923791666667,0,0x0000,0xFFFF
3.116936916666667,0,0x2007,0xFFFF
3.116956791666667,0,0x0000,0xFFFF
3.116970666666667,0,0x2008,0xFFFF
3.116990458333333,0,0x0000,0xFFFF
3.117003291666667,0,0x2009,0xFFFF
3.117023208333333,0,0x0000,0xFFFF
3.117037375000000,0,0x200A,0xFFFF
3.117057333333333,0,0x3D3D,0xFFFF
3.117070500000000,0,0x6004,0xFFFF
3.117090333333334,0,0x0000,0x0000
3.117124541666667,0,0x6004,0xFFFF
3.117144416666667,0,0x0000,0x0000
3.117157666666666,0,0x2005,0xFFFF
3.117177833333333,0,0xC0C0,0xFFFF
3.117191958333333,0,0x2006,0xFFFF
3.117211708333333,0,0x0000,0xFFFF
3.117224666666667,0,0x2007,0xFFFF
3.117244541666667,0,0x0000,0xFFFF
3.117258250000000,0,0x2008,0xFFFF
3.117278041666667,0,0x0000,0xFFFF
3.117290833333333,0,0x2009,0xFFFF
3.117310583333333,0,0x0000,0xFFFF
3.117324250000000,0,0x200A,0xFFFF
3.117344083333333,0,0x3E3E,0xFFFF
3.117357041666667,0,0x6004,0xFFFF
3.117376625000000,0,0x0000,0x0000
3.117410416666667,0,0x6004,0xFFFF
3.117430333333334,0,0x0000,0x0000
3.117443750000000,0,0x2005,0xFFFF
3.117463916666666,0,0xC0C0,0xFFFF
3.117478041666667,0,0x2006,0xFFFF
3.117497750000000,0,0x0000,0xFFFF
3.117510625000000,0,0x2007,0xFFFF
3.117530416666667,0,0x0000,0xFFFF
3.117544125000000,0,0x2008,0xFFFF
3.117563875000000,0,0x0000,0xFFFF
3.117576666666667,0,0x2009,0xFFFF
3.117596500000000,0,0x0000,0xFFFF
3.117610208333333,0,0x200A,0xFFFF
3.117629958333333,0,0x3F3F,0xFFFF
3.117642791666666,0,0x6004,0xFFFF
3.117662458333333,0,0x0000,0x0000
3.117695625000000,0,0x6004,0xFFFF
3.117715458333334,0,0x0000,0x0000
3.117728666666667,0,0x2005,0xFFFF
3.117748833333333,0,0xC0C0,0xFFFF
3.117762875000000,0,0x2006,0xFFFF
3.117782708333333,0,0x0000,0xFFFF
3.117795666666667,0,0x2007,0xFFFF
3.117815666666667,0,0x0000,0xFFFF
3.117829250000000,0,0x2008,0xFFFF
3.117848916666667,0,0x0000,0xFFFF
3.117861791666667,0,0x2009,0xFFFF
3.117881750000000,0,0x0000,0xFFFF
3.117895375000000,0,0x200A,0xFFFF
3.117914958333333,0,0x4040,0xFFFF
3.117927916666666,0,0x6004,0xFFFF
3.117947416666667,0,0x0000,0x0000
3.117982166666667,0,0x6004,0xFFFF
3.118002166666667,0,0x0000,0x0000
3.118015458333333,0,0x2005,0xFFFF
3.118036041666667,0,0xC0C0,0xFFFF
3.118050083333333,0,0x2006,0xFFFF
3.118069750000000,0,0x0000,0xFFFF
3.118082666666667,0,0x2007,0xFFFF
3.118102416666667,0,0x0000,0xFFFF
3.118116208333333,0,0x2008,0xFFFF
3.118136000000000,0,0x0000,0xFFFF
3.118148916666667,0,0x2009,0xFFFF
3.118168750000000,0,0x0000,0xFFFF
3.118182500000000,0,0x200A,0xFFFF
3.118202083333333,0,0x4141,0xFFFF
3.118214958333333,0,0x6004,0xFFFF
3.118234708333333,0,0x0000,0x0000
3.118266375000000,0,0x6004,0xFFFF
3.118286291666667,0,0x0000,0x0000
3.118299583333333,0,0x2005,0xFFFF
3.118319875000000,0,0xC0C0,0xFFFF
3.118333833333333,0,0x2006,0xFFFF
3.118353666666667,0,0x0000,0xFFFF
3.118366541666667,0,0x2007,0xFFFF
3.118386375000000,0,0x0000,0xFFFF
3.118400000000000,0,0x2008,0xFFFF
3.118419666666667,0,0x0000,0xFFFF
3.118433625000000,0,0x2009,0xFFFF
3.118453875000000,0,0x0000,0xFFFF
3.118467125000000,0,0x200A,0xFFFF
3.118489208333334,0,0x4242,0xFFFF
3.118504125000000,0,0x6004,0xFFFF
3.118524250000000,0,0x0000,0x0000
3.118556791666667,0,0x6004,0xFFFF
3.118577041666667,0,0x0000,0x0000
3.118590666666667,0,0x2005,0xFFFF
3.118611250000000,0,0xC0C0,0xFFFF
3.118625250000000,0,0x2006,0xFFFF
3.118645166666667,0,0x0000,0xFFFF
3.118658416666667,0,0x2007,0xFFFF
3.118678291666667,0,0x0000,0xFFFF
3.118691875000000,0,0x2008,0xFFFF
3.118711666666667,0,0x0000,0xFFFF
3.118724708333333,0,0x2009,0xFFFF
3.118744500000000,0,0x0000,0xFFFF
3.118758083333333,0,0x200A,0xFFFF
3.118777708333333,0,0x4343,0xFFFF
3.118790791666667,0,0x6004,0xFFFF
3.118810416666667,0,0x0000,0x0000
3.118841666666667,0,0x6004,0xFFFF
3.118861500000000,0,0x0000,0x0000
3.118874875000000,0,0x2005,0xFFFF
3.118894958333333,0,0xC0C0,0xFFFF
3.118908833333333,0,0x2006,0xFFFF
3.118928541666667,0,0x0000,0xFFFF
3.118941583333333,0,0x2007,0xFFFF
3.118961375000000,0,0x0000,0xFFFF
3.118975000000000,0,0x2008,0xFFFF
3.118994666666667,0,0x0000,0xFFFF
3.119007625000000,0,0x2009,0xFFFF
3.119027458333334,0,0x0000,0xFFFF
3.119041000000000,0,0x200A,0xFFFF
3.119060625000000,0,0x4444,0xFFFF
3.119073708333334,0,0x6004,0xFFFF
3.119093416666667,0,0x0000,0x0000
3.119195833333333,0,0x6004,0xFFFF
3.119219500000000,0,0x0000,0x0000
3.119237958333333,0,0x2005,0xFFFF
3.119258541666666,0,0xA0A0,0xFFFF
3.119272708333333,0,0x2006,0xFFFF
3.119293750000000,0,0x0000,0xFFFF
3.119308208333333,0,0x2007,0xFFFF
3.119328083333333,0,0x0000,0xFFFF
3.119341958333333,0,0x2008,0xFFFF
3.119362791666667,0,0x0000,0xFFFF
3.119377208333333,0,0x2009,0xFFFF
3.119399625000000,0,0x0000,0xFFFF
3.119414333333333,0,0x200A,0xFFFF
3.119435041666667,0,0x4E4E,0xFFFF
3.119449291666667,0,0x6004,0xFFFF
3.119468750000000,0,0x0000,0x0000
3.119513833333333,0,0x6004,0xFFFF
3.119534208333334,0,0x0000,0x0000
3.119548625000000,0,0x2005,0xFFFF
3.119569000000000,0,0xA0A0,0xFFFF
3.119581916666667,0,0x2006,0xFFFF
3.119602541666667,0,0x0000,0xFFFF
3.119657750000000,0,0x2007,0xFFFF
3.119677583333333,0,0x5050,0xFFFF
3.119690375000000,0,0x2008,0xFFFF
3.119711291666666,0,0x8E8E,0xFFFF
3.119725250000000,0,0x2009,0xFFFF
3.119744750000000,0,0x2222,0xFFFF
3.119757208333333,0,0x200A,0xFFFF
3.119777708333333,0,0x4F4F,0xFFFF
3.119791541666667,0,0x6004,0xFFFF
3.119810833333333,0,0x0000,0x0000
3.119843458333333,0,0x6004,0xFFFF
3.119864000000000,0,0x0000,0x0000
3.119877916666667,0,0x2005,0xFFFF
3.119897958333333,0,0xA0A0,0xFFFF
3.119910791666667,0,0x2006,0xFFFF
3.119931208333333,0,0x0000,0xFFFF
3.119944875000000,0,0x2007,0xFFFF
3.119964583333333,0,0x3030,0xFFFF
3.119977250000000,0,0x2008,0xFFFF
3.119997791666667,0,0x0C0C,0xFFFF
3.120011541666666,0,0x2009,0xFFFF
3.120031166666667,0,0x8484,0xFFFF
3.120043791666667,0,0x200A,0xFFFF
3.120064416666667,0,0x4F4F,0xFFFF
3.120078166666667,0,0x6004,0xFFFF
3.120097541666667,0,0x0000,0x0000
3.120127625000000,0,0x6004,0xFFFF
3.120147958333333,0,0x0000,0x0000
3.120161750000000,0,0x2005,0xFFFF
3.120181791666667,0,0xA0A0,0xFFFF
3.120194666666666,0,0x2006,0xFFFF
3.120215250000000,0,0x0000,0xFFFF
3.120228833333333,0,0x2007,0xFFFF
3.120248416666667,0,0x5050,0xFFFF
3.120261125000000,0,0x2008,0xFFFF
3.120281625000000,0,0x8E8E,0xFFFF
3.120295291666667,0,0x2009,0xFFFF
3.120314916666667,0,0x2222,0xFFFF
3.120327583333333,0,0x200A,0xFFFF
3.120348125000000,0,0x4F4F,0xFFFF
3.120361750000000,0,0x6004,0xFFFF
3.120381083333333,0,0x0000,0x0000
3.120410958333333,0,0x6004,0xFFFF
3.120431250000000,0,0x0000,0x0000
3.120445125000000,0,0x2005,0xFFFF
3.120465250000000,0,0xA0A0,0xFFFF
3.120478083333333,0,0x2006,0xFFFF
3.120498583333333,0,0x0000,0xFFFF
3.120512208333333,0,0x2007,0xFFFF
3.120531791666667,0,0x3030,0xFFFF
3.120544458333333,0,0x2008,0xFFFF
3.120565000000000,0,0xACAC,0xFFFF
3.120578583333333,0,0x2009,0xFFFF
3.120598208333333,0,0x8484,0xFFFF
3.120610833333333,0,0x200A,0xFFFF
3.120631291666667,0,0x4F4F,0xFFFF
3.120644833333333,0,0x6004,0xFFFF
3.120664208333333,0,0x0000,0x0000
3.120694291666667,0,0x6004,0xFFFF
3.120714708333333,0,0x0000,0x0000
3.120728666666666,0,0x2005,0xFFFF
3.120748708333333,0,0xA0A0,0xFFFF
3.120761625000000,0,0x2006,0xFFFF
3.120782208333333,0,0x0000,0xFFFF
3.120795916666667,0,0x2007,0xFFFF
3.120815500000000,0,0x5050,0xFFFF
3.120828125000000,0,0x2008,0xFFFF
3.120848500000000,0,0x8E8E,0xFFFF
3.120862166666666,0,0x2009,0xFFFF
3.120881625000000,0,0x2222,0xFFFF
3.120894208333334,0,0x200A,0xFFFF
3.120914666666667,0,0x4F4F,0xFFFF
3.120928333333334,0,0x6004,0xFFFF
3.120947583333333,0,0x0000,0x0000
3.120977458333333,0,0x6004,0xFFFF
3.120997750000000,0,0x0000,0x0000
3.121011541666667,0,0x2005,0xFFFF
3.121031500000000,0,0xA0A0,0xFFFF
3.121044333333333,0,0x2006,0xFFFF
3.121064708333333,0,0x0000,0xFFFF
3.121078458333333,0,0x2007,0xFFFF
3.121098208333333,0,0x3030,0xFFFF
3.121110833333333,0,0x2008,0xFFFF
3.121131250000000,0,0x2C2C,0xFFFF
3.121144958333333,0,0x2009,0xFFFF
3.121164583333333,0,0x8787,0xFFFF
3.121177208333333,0,0x200A,0xFFFF
3.121197666666667,0,0x4F4F,0xFFFF
3.121211291666667,0,0x6004,0xFFFF
3.121230458333333,0,0x0000,0x0000
3.121260041666666,0,0x6004,0xFFFF
3.121280333333333,0,0x0000,0x0000
3.121294250000000,0,0x2005,0xFFFF
3.121314208333333,0,0xA0A0,0xFFFF
3.121327000000000,0,0x2006,0xFFFF
3.121347625000000,0,0x0000,0xFFFF
3.121361208333334,0,0x2007,0xFFFF
3.121380791666667,0,0x5050,0xFFFF
3.121393375000000,0,0x2008,0xFFFF
3.121414000000000,0,0x8E8E,0xFFFF
3.121427416666667,0,0x2009,0xFFFF
3.121447041666667,0,0x2222,0xFFFF
3.121459666666667,0,0x200A,0xFFFF
3.121480250000000,0,0x4F4F,0xFFFF
3.121493833333334,0,0x6004,0xFFFF
3.121513291666667,0,0x0000,0x0000
3.121546458333333,0,0x6004,0xFFFF
3.121566666666667,0,0x0000,0x0000
3.121580583333333,0,0x2005,0xFFFF
3.121600708333333,0,0xA0A0,0xFFFF
3.121613666666667,0,0x2006,0xFFFF
3.121634166666666,0,0x0000,0xFFFF
3.121647875000000,0,0x2007,0xFFFF
3.121667458333333,0,0x3030,0xFFFF
3.121680125000000,0,0x2008,0xFFFF
3.121700541666667,0,0x6C6C,0xFFFF
3.121714250000000,0,0x2009,0xFFFF
3.121733833333333,0,0x8989,0xFFFF
3.121746333333333,0,0x200A,0xFFFF
3.121766708333333,0,0x4F4F,0xFFFF
3.121780541666667,0,0x6004,0xFFFF
3.121799958333333,0,0x0000,0x0000
3.121829458333333,0,0x6004,0xFFFF
3.121849958333333,0,0x0000,0x0000
3.121863916666667,0,0x2005,0xFFFF
3.121883958333334,0,0xA0A0,0xFFFF
3.121896916666667,0,0x2006,0xFFFF
3.121917458333333,0,0x0000,0xFFFF
3.121931000000000,0,0x2007,0xFFFF
3.121950708333333,0,0x5050,0xFFFF
3.121963333333333,0,0x2008,0xFFFF
3.121983791666667,0,0x8E8E,0xFFFF
3.121997291666667,0,0x2009,0xFFFF
3.122016750000000,0,0x2222,0xFFFF
3.122029250000000,0,0x200A,0xFFFF
3.122049791666667,0,0x4F4F,0xFFFF
3.122063458333333,0,0x6004,0xFFFF
3.122082666666667,0,0x0000,0x0000
3.122112208333333,0,0x6004,0xFFFF
3.122132625000000,0,0x0000,0x0000
3.122146583333334,0,0x2005,0xFFFF
3.122166625000000,0,0xA0A0,0xFFFF
3.122179583333333,0,0x2006,0xFFFF
3.122200041666667,0,0x0000,0xFFFF
3.122213708333333,0,0x2007,0xFFFF
3.122233333333333,0,0x3030,0xFFFF
3.122245958333334,0,0x2008,0xFFFF
3.122266500000000,0,0x8C8C,0xFFFF
3.122280125000000,0,0x2009,0xFFFF
3.122299666666667,0,0x8A8A,0xFFFF
3.122312166666667,0,0x200A,0xFFFF
3.122332666666667,0,0x4F4F,0xFFFF
3.122346333333333,0,0x6004,0xFFFF
3.122365583333333,0,0x0000,0x0000
3.122394708333333,0,0x6004,0xFFFF
3.122415166666667,0,0x0000,0x0000
3.122429166666667,0,0x2005,0xFFFF
3.122449208333333,0,0xA0A0,0xFFFF
3.122462250000000,0,0x2006,0xFFFF
3.122482791666667,0,0x0000,0xFFFF
3.122496500000000,0,0x2007,0xFFFF
3.122516208333333,0,0x5050,0xFFFF
3.122528875000000,0,0x2008,0xFFFF
3.122549333333333,0,0x8E8E,0xFFFF
3.122562916666667,0,0x2009,0xFFFF
3.122582541666667,0,0x2222,0xFFFF
3.122595000000000,0,0x200A,0xFFFF
3.122615458333333,0,0x4F4F,0xFFFF
3.122629166666667,0,0x6004,0xFFFF
3.122648416666667,0,0x0000,0x0000
3.122677625000000,0,0x6004,0xFFFF
3.122697916666667,0,0x0000,0x0000
3.122711916666667,0,0x2005,0xFFFF
3.122731958333334,0,0xA0A0,0xFFFF
3.122744833333333,0,0x2006,0xFFFF
3.122765375000000,0,0x0000,0xFFFF
3.122778916666667,0,0x2007,0xFFFF
3.122798458333333,0,0x3030,0xFFFF
3.122811083333333,0,0x2008,0xFFFF
3.122831541666667,0,0x0C0C,0xFFFF
3.122845083333333,0,0x2009,0xFFFF
3.122864625000000,0,0x8B8B,0xFFFF
3.122877125000000,0,0x200A,0xFFFF
3.122897625000000,0,0x4F4F,0xFFFF
3.122911375000000,0,0x6004,0xFFFF
3.122930666666667,0,0x0000,0x0000
3.122959958333333,0,0x6004,0xFFFF
3.122980333333333,0,0x0000,0x0000
3.122994166666667,0,0x2005,0xFFFF
3.123014125000000,0,0xA0A0,0xFFFF
3.123027041666667,0,0x2006,0xFFFF
3.123047583333333,0,0x0000,0xFFFF
3.123061166666667,0,0x2007,0xFFFF
3.123080708333333,0,0x5050,0xFFFF
3.123093333333333,0,0x2008,0xFFFF
3.123113791666666,0,0x8E8E,0xFFFF
3.123127500000000,0,0x2009,0xFFFF
3.123146958333333,0,0x2222,0xFFFF
3.123159375000000,0,0x200A,0xFFFF
3.123179833333333,0,0x4F4F,0xFFFF
3.123193541666667,0,0x6004,0xFFFF
3.123212875000000,0,0x0000,0x0000
3.123242125000000,0,0x6004,0xFFFF
3.123262541666667,0,0x0000,0x0000
3.123276666666666,0,0x2005,0xFFFF
3.123296708333333,0,0xA0A0,0xFFFF
3.123309625000000,0,0x2006,0xFFFF
3.123330083333333,0,0x0000,0xFFFF
3.123343666666667,0,0x2007,0xFFFF
3.123363291666667,0,0x3030,0xFFFF
3.123375875000000,0,0x2008,0xFFFF
3.123396416666667,0,0xCCCC,0xFFFF
3.123409958333333,0,0x2009,0xFFFF
3.123429500000000,0,0x8D8D,0xFFFF
3.123441833333333,0,0x200A,0xFFFF
3.123462291666667,0,0x4F4F,0xFFFF
3.123475958333333,0,0x6004,0xFFFF
3.123495250000000,0,0x0000,0x0000
3.123524625000000,0,0x6004,0xFFFF
3.123544916666666,0,0x0000,0x0000
3.123558833333334,0,0x2005,0xFFFF
3.123578916666667,0,0xA0A0,0xFFFF
3.123591750000000,0,0x2006,0xFFFF
3.123612250000000,0,0x0000,0xFFFF
3.123625791666667,0,0x2007,0xFFFF
3.123645416666667,0,0x5050,0xFFFF
3.123657916666667,0,0x2008,0xFFFF
3.123678458333333,0,0x8E8E,0xFFFF
3.123692041666667,0,0x2009,0xFFFF
3.123711666666667,0,0x2222,0xFFFF
3.123724125000000,0,0x200A,0xFFFF
3.123744750000000,0,0x4F4F,0xFFFF
3.123758375000000,0,0x6004,0xFFFF
3.123777666666667,0,0x0000,0x0000
3.123806791666667,0,0x6004,0xFFFF
3.123827083333333,0,0x0000,0x0000
3.123840875000000,0,0x2005,0xFFFF
3.123860833333334,0,0xA0A0,0xFFFF
3.123873666666667,0,0x2006,0xFFFF
3.123894250000000,0,0x0000,0xFFFF
3.123907750000000,0,0x2007,0xFFFF
3.123927291666666,0,0x3030,0xFFFF
3.123939791666666,0,0x2008,0xFFFF
3.123960291666667,0,0x2C2C,0xFFFF
3.123974000000000,0,0x2009,0xFFFF
3.123993500000000,0,0x8F8F,0xFFFF
3.124005958333333,0,0x200A,0xFFFF
3.124026416666667,0,0x4F4F,0xFFFF
3.124040000000000,0,0x6004,0xFFFF
3.124059291666667,0,0x0000,0x0000
3.124088416666666,0,0x6004,0xFFFF
3.124108791666667,0,0x0000,0x0000
3.124122666666667,0,0x2005,0xFFFF
3.124142583333333,0,0xA0A0,0xFFFF
3.124155458333334,0,0x2006,0xFFFF
3.124175875000000,0,0x0000,0xFFFF
3.124189625000000,0,0x2007,0xFFFF
3.124209208333333,0,0x5050,0xFFFF
3.124221833333333,0,0x2008,0xFFFF
3.124242333333333,0,0x8E8E,0xFFFF
3.124255833333333,0,0x2009,0xFFFF
3.124275250000000,0,0x2222,0xFFFF
3.124287875000000,0,0x200A,0xFFFF
3.124308375000000,0,0x4F4F,0xFFFF
3.124322041666667,0,0x6004,0xFFFF
3.124341333333333,0,0x0000,0x0000
3.124370666666667,0,0x6004,0xFFFF
3.124390916666667,0,0x0000,0x0000
3.124404791666667,0,0x2005,0xFFFF
3.124424833333333,0,0xA0A0,0xFFFF
3.124437583333334,0,0x2006,0xFFFF
3.124458041666667,0,0x0000,0xFFFF
3.124471625000000,0,0x2007,0xFFFF
3.124491250000000,0,0x3030,0xFFFF
3.124503916666667,0,0x2008,0xFFFF
3.124524375000000,0,0x0C0C,0xFFFF
3.124538000000000,0,0x2009,0xFFFF
3.124557458333333,0,0x9191,0xFFFF
3.124569916666667,0,0x200A,0xFFFF
3.124590375000000,0,0x4F4F,0xFFFF
3.124604041666667,0,0x6004,0xFFFF
3.124623500000000,0,0x0000,0x0000
3.124653083333333,0,0x6004,0xFFFF
3.124673375000000,0,0x0000,0x0000
3.124687291666667,0,0x2005,0xFFFF
3.124707375000000,0,0xA0A0,0xFFFF
3.124720333333333,0,0x2006,0xFFFF
3.124740750000000,0,0x0000,0xFFFF
3.124754333333333,0,0x2007,0xFFFF
3.124773833333333,0,0x5050,0xFFFF
3.124786416666667,0,0x2008,0xFFFF
3.124806958333334,0,0x8E8E,0xFFFF
3.124820583333333,0,0x2009,0xFFFF
3.124840250000000,0,0x2222,0xFFFF
3.124852708333334,0,0x200A,0xFFFF
3.124873125000000,0,0x4F4F,0xFFFF
3.124886791666666,0,0x6004,0xFFFF
3.124906125000000,0,0x0000,0x0000
3.124935708333333,0,0x6004,0xFFFF
3.124956166666667,0,0x0000,0x0000
3.124970000000000,0,0x2005,0xFFFF
3.124990083333334,0,0xA0A0,0xFFFF
3.125002833333333,0,0x2006,0xFFFF
3.125023333333333,0,0x0000,0xFFFF
3.125037208333334,0,0x2007,0xFFFF
3.125056750000000,0,0x3030,0xFFFF
3.125069416666667,0,0x2008,0xFFFF
3.125089833333333,0,0x6C6C,0xFFFF
3.125103500000000,0,0x2009,0xFFFF
3.125122916666667,0,0x9393,0xFFFF
3.125135333333333,0,0x200A,0xFFFF
3.125181375000000,0,0x4F4F,0xFFFF
3.125194416666667,0,0x6004,0xFFFF
3.125215125000000,0,0x0000,0x0000
3.125254541666667,0,0x6004,0xFFFF
3.125274041666667,0,0x0000,0x0000
3.125286875000000,0,0x2005,0xFFFF
3.125308000000000,0,0xA0A0,0xFFFF
3.125322000000000,0,0x2006,0xFFFF
3.125341583333333,0,0x0000,0xFFFF
3.125354208333333,0,0x2007,0xFFFF
3.125374791666667,0,0x5050,0xFFFF
3.125388541666667,0,0x2008,0xFFFF
3.125408041666667,0,0x8E8E,0xFFFF
3.125420458333333,0,0x2009,0xFFFF
3.125440958333333,0,0x2222,0xFFFF
3.125454625000000,0,0x200A,0xFFFF
3.125474250000000,0,0x4F4F,0xFFFF
3.125486833333333,0,0x6004,0xFFFF
3.125507208333334,0,0x0000,0x0000
3.125539583333333,0,0x6004,0xFFFF
3.125559041666667,0,0x0000,0x0000
3.125571791666667,0,0x2005,0xFFFF
3.125592833333333,0,0xA0A0,0xFFFF
3.125606750000000,0,0x2006,0xFFFF
3.125626250000000,0,0x0000,0xFFFF
3.125638750000000,0,0x2007,0xFFFF
3.125659333333333,0,0x3030,0xFFFF
3.125673083333333,0,0x2008,0xFFFF
3.125692625000000,0,0xECEC,0xFFFF
3.125705208333333,0,0x2009,0xFFFF
3.125725833333334,0,0x9393,0xFFFF
3.125739625000000,0,0x200A,0xFFFF
3.125759291666667,0,0x4F4F,0xFFFF
3.125771833333333,0,0x6004,0xFFFF
3.125792250000000,0,0x0000,0x0000
3.125823250000000,0,0x6004,0xFFFF
3.125842750000000,0,0x0000,0x0000
3.125855583333333,0,0x2005,0xFFFF
3.125876708333333,0,0xA0A0,0xFFFF
3.125890625000000,0,0x2006,0xFFFF
3.125910166666667,0,0x0000,0xFFFF
3.125922750000000,0,0x2007,0xFFFF
3.125943208333333,0,0x5050,0xFFFF
3.125956791666667,0,0x2008,0xFFFF
3.125976375000000,0,0x8E8E,0xFFFF
3.125988958333333,0,0x2009,0xFFFF
3.126009541666666,0,0x2222,0xFFFF
3.126023166666667,0,0x200A,0xFFFF
3.126042750000000,0,0x4F4F,0xFFFF
3.126055333333333,0,0x6004,0xFFFF
3.126075708333333,0,0x0000,0x0000
3.126107000000000,0,0x6004,0xFFFF
3.126126375000000,0,0x0000,0x0000
3.126139125000000,0,0x2005,0xFFFF
3.126160291666667,0,0xA0A0,0xFFFF
3.126174125000000,0,0x2006,0xFFFF
3.126193625000000,0,0x0000,0xFFFF
3.126206125000000,0,0x2007,0xFFFF
3.126226708333333,0,0x3030,0xFFFF
3.126240375000000,0,0x2008,0xFFFF
3.126259875000000,0,0x4C4C,0xFFFF
3.126272416666667,0,0x2009,0xFFFF
3.126293000000000,0,0x9494,0xFFFF
3.126306625000000,0,0x200A,0xFFFF
3.126326041666667,0,0x4F4F,0xFFFF
3.126338666666667,0,0x6004,0xFFFF
3.126359041666666,0,0x0000,0x0000
3.126389791666667,0,0x6004,0xFFFF
3.126409208333333,0,0x0000,0x0000
3.126422000000000,0,0x2005,0xFFFF
3.126442833333333,0,0xA0A0,0xFFFF
3.126456791666667,0,0x2006,0xFFFF
3.126476458333333,0,0x0000,0xFFFF
3.126488875000000,0,0x2007,0xFFFF
3.126509458333333,0,0x5050,0xFFFF
3.126523208333333,0,0x2008,0xFFFF
3.126542583333333,0,0x8E8E,0xFFFF
3.126554958333333,0,0x2009,0xFFFF
3.126575458333333,0,0x2222,0xFFFF
3.126589041666667,0,0x200A,0xFFFF
3.126608625000000,0,0x4F4F,0xFFFF
3.126621083333333,0,0x6004,0xFFFF
3.126641416666667,0,0x0000,0x0000
3.126672083333333,0,0x6004,0xFFFF
3.126691375000000,0,0x0000,0x0000
3.126704208333333,0,0x2005,0xFFFF
3.126725291666667,0,0xA0A0,0xFFFF
3.126739208333333,0,0x2006,0xFFFF
3.126758666666666,0,0x0000,0xFFFF
3.126771208333333,0,0x2007,0xFFFF
3.126791916666666,0,0x3030,0xFFFF
3.126805750000000,0,0x2008,0xFFFF
3.126825291666667,0,0xCCCC,0xFFFF
3.126837791666667,0,0x2009,0xFFFF
3.126858250000000,0,0x9494,0xFFFF
3.126872083333333,0,0x200A,0xFFFF
3.126891583333333,0,0x4F4F,0xFFFF
3.126904166666667,0,0x6004,0xFFFF
3.126924458333333,0,0x0000,0x0000
3.126955833333333,0,0x6004,0xFFFF
3.126975208333334,0,0x0000,0x0000
3.126988000000000,0,0x2005,0xFFFF
3.127008958333333,0,0xA0A0,0xFFFF
3.127022916666667,0,0x2006,0xFFFF
3.127042458333333,0,0x0000,0xFFFF
3.127055041666666,0,0x2007,0xFFFF
3.127075750000000,0,0x5050,0xFFFF
3.127089541666667,0,0x2008,0xFFFF
3.127109083333333,0,0x8E8E,0xFFFF
3.127121708333333,0,0x2009,0xFFFF
3.127142333333333,0,0x2222,0xFFFF
3.127156083333333,0,0x200A,0xFFFF
3.127175666666667,0,0x4F4F,0xFFFF
3.127188291666667,0,0x6004,0xFFFF
3.127208666666667,0,0x0000,0x0000
3.127239750000000,0,0x6004,0xFFFF
3.127259041666667,0,0x0000,0x0000
3.127271833333333,0,0x2005,0xFFFF
3.127293000000000,0,0xA0A0,0xFFFF
3.127306916666666,0,0x2006,0xFFFF
3.127326416666667,0,0x0000,0xFFFF
3.127338750000000,0,0x2007,0xFFFF
3.127359291666667,0,0x3030,0xFFFF
3.127373041666667,0,0x2008,0xFFFF
3.127392541666667,0,0x2C2C,0xFFFF
3.127404916666667,0,0x2009,0xFFFF
3.127425458333333,0,0x9595,0xFFFF
3.127439041666667,0,0x200A,0xFFFF
3.127458416666667,0,0x4F4F,0xFFFF
3.127470916666667,0,0x6004,0xFFFF
3.127491291666667,0,0x0000,0x0000
3.127521875000000,0,0x6004,0xFFFF
3.127541208333333,0,0x0000,0x0000
3.127554125000000,0,0x2005,0xFFFF
3.127575166666666,0,0xA0A0,0xFFFF
3.127589083333334,0,0x2006,0xFFFF
3.127608583333333,0,0x0000,0xFFFF
3.127621250000000,0,0x2007,0xFFFF
3.127641750000000,0,0x5050,0xFFFF
3.127655500000000,0,0x2008,0xFFFF
3.127675000000000,0,0x8E8E,0xFFFF
3.127687458333333,0,0x2009,0xFFFF
3.127708166666667,0,0x2222,0xFFFF
3.127721833333333,0,0x200A,0xFFFF
3.127741416666667,0,0x4F4F,0xFFFF
3.127753958333333,0,0x6004,0xFFFF
3.127774291666667,0,0x0000,0x0000
3.127804708333333,0,0x6004,0xFFFF
3.127824083333334,0,0x0000,0x0000
3.127836666666667,0,0x2005,0xFFFF
3.127857791666667,0,0xA0A0,0xFFFF
3.127871666666667,0,0x2006,0xFFFF
3.127891166666667,0,0x0000,0xFFFF
3.127903750000000,0,0x2007,0xFFFF
3.127924583333333,0,0x3030,0xFFFF
3.127938375000000,0,0x2008,0xFFFF
3.127957916666666,0,0x6C6C,0xFFFF
3.127970416666667,0,0x2009,0xFFFF
3.127991000000000,0,0xAFAF,0xFFFF
3.128004625000000,0,0x200A,0xFFFF
3.128024166666667,0,0x4F4F,0xFFFF
3.128036708333333,0,0x6004,0xFFFF
3.128057000000000,0,0x0000,0x0000
3.128087541666666,0,0x6004,0xFFFF
3.128106916666667,0,0x0000,0x0000
3.128119791666667,0,0x2005,0xFFFF
3.128140916666667,0,0xA0A0,0xFFFF
3.128154875000000,0,0x2006,0xFFFF
3.128174333333333,0,0x0000,0xFFFF
3.128186833333333,0,0x2007,0xFFFF
3.128207375000000,0,0x5050,0xFFFF
3.128220958333333,0,0x2008,0xFFFF
3.128240416666667,0,0x8E8E,0xFFFF
3.128252875000000,0,0x2009,0xFFFF
3.128273291666666,0,0x2222,0xFFFF
3.128286958333333,0,0x200A,0xFFFF
3.128306458333333,0,0x4F4F,0xFFFF
3.128319041666667,0,0x6004,0xFFFF
3.128339416666666,0,0x0000,0x0000
3.128370291666667,0,0x6004,0xFFFF
3.128389916666667,0,0x0000,0x0000
3.128402708333333,0,0x2005,0xFFFF
3.128423666666666,0,0xA0A0,0xFFFF
3.128437625000000,0,0x2006,0xFFFF
3.128457166666667,0,0x0000,0xFFFF
3.128469666666667,0,0x2007,0xFFFF
3.128490166666666,0,0x3030,0xFFFF
3.128503750000000,0,0x2008,0xFFFF
3.128523166666667,0,0x2C2C,0xFFFF
3.128535583333333,0,0x2009,0xFFFF
3.128556166666667,0,0xB0B0,0xFFFF
3.128569875000000,0,0x200A,0xFFFF
3.128589333333333,0,0x4F4F,0xFFFF
3.128601875000000,0,0x6004,0xFFFF
3.128622250000000,0,0x0000,0x0000
3.128652958333333,0,0x6004,0xFFFF
3.128672375000000,0,0x0000,0x0000
3.128685125000000,0,0x2005,0xFFFF
3.128706250000000,0,0xA0A0,0xFFFF
3.128720333333333,0,0x2006,0xFFFF
3.128739833333333,0,0x0000,0xFFFF
3.128752416666666,0,0x2007,0xFFFF
3.128773083333333,0,0x0000,0xFFFF
3.128786916666667,0,0x2008,0xFFFF
3.128806458333333,0,0x2E2E,0xFFFF
3.128819083333333,0,0x2009,0xFFFF
3.128839750000000,0,0x0000,0xFFFF
3.128853416666667,0,0x200A,0xFFFF
3.128872958333333,0,0x4F4F,0xFFFF
3.128885541666667,0,0x6004,0xFFFF
3.128906000000000,0,0x0000,0x0000
3.128937000000000,0,0x6004,0xFFFF
3.128956375000000,0,0x0000,0x0000
3.128969250000000,0,0x2005,0xFFFF
3.128990333333333,0,0xA0A0,0xFFFF
3.129004250000000,0,0x2006,0xFFFF
3.129023875000000,0,0x0000,0xFFFF
3.129036333333334,0,0x2007,0xFFFF
3.129056875000000,0,0x0000,0xFFFF
3.129070541666667,0,0x2008,0xFFFF
3.129089958333333,0,0x0C0C,0xFFFF
3.129102500000000,0,0x2009,0xFFFF
3.129123041666667,0,0x7878,0xFFFF
3.129136625000000,0,0x200A,0xFFFF
3.129156041666667,0,0x4F4F,0xFFFF
3.129168541666667,0,0x6004,0xFFFF
3.129188833333334,0,0x0000,0x0000
3.129219583333333,0,0x6004,0xFFFF
3.129239125000000,0,0x0000,0x0000
3.129251958333333,0,0x2005,0xFFFF
3.129273000000000,0,0xA0A0,0xFFFF
3.129287000000000,0,0x2006,0xFFFF
3.129306583333333,0,0x0000,0xFFFF
3.129319125000000,0,0x2007,0xFFFF
3.129339750000000,0,0x8080,0xFFFF
3.129353375000000,0,0x2008,0xFFFF
3.129372833333333,0,0x6666,0xFFFF
3.129385333333333,0,0x2009,0xFFFF
3.129406083333333,0,0x6E6E,0xFFFF
3.129419916666667,0,0x200A,0xFFFF
3.129439500000000,0,0x4F4F,0xFFFF
3.129451958333333,0,0x6004,0xFFFF
3.129472333333333,0,0x0000,0x0000
3.129502875000000,0,0x6004,0xFFFF
3.129522291666667,0,0x0000,0x0000
3.129535083333333,0,0x2005,0xFFFF
3.129556041666667,0,0xA0A0,0xFFFF
3.129570041666667,0,0x2006,0xFFFF
3.129589500000000,0,0x0000,0xFFFF
3.129601958333333,0,0x2007,0xFFFF
3.129622458333333,0,0x5050,0xFFFF
3.129636291666666,0,0x2008,0xFFFF
3.129655833333334,0,0x8E8E,0xFFFF
3.129671583333333,0,0x2009,0xFFFF
3.129692208333333,0,0x2222,0xFFFF
3.129705916666667,0,0x200A,0xFFFF
3.129727250000000,0,0x4F4F,0xFFFF
3.129742041666667,0,0x6004,0xFFFF
3.129761000000000,0,0x0000,0x0000
3.129795000000000,0,0x6004,0xFFFF
3.129816750000000,0,0x0000,0x0000
3.129830958333333,0,0x2005,0xFFFF
3.129850291666667,0,0xA0A0,0xFFFF
3.129862666666666,0,0x2006,0xFFFF
3.129883333333333,0,0x0000,0xFFFF
3.129897250000000,0,0x2007,0xFFFF
3.129916166666667,0,0x0000,0xFFFF
3.129928208333333,0,0x2008,0xFFFF
3.129948916666667,0,0xECEC,0xFFFF
3.129962791666667,0,0x2009,0xFFFF
3.129981583333334,0,0x7777,0xFFFF
3.129993666666667,0,0x200A,0xFFFF
3.130014208333333,0,0x4F4F,0xFFFF
3.130028166666667,0,0x6004,0xFFFF
3.130046750000000,0,0x0000,0x0000
3.130076541666666,0,0x6004,0xFFFF
3.130097333333334,0,0x0000,0x0000
3.130111625000000,0,0x2005,0xFFFF
3.130130708333333,0,0xA0A0,0xFFFF
3.130143125000000,0,0x2006,0xFFFF
3.130163708333333,0,0x0000,0xFFFF
3.130177625000000,0,0x2007,0xFFFF
3.130196500000000,0,0x5050,0xFFFF
3.130208666666667,0,0x2008,0xFFFF
3.130229291666667,0,0x4646,0xFFFF
3.130243083333333,0,0x2009,0xFFFF
3.130261833333333,0,0x8888,0xFFFF
3.130273958333333,0,0x200A,0xFFFF
3.130294708333333,0,0x4F4F,0xFFFF
3.130308583333334,0,0x6004,0xFFFF
3.130327083333333,0,0x0000,0x0000
3.130356416666667,0,0x6004,0xFFFF
3.130377208333333,0,0x0000,0x0000
3.130391583333333,0,0x2005,0xFFFF
3.130410708333333,0,0xA0A0,0xFFFF
3.130423083333334,0,0x2006,0xFFFF
3.130443875000000,0,0x0000,0xFFFF
3.130457708333333,0,0x2007,0xFFFF
3.130476458333333,0,0x2020,0xFFFF
3.130488625000000,0,0x2008,0xFFFF
3.130509208333333,0,0x1A1A,0xFFFF
3.130523041666667,0,0x2009,0xFFFF
3.130541750000000,0,0x6464,0xFFFF
3.130554000000000,0,0x200A,0xFFFF
3.130574791666667,0,0x4F4F,0xFFFF
3.130588708333333,0,0x6004,0xFFFF
3.130607291666667,0,0x0000,0x0000
3.130637083333333,0,0x6004,0xFFFF
3.130657750000000,0,0x0000,0x0000
3.130672000000000,0,0x2005,0xFFFF
3.130691208333333,0,0xA0A0,0xFFFF
3.130703458333334,0,0x2006,0xFFFF
3.130724083333333,0,0x0000,0xFFFF
3.130738041666667,0,0x2007,0xFFFF
3.130756875000000,0,0x5050,0xFFFF
3.130769000000000,0,0x2008,0xFFFF
3.130789708333333,0,0xC7C7,0xFFFF
3.130803708333334,0,0x2009,0xFFFF
3.130822500000000,0,0x8383,0xFFFF
3.130834750000000,0,0x200A,0xFFFF
3.130855416666666,0,0x4F4F,0xFFFF
3.130869458333333,0,0x6004,0xFFFF
3.130888083333333,0,0x0000,0x0000
3.130917875000000,0,0x6004,0xFFFF
3.130938750000000,0,0x0000,0x0000
3.130953125000000,0,0x2005,0xFFFF
3.130972333333333,0,0xA0A0,0xFFFF
3.130984583333333,0,0x2006,0xFFFF
3.131005375000000,0,0x0000,0xFFFF
3.131019333333333,0,0x2007,0xFFFF
3.131038125000000,0,0x5050,0xFFFF
3.131050333333333,0,0x2008,0xFFFF
3.131071000000000,0,0xEEEE,0xFFFF
3.131084958333333,0,0x2009,0xFFFF
3.131103583333333,0,0x2222,0xFFFF
3.131115583333334,0,0x200A,0xFFFF
3.131136375000000,0,0x4F4F,0xFFFF
3.131150333333333,0,0x6004,0xFFFF
3.131168833333333,0,0x0000,0x0000
3.131198041666666,0,0x6004,0xFFFF
3.131218833333334,0,0x0000,0x0000
3.131233166666667,0,0x2005,0xFFFF
3.131252250000000,0,0xA0A0,0xFFFF
3.131264458333333,0,0x2006,0xFFFF
3.131285208333333,0,0x0000,0xFFFF
3.131299125000000,0,0x2007,0xFFFF
3.131317958333333,0,0x3030,0xFFFF
3.131330166666667,0,0x2008,0xFFFF
3.131350750000000,0,0xACAC,0xFFFF
3.131364708333333,0,0x2009,0xFFFF
3.131383583333333,0,0x8686,0xFFFF
3.131395625000000,0,0x200A,0xFFFF
3.131416333333333,0,0x4F4F,0xFFFF
3.131430166666667,0,0x6004,0xFFFF
3.131448791666667,0,0x0000,0x0000
3.131478333333333,0,0x6004,0xFFFF
3.131499166666667,0,0x0000,0x0000
3.131513541666667,0,0x2005,0xFFFF
3.131532666666667,0,0xA0A0,0xFFFF
3.131544916666666,0,0x2006,0xFFFF
3.131565750000000,0,0x0000,0xFFFF
3.131579750000000,0,0x2007,0xFFFF
3.131598541666667,0,0x2020,0xFFFF
3.131610583333333,0,0x2008,0xFFFF
3.131631166666667,0,0xDADA,0xFFFF
3.131644958333333,0,0x2009,0xFFFF
3.131663708333333,0,0x5656,0xFFFF
3.131675708333333,0,0x200A,0xFFFF
3.131696375000000,0,0x4F4F,0xFFFF
3.131710291666667,0,0x6004,0xFFFF
3.131728791666667,0,0x0000,0x0000
3.131757875000000,0,0x6004,0xFFFF
3.131778708333333,0,0x0000,0x0000
3.131792958333333,0,0x2005,0xFFFF
3.131812125000000,0,0xA0A0,0xFFFF
3.131824333333333,0,0x2006,0xFFFF
3.131845083333333,0,0x0000,0xFFFF
3.131859000000000,0,0x2007,0xFFFF
3.131877916666667,0,0x5050,0xFFFF
3.131890000000000,0,0x2008,0xFFFF
3.131910666666667,0,0xC7C7,0xFFFF
3.131924500000000,0,0x2009,0xFFFF
3.131943375000000,0,0x8383,0xFFFF
3.131955625000000,0,0x200A,0xFFFF
3.131976208333333,0,0x4F4F,0xFFFF
3.131990083333333,0,0x6004,0xFFFF
3.132008625000000,0,0x0000,0x0000
3.132037875000000,0,0x6004,0xFFFF
3.132058625000000,0,0x0000,0x0000
3.132072833333333,0,0x2005,0xFFFF
3.132092000000000,0,0xA0A0,0xFFFF
3.132104291666667,0,0x2006,0xFFFF
3.132124958333333,0,0x0000,0xFFFF
3.132138791666667,0,0x2007,0xFFFF
3.132157583333333,0,0x0000,0xFFFF
3.132169625000000,0,0x2008,0xFFFF
3.132190458333334,0,0xEEEE,0xFFFF
3.132204333333333,0,0x2009,0xFFFF
3.132223041666667,0,0x2222,0xFFFF
3.132234958333334,0,0x200A,0xFFFF
3.132255583333333,0,0x4F4F,0xFFFF
3.132269541666667,0,0x6004,0xFFFF
3.132288125000000,0,0x0000,0x0000
3.132317291666667,0,0x6004,0xFFFF
3.132338125000000,0,0x0000,0x0000
3.132352416666667,0,0x2005,0xFFFF
3.132371458333334,0,0xA0A0,0xFFFF
3.132383791666667,0,0x2006,0xFFFF
3.132404291666667,0,0x0000,0xFFFF
3.132418125000000,0,0x2007,0xFFFF
3.132436958333333,0,0x3030,0xFFFF
3.132449166666667,0,0x2008,0xFFFF
3.132469791666667,0,0xECEC,0xFFFF
3.132483541666667,0,0x2009,0xFFFF
3.132502375000000,0,0x8585,0xFFFF
3.132514458333334,0,0x200A,0xFFFF
3.132535083333333,0,0x4F4F,0xFFFF
3.132549000000000,0,0x6004,0xFFFF
3.132567666666667,0,0x0000,0x0000
3.132597000000000,0,0x6004,0xFFFF
3.132617833333333,0,0x0000,0x0000
3.132631958333334,0,0x2005,0xFFFF
3.132651000000000,0,0xA0A0,0xFFFF
3.132663208333333,0,0x2006,0xFFFF
3.132683833333333,0,0x0000,0xFFFF
3.132697791666667,0,0x2007,0xFFFF
3.132716708333333,0,0x5050,0xFFFF
3.132728916666667,0,0x2008,0xFFFF
3.132749458333334,0,0x6060,0xFFFF
3.132763416666667,0,0x2009,0xFFFF
3.132782208333333,0,0xBBBB,0xFFFF
3.132794333333333,0,0x200A,0xFFFF
3.132815000000000,0,0x4F4F,0xFFFF
3.132828833333333,0,0x6004,0xFFFF
3.132847333333333,0,0x0000,0x0000
3.132876541666667,0,0x6004,0xFFFF
3.132897291666667,0,0x0000,0x0000
3.132911500000000,0,0x2005,0xFFFF
3.132930541666667,0,0xA0A0,0xFFFF
3.132942833333333,0,0x2006,0xFFFF
3.132963541666667,0,0x0000,0xFFFF
3.132977416666667,0,0x2007,0xFFFF
3.132996250000000,0,0x2020,0xFFFF
3.133008333333333,0,0x2008,0xFFFF
3.133028833333333,0,0xFAFA,0xFFFF
3.133042875000000,0,0x2009,0xFFFF
3.133061666666667,0,0x5656,0xFFFF
3.133073625000000,0,0x200A,0xFFFF
3.133094583333333,0,0x4F4F,0xFFFF
3.133108333333333,0,0x6004,0xFFFF
3.133126791666667,0,0x0000,0x0000
3.133156166666667,0,0x6004,0xFFFF
3.133177000000000,0,0x0000,0x0000
3.133191375000000,0,0x2005,0xFFFF
3.133210458333333,0,0xA0A0,0xFFFF
3.133222791666667,0,0x2006,0xFFFF
3.133243500000000,0,0x0000,0xFFFF
3.133257333333333,0,0x2007,0xFFFF
3.133276000000000,0,0x5050,0xFFFF
3.133288083333333,0,0x2008,0xFFFF
3.133308791666667,0,0x7B7B,0xFFFF
3.133322500000000,0,0x2009,0xFFFF
3.133341375000000,0,0x6363,0xFFFF
3.133353458333333,0,0x200A,0xFFFF
3.133373875000000,0,0x4F4F,0xFFFF
3.133387708333333,0,0x6004,0xFFFF
3.133406208333333,0,0x0000,0x0000
3.133435833333333,0,0x6004,0xFFFF
3.133456791666667,0,0x0000,0x0000
3.133470875000000,0,0x2005,0xFFFF
3.133489875000000,0,0xA0A0,0xFFFF
3.133502291666667,0,0x2006,0xFFFF
3.133523041666667,0,0x0000,0xFFFF
3.133536875000000,0,0x2007,0xFFFF
3.133555583333334,0,0x1010,0xFFFF
3.133567750000000,0,0x2008,0xFFFF
3.133588291666667,0,0xEEEE,0xFFFF
3.133602166666666,0,0x2009,0xFFFF
3.133620916666667,0,0x2222,0xFFFF
3.133633041666667,0,0x200A,0xFFFF
3.133653750000000,0,0x4F4F,0xFFFF
3.133667666666667,0,0x6004,0xFFFF
3.133686166666667,0,0x0000,0x0000
3.133715458333334,0,0x6004,0xFFFF
3.133736375000000,0,0x0000,0x0000
3.133750875000000,0,0x2005,0xFFFF
3.133770125000000,0,0xA0A0,0xFFFF
3.133782458333333,0,0x2006,0xFFFF
3.133803000000000,0,0x0000,0xFFFF
3.133816916666667,0,0x2007,0xFFFF
3.133835750000000,0,0x3030,0xFFFF
3.133847875000000,0,0x2008,0xFFFF
3.133868541666667,0,0xACAC,0xFFFF
3.133882458333333,0,0x2009,0xFFFF
3.133901250000000,0,0x8686,0xFFFF
3.133913375000000,0,0x200A,0xFFFF
3.133934125000000,0,0x4F4F,0xFFFF
3.133948041666667,0,0x6004,0xFFFF
3.133966416666667,0,0x0000,0x0000
3.133995416666667,0,0x6004,0xFFFF
3.134016125000000,0,0x0000,0x0000
3.134030458333333,0,0x2005,0xFFFF
3.134049541666667,0,0xA0A0,0xFFFF
3.134061958333333,0,0x2006,0xFFFF
3.134082708333333,0,0x0000,0xFFFF
3.134096625000000,0,0x2007,0xFFFF
3.134115416666666,0,0x5050,0xFFFF
3.134127500000000,0,0x2008,0xFFFF
3.134148458333333,0,0x6060,0xFFFF
3.134162416666667,0,0x2009,0xFFFF
3.134181208333333,0,0xBBBB,0xFFFF
3.134193333333333,0,0x200A,0xFFFF
3.134214041666667,0,0x4F4F,0xFFFF
3.134227958333333,0,0x6004,0xFFFF
3.134246458333333,0,0x0000,0x0000
3.134275666666666,0,0x6004,0xFFFF
3.134296416666666,0,0x0000,0x0000
3.134310666666666,0,0x2005,0xFFFF
3.134329875000000,0,0xA0A0,0xFFFF
3.134342291666667,0,0x2006,0xFFFF
3.134362958333333,0,0x0000,0xFFFF
3.134376833333334,0,0x2007,0xFFFF
3.134395666666667,0,0x5050,0xFFFF
3.134407791666667,0,0x2008,0xFFFF
3.134428458333333,0,0xC6C6,0xFFFF
3.134442333333333,0,0x2009,0xFFFF
3.134461166666667,0,0x8383,0xFFFF
3.134473291666667,0,0x200A,0xFFFF
3.134493916666667,0,0x4F4F,0xFFFF
3.134507916666667,0,0x6004,0xFFFF
3.134526541666667,0,0x0000,0x0000
3.134555833333333,0,0x6004,0xFFFF
3.134576666666667,0,0x0000,0x0000
3.134591000000000,0,0x2005,0xFFFF
3.134610000000000,0,0xA0A0,0xFFFF
3.134622333333333,0,0x2006,0xFFFF
3.134643041666667,0,0x0000,0xFFFF
3.134656916666667,0,0x2007,0xFFFF
3.134675666666667,0,0x5050,0xFFFF
3.134687708333333,0,0x2008,0xFFFF
3.134708291666667,0,0x8686,0xFFFF
3.134722166666667,0,0x2009,0xFFFF
3.134741000000000,0,0xB5B5,0xFFFF
3.134753041666666,0,0x200A,0xFFFF
3.134773708333333,0,0x4F4F,0xFFFF
3.134787625000000,0,0x6004,0xFFFF
3.134806083333333,0,0x0000,0x0000
3.134835166666667,0,0x6004,0xFFFF
3.134856000000000,0,0x0000,0x0000
3.134870416666667,0,0x2005,0xFFFF
3.134889458333333,0,0xA0A0,0xFFFF
3.134901791666667,0,0x2006,0xFFFF
3.134922541666667,0,0x0000,0xFFFF
3.134936333333334,0,0x2007,0xFFFF
3.134955125000000,0,0x2020,0xFFFF
3.134967083333333,0,0x2008,0xFFFF
3.134987791666667,0,0x2828,0xFFFF
3.135001541666667,0,0x2009,0xFFFF
3.135020333333333,0,0x1D1D,0xFFFF
3.135032375000000,0,0x200A,0xFFFF
3.135052958333334,0,0x4F4F,0xFFFF
3.135066875000000,0,0x6004,0xFFFF
3.135085375000000,0,0x0000,0x0000
3.135114625000000,0,0x6004,0xFFFF
3.135135375000000,0,0x0000,0x0000
3.135152833333333,0,0x2005,0xFFFF
3.135176083333334,0,0xA0A0,0xFFFF
3.135190125000000,0,0x2006,0xFFFF
3.135209208333333,0,0x0000,0xFFFF
3.135221791666666,0,0x2007,0xFFFF
3.135242541666666,0,0x5050,0xFFFF
3.135256375000000,0,0x2008,0xFFFF
3.135275208333333,0,0x8E8E,0xFFFF
3.135287375000000,0,0x2009,0xFFFF
3.135308041666667,0,0x2222,0xFFFF
3.135322000000000,0,0x200A,0xFFFF
3.135340875000000,0,0x4F4F,0xFFFF
3.135353083333333,0,0x6004,0xFFFF
3.135373708333333,0,0x0000,0x0000
3.135405458333334,0,0x6004,0xFFFF
3.135424125000000,0,0x0000,0x0000
3.135436625000000,0,0x2005,0xFFFF
3.135457916666667,0,0xA0A0,0xFFFF
3.135472083333333,0,0x2006,0xFFFF
3.135490916666666,0,0x0000,0xFFFF
3.135503041666666,0,0x2007,0xFFFF
3.135523916666667,0,0x1010,0xFFFF
3.135537916666667,0,0x2008,0xFFFF
3.135556625000000,0,0xECEC,0xFFFF
3.135568750000000,0,0x2009,0xFFFF
3.135589375000000,0,0xF4F4,0xFFFF
3.135603250000000,0,0x200A,0xFFFF
3.135621916666667,0,0x4F4F,0xFFFF
3.135634041666667,0,0x6004,0xFFFF
3.135654500000000,0,0x0000,0x0000
3.135685291666667,0,0x6004,0xFFFF
3.135703958333333,0,0x0000,0x0000
3.135716333333333,0,0x2005,0xFFFF
3.135737333333333,0,0xA0A0,0xFFFF
3.135751541666667,0,0x2006,0xFFFF
3.135770333333333,0,0x0000,0xFFFF
3.135782333333333,0,0x2007,0xFFFF
3.135803166666667,0,0x5050,0xFFFF
3.135817125000000,0,0x2008,0xFFFF
3.135835791666667,0,0xA0A0,0xFFFF
3.135848000000000,0,0x2009,0xFFFF
3.135868541666667,0,0x6F6F,0xFFFF
3.135882375000000,0,0x200A,0xFFFF
3.135901250000000,0,0x4F4F,0xFFFF
3.135913291666667,0,0x6004,0xFFFF
3.135933916666667,0,0x0000,0x0000
3.135965041666667,0,0x6004,0xFFFF
3.135983708333333,0,0x0000,0x0000
3.135995875000000,0,0x2005,0xFFFF
3.136017166666667,0,0xA0A0,0xFFFF
3.136031458333334,0,0x2006,0xFFFF
3.136050250000000,0,0x0000,0xFFFF
3.136062291666667,0,0x2007,0xFFFF
3.136083000000000,0,0x5050,0xFFFF
3.136096833333333,0,0x2008,0xFFFF
3.136115583333333,0,0x4646,0xFFFF
3.136127708333333,0,0x2009,0xFFFF
3.136148541666667,0,0x8888,0xFFFF
3.136162500000000,0,0x200A,0xFFFF
3.136181291666666,0,0x4F4F,0xFFFF
3.136193333333333,0,0x6004,0xFFFF
3.136213708333333,0,0x0000,0x0000
3.136244958333333,0,0x6004,0xFFFF
3.136263500000000,0,0x0000,0x0000
3.136275833333333,0,0x2005,0xFFFF
3.136297041666666,0,0xA0A0,0xFFFF
3.136311125000000,0,0x2006,0xFFFF
3.136329875000000,0,0x0000,0xFFFF
3.136341958333333,0,0x2007,0xFFFF
3.136362666666667,0,0x2020,0xFFFF
3.136376541666666,0,0x2008,0xFFFF
3.136395375000000,0,0x9A9A,0xFFFF
3.136407458333333,0,0x2009,0xFFFF
3.136428000000000,0,0x6F6F,0xFFFF
3.136441791666666,0,0x200A,0xFFFF
3.136460541666667,0,0x4F4F,0xFFFF
3.136472666666667,0,0x6004,0xFFFF
3.136493125000000,0,0x0000,0x0000
3.136523958333334,0,0x6004,0xFFFF
3.136542500000000,0,0x0000,0x0000
3.136554833333333,0,0x2005,0xFFFF
3.136576083333333,0,0xA0A0,0xFFFF
3.136590375000000,0,0x2006,0xFFFF
3.136609125000000,0,0x0000,0xFFFF
3.136621250000000,0,0x2007,0xFFFF
3.136641958333333,0,0x5050,0xFFFF
3.136655791666667,0,0x2008,0xFFFF
3.136674625000000,0,0xA7A7,0xFFFF
3.136686708333333,0,0x2009,0xFFFF
3.136707375000000,0,0x6F6F,0xFFFF
3.136721291666666,0,0x200A,0xFFFF
3.136740041666667,0,0x4F4F,0xFFFF
3.136752125000000,0,0x6004,0xFFFF
3.136772625000000,0,0x0000,0x0000
3.136803416666667,0,0x6004,0xFFFF
3.136821916666667,0,0x0000,0x0000
3.136834125000000,0,0x2005,0xFFFF
3.136855250000000,0,0xA0A0,0xFFFF
3.136869541666667,0,0x2006,0xFFFF
3.136888333333333,0,0x0000,0xFFFF
3.136900250000000,0,0x2007,0xFFFF
3.136921000000000,0,0x5050,0xFFFF
3.136934958333333,0,0x2008,0xFFFF
3.136953708333333,0,0xEEEE,0xFFFF
3.136965791666666,0,0x2009,0xFFFF
3.136986458333333,0,0x2222,0xFFFF
3.137000625000000,0,0x200A,0xFFFF
3.137019375000000,0,0x4F4F,0xFFFF
3.137031500000000,0,0x6004,0xFFFF
3.137051875000000,0,0x0000,0x0000
3.137082875000000,0,0x6004,0xFFFF
3.137101500000000,0,0x0000,0x0000
3.137113750000000,0,0x2005,0xFFFF
3.137134916666667,0,0xA0A0,0xFFFF
3.137149250000000,0,0x2006,0xFFFF
3.137168083333334,0,0x0000,0xFFFF
3.137180208333334,0,0x2007,0xFFFF
3.137200875000000,0,0x3030,0xFFFF
3.137215000000000,0,0x2008,0xFFFF
3.137233791666667,0,0x0C0C,0xFFFF
3.137245916666667,0,0x2009,0xFFFF
3.137266666666667,0,0x8989,0xFFFF
3.137280625000000,0,0x200A,0xFFFF
3.137299291666667,0,0x4F4F,0xFFFF
3.137311208333333,0,0x6004,0xFFFF
3.137331708333333,0,0x0000,0x0000
3.137362583333333,0,0x6004,0xFFFF
3.137381541666667,0,0x0000,0x0000
3.137393875000000,0,0x2005,0xFFFF
3.137415041666667,0,0xA0A0,0xFFFF
3.137429166666667,0,0x2006,0xFFFF
3.137447958333333,0,0x0000,0xFFFF
3.137460000000000,0,0x2007,0xFFFF
3.137480666666667,0,0x2020,0xFFFF
3.137494708333334,0,0x2008,0xFFFF
3.137513500000000,0,0x0000,0xFFFF
3.137525458333333,0,0x2009,0xFFFF
3.137546125000000,0,0x8080,0xFFFF
3.137559916666667,0,0x200A,0xFFFF
3.137578666666667,0,0x4F4F,0xFFFF
3.137590750000000,0,0x6004,0xFFFF
3.137611250000000,0,0x0000,0x0000
3.137642458333334,0,0x6004,0xFFFF
3.137661041666667,0,0x0000,0x0000
3.137673291666667,0,0x2005,0xFFFF
3.137694041666667,0,0xA0A0,0xFFFF
3.137705958333334,0,0x2006,0xFFFF
3.137727000000000,0,0x0000,0xFFFF
3.137741250000000,0,0x2007,0xFFFF
3.137759875000000,0,0x0000,0xFFFF
3.137771916666667,0,0x2008,0xFFFF
3.137792708333333,0,0x4E4E,0xFFFF
3.137806625000000,0,0x2009,0xFFFF
3.137825458333333,0,0x2323,0xFFFF
3.137837500000000,0,0x200A,0xFFFF
3.137858333333333,0,0x4F4F,0xFFFF
3.137872333333333,0,0x6004,0xFFFF
3.137890958333333,0,0x0000,0x0000
3.137921416666666,0,0x6004,0xFFFF
3.137942458333333,0,0x0000,0x0000
3.137956958333334,0,0x2005,0xFFFF
3.137976250000000,0,0xA0A0,0xFFFF
3.137988541666667,0,0x2006,0xFFFF
3.138009291666667,0,0x0000,0xFFFF
3.138023291666667,0,0x2007,0xFFFF
3.138042083333333,0,0x3030,0xFFFF
3.138054250000000,0,0x2008,0xFFFF
3.138074875000000,0,0xACAC,0xFFFF
3.138088791666667,0,0x2009,0xFFFF
3.138107458333333,0,0x8888,0xFFFF
3.138119625000000,0,0x200A,0xFFFF
3.138140375000000,0,0x4F4F,0xFFFF
3.138154250000000,0,0x6004,0xFFFF
3.138172875000000,0,0x0000,0x0000
3.138202416666667,0,0x6004,0xFFFF
3.138223166666667,0,0x0000,0x0000
3.138237500000000,0,0x2005,0xFFFF
3.138256625000000,0,0xA0A0,0xFFFF
3.138269083333333,0,0x2006,0xFFFF
3.138289708333333,0,0x0000,0xFFFF
3.138303708333333,0,0x2007,0xFFFF
3.138322500000000,0,0x4040,0xFFFF
3.138334750000000,0,0x2008,0xFFFF
3.138355333333333,0,0x0000,0xFFFF
3.138369208333333,0,0x2009,0xFFFF
3.138387958333333,0,0x8080,0xFFFF
3.138400000000000,0,0x200A,0xFFFF
3.138420541666667,0,0x4F4F,0xFFFF
3.138434583333333,0,0x6004,0xFFFF
3.138453166666667,0,0x0000,0x0000
3.138482791666667,0,0x6004,0xFFFF
3.138503750000000,0,0x0000,0x0000
3.138518208333333,0,0x2005,0xFFFF
3.138537333333333,0,0xA0A0,0xFFFF
3.138549583333333,0,0x2006,0xFFFF
3.138570250000000,0,0x0000,0xFFFF
3.138584166666667,0,0x2007,0xFFFF
3.138603041666667,0,0x5050,0xFFFF
3.138615041666667,0,0x2008,0xFFFF
3.138635791666667,0,0x8E8E,0xFFFF
3.138649791666666,0,0x2009,0xFFFF
3.138668541666667,0,0x2222,0xFFFF
3.138680666666667,0,0x200A,0xFFFF
3.138701208333333,0,0x4F4F,0xFFFF
3.138715291666667,0,0x6004,0xFFFF
3.138733833333333,0,0x0000,0x0000
3.138763125000000,0,0x6004,0xFFFF
3.138783958333333,0,0x0000,0x0000
3.138798250000000,0,0x2005,0xFFFF
3.138817375000000,0,0xA0A0,0xFFFF
3.138829583333334,0,0x2006,0xFFFF
3.138850208333333,0,0x0000,0xFFFF
3.138864083333333,0,0x2007,0xFFFF
3.138882875000000,0,0x3030,0xFFFF
3.138895125000000,0,0x2008,0xFFFF
3.138915875000000,0,0xECEC,0xFFFF
3.138929625000000,0,0x2009,0xFFFF
3.138948458333333,0,0x8888,0xFFFF
3.138960666666667,0,0x200A,0xFFFF
3.138981375000000,0,0x4F4F,0xFFFF
3.138995333333333,0,0x6004,0xFFFF
3.139013875000000,0,0x0000,0x0000
3.139043125000000,0,0x6004,0xFFFF
3.139063916666667,0,0x0000,0x0000
3.139078166666667,0,0x2005,0xFFFF
3.139097375000000,0,0xA0A0,0xFFFF
3.139109708333333,0,0x2006,0xFFFF
3.139130291666667,0,0x0000,0xFFFF
3.139144125000000,0,0x2007,0xFFFF
3.139162958333333,0,0x2020,0xFFFF
3.139175291666667,0,0x2008,0xFFFF
3.139196041666667,0,0x0000,0xFFFF
3.139209875000000,0,0x2009,0xFFFF
3.139228583333333,0,0x8080,0xFFFF
3.139240583333333,0,0x200A,0xFFFF
3.139261208333334,0,0x4F4F,0xFFFF
3.139275125000000,0,0x6004,0xFFFF
3.139293750000000,0,0x0000,0x0000
3.139323041666667,0,0x6004,0xFFFF
3.139344041666666,0,0x0000,0x0000
3.139358291666666,0,0x2005,0xFFFF
3.139377291666666,0,0xA0A0,0xFFFF
3.139389666666667,0,0x2006,0xFFFF
3.139410458333333,0,0x0000,0xFFFF
3.139424375000000,0,0x2007,0xFFFF
3.139443125000000,0,0x0000,0xFFFF
3.139455166666667,0,0x2008,0xFFFF
3.139475833333333,0,0x0101,0xFFFF
3.139489708333334,0,0x2009,0xFFFF
3.139508458333333,0,0x8080,0xFFFF
3.139520416666667,0,0x200A,0xFFFF
3.139541166666667,0,0x4F4F,0xFFFF
3.139555083333333,0,0x6004,0xFFFF
3.139573625000000,0,0x0000,0x0000
3.139602958333333,0,0x6004,0xFFFF
3.139623833333333,0,0x0000,0x0000
3.139638083333333,0,0x2005,0xFFFF
3.139657291666667,0,0xA0A0,0xFFFF
3.139669458333334,0,0x2006,0xFFFF
3.139690291666667,0,0x0000,0xFFFF
3.139704208333333,0,0x2007,0xFFFF
3.139723041666667,0,0x5050,0xFFFF
3.139735166666667,0,0x2008,0xFFFF
3.139755916666667,0,0x0000,0xFFFF
3.139769833333333,0,0x2009,0xFFFF
3.139788625000000,0,0xA4A4,0xFFFF
3.139800625000000,0,0x200A,0xFFFF
3.139821333333333,0,0x4F4F,0xFFFF
3.139835125000000,0,0x6004,0xFFFF
3.139853833333333,0,0x0000,0x0000
3.139882916666667,0,0x6004,0xFFFF
3.139903833333333,0,0x0000,0x0000
3.139918166666666,0,0x2005,0xFFFF
3.139937375000000,0,0xA0A0,0xFFFF
3.139949708333333,0,0x2006,0xFFFF
3.139970666666667,0,0x0000,0xFFFF
3.139984583333333,0,0x2007,0xFFFF
3.140003291666666,0,0x5050,0xFFFF
3.140015458333334,0,0x2008,0xFFFF
3.140036208333334,0,0xC6C6,0xFFFF
3.140050000000000,0,0x2009,0xFFFF
3.140068875000000,0,0x6A6A,0xFFFF
3.140080916666667,0,0x200A,0xFFFF
3.140101625000000,0,0x4F4F,0xFFFF
3.140115500000000,0,0x6004,0xFFFF
3.140134000000000,0,0x0000,0x0000
3.140163041666667,0,0x6004,0xFFFF
3.140183958333334,0,0x0000,0x0000
3.140198291666667,0,0x2005,0xFFFF
3.140217333333333,0,0xA0A0,0xFFFF
3.140229458333333,0,0x2006,0xFFFF
3.140250000000000,0,0x0000,0xFFFF
3.140264000000000,0,0x2007,0xFFFF
3.140282875000000,0,0x5050,0xFFFF
3.140295041666667,0,0x2008,0xFFFF
3.140315833333333,0,0x8E8E,0xFFFF
3.140329791666667,0,0x2009,0xFFFF
3.140348583333334,0,0x2222,0xFFFF
3.140360666666667,0,0x200A,0xFFFF
3.140381375000000,0,0x4F4F,0xFFFF
3.140395375000000,0,0x6004,0xFFFF
3.140413916666667,0,0x0000,0x0000
3.140443000000000,0,0x6004,0xFFFF
3.140463750000000,0,0x0000,0x0000
3.140477916666667,0,0x2005,0xFFFF
3.140497000000000,0,0xA0A0,0xFFFF
3.140509416666667,0,0x2006,0xFFFF
3.140530041666667,0,0x0000,0xFFFF
3.140543958333333,0,0x2007,0xFFFF
3.140562791666667,0,0x2020,0xFFFF
3.140574958333334,0,0x2008,0xFFFF
3.140595750000000,0,0x0C0C,0xFFFF
3.140609708333333,0,0x2009,0xFFFF
3.140628416666666,0,0x1818,0xFFFF
3.140640583333334,0,0x200A,0xFFFF
3.140661333333334,0,0x4F4F,0xFFFF
3.140675250000000,0,0x6004,0xFFFF
3.140693791666667,0,0x0000,0x0000
3.140722833333333,0,0x6004,0xFFFF
3.140743666666667,0,0x0000,0x0000
3.140757875000000,0,0x2005,0xFFFF
3.140776875000000,0,0xA0A0,0xFFFF
3.140789166666667,0,0x2006,0xFFFF
3.140809916666667,0,0x0000,0xFFFF
3.140823750000000,0,0x2007,0xFFFF
3.140842666666666,0,0x5050,0xFFFF
3.140854875000000,0,0x2008,0xFFFF
3.140875708333333,0,0xE6E6,0xFFFF
3.140889666666667,0,0x2009,0xFFFF
3.140908416666667,0,0x8888,0xFFFF
3.140920583333333,0,0x200A,0xFFFF
3.140941250000000,0,0x4F4F,0xFFFF
3.140955208333333,0,0x6004,0xFFFF
3.140973875000000,0,0x0000,0x0000
3.141002833333333,0,0x6004,0xFFFF
3.141023833333333,0,0x0000,0x0000
3.141038250000000,0,0x2005,0xFFFF
3.141057375000000,0,0xA0A0,0xFFFF
3.141069750000000,0,0x2006,0xFFFF
3.141090583333333,0,0x0000,0xFFFF
3.141104625000000,0,0x2007,0xFFFF
3.141123583333334,0,0x2020,0xFFFF
3.141135625000000,0,0x2008,0xFFFF
3.141156458333333,0,0x0000,0xFFFF
3.141170375000000,0,0x2009,0xFFFF
3.141189166666666,0,0x8080,0xFFFF
3.141201291666667,0,0x200A,0xFFFF
3.141222083333334,0,0x4F4F,0xFFFF
3.141236041666667,0,0x6004,0xFFFF
3.141254750000000,0,0x0000,0x0000
3.141284375000000,0,0x6004,0xFFFF
3.141305333333333,0,0x0000,0x0000
3.141319500000000,0,0x2005,0xFFFF
3.141338666666667,0,0xA0A0,0xFFFF
3.141351041666667,0,0x2006,0xFFFF
3.141371875000000,0,0x0000,0xFFFF
3.141385791666667,0,0x2007,0xFFFF
3.141404750000000,0,0x0000,0xFFFF
3.141416875000000,0,0x2008,0xFFFF
3.141437541666667,0,0x0E0E,0xFFFF
3.141451458333334,0,0x2009,0xFFFF
3.141470291666667,0,0x2323,0xFFFF
3.141482375000000,0,0x200A,0xFFFF
3.141502958333333,0,0x4F4F,0xFFFF
3.141516875000000,0,0x6004,0xFFFF
3.141535500000000,0,0x0000,0x0000
3.141564500000000,0,0x6004,0xFFFF
3.141585291666666,0,0x0000,0x0000
3.141599583333333,0,0x2005,0xFFFF
3.141618666666667,0,0xA0A0,0xFFFF
3.141630958333333,0,0x2006,0xFFFF
3.141651583333333,0,0x0000,0xFFFF
3.141665333333334,0,0x2007,0xFFFF
3.141684125000000,0,0x3030,0xFFFF
3.141696291666667,0,0x2008,0xFFFF
3.141717041666667,0,0x2C2C,0xFFFF
3.141730958333333,0,0x2009,0xFFFF
3.141749666666667,0,0x8A8A,0xFFFF
3.141761750000000,0,0x200A,0xFFFF
3.141782458333333,0,0x4F4F,0xFFFF
3.141796333333333,0,0x6004,0xFFFF
3.141814875000000,0,0x0000,0x0000
3.141844166666667,0,0x6004,0xFFFF
3.141865083333333,0,0x0000,0x0000
3.141879291666667,0,0x2005,0xFFFF
3.141898375000000,0,0xA0A0,0xFFFF
3.141910583333333,0,0x2006,0xFFFF
3.141931125000000,0,0x0000,0xFFFF
3.141945000000000,0,0x2007,0xFFFF
3.141963750000000,0,0x5050,0xFFFF
3.141975833333333,0,0x2008,0xFFFF
3.141996500000000,0,0x8E8E,0xFFFF
3.142010375000000,0,0x2009,0xFFFF
3.142029166666667,0,0x2222,0xFFFF
3.142041416666667,0,0x200A,0xFFFF
3.142062083333333,0,0x4F4F,0xFFFF
3.142075833333333,0,0x6004,0xFFFF
3.142094416666667,0,0x0000,0x0000
3.142123333333333,0,0x6004,0xFFFF
3.142143958333333,0,0x0000,0x0000
3.142158291666667,0,0x2005,0xFFFF
3.142177416666667,0,0xA0A0,0xFFFF
3.142189833333333,0,0x2006,0xFFFF
3.142210625000000,0,0x0000,0xFFFF
3.142224416666667,0,0x2007,0xFFFF
3.142243166666667,0,0x2020,0xFFFF
3.142255208333333,0,0x2008,0xFFFF
3.142275875000000,0,0xCCCC,0xFFFF
3.142289791666667,0,0x2009,0xFFFF
3.142308625000000,0,0x2E2E,0xFFFF
3.142320833333333,0,0x200A,0xFFFF
3.142341500000000,0,0x4F4F,0xFFFF
3.142355333333333,0,0x6004,0xFFFF
3.142373958333333,0,0x0000,0x0000
3.142402791666667,0,0x6004,0xFFFF
3.142423666666667,0,0x0000,0x0000
3.142437958333333,0,0x2005,0xFFFF
3.142457000000000,0,0xA0A0,0xFFFF
3.142469291666667,0,0x2006,0xFFFF
3.142490041666667,0,0x0000,0xFFFF
3.142503708333333,0,0x2007,0xFFFF
3.142522500000000,0,0x5050,0xFFFF
3.142534750000000,0,0x2008,0xFFFF
3.142555416666667,0,0xA0A0,0xFFFF
3.142569333333333,0,0x2009,0xFFFF
3.142588041666666,0,0xA9A9,0xFFFF
3.142600166666667,0,0x200A,0xFFFF
3.142620708333333,0,0x4F4F,0xFFFF
3.142634625000000,0,0x6004,0xFFFF
3.142653166666667,0,0x0000,0x0000
3.142682166666667,0,0x6004,0xFFFF
3.142703041666667,0,0x0000,0x0000
3.142717375000000,0,0x2005,0xFFFF
3.142736416666667,0,0xA0A0,0xFFFF
3.142748791666667,0,0x2006,0xFFFF
3.142769500000000,0,0x0000,0xFFFF
3.142783375000000,0,0x2007,0xFFFF
3.142802208333333,0,0x5050,0xFFFF
3.142814375000000,0,0x2008,0xFFFF
3.142835166666667,0,0x8E8E,0xFFFF
3.142849125000000,0,0x2009,0xFFFF
3.142867916666667,0,0x2222,0xFFFF
3.142880000000000,0,0x200A,0xFFFF
3.142900583333333,0,0x4F4F,0xFFFF
3.142914583333333,0,0x6004,0xFFFF
3.142933166666666,0,0x0000,0x0000
3.142962250000000,0,0x6004,0xFFFF
3.142982916666667,0,0x0000,0x0000
3.142997041666667,0,0x2005,0xFFFF
3.143016083333333,0,0xA0A0,0xFFFF
3.143028375000000,0,0x2006,0xFFFF
3.143049041666667,0,0x0000,0xFFFF
3.143062958333333,0,0x2007,0xFFFF
3.143081833333333,0,0x2020,0xFFFF
3.143093833333333,0,0x2008,0xFFFF
3.143114625000000,0,0xECEC,0xFFFF
3.143128541666667,0,0x2009,0xFFFF
3.143147333333333,0,0xD1D1,0xFFFF
3.143159500000000,0,0x200A,0xFFFF
3.143180250000000,0,0x4F4F,0xFFFF
3.143194041666667,0,0x6004,0xFFFF
3.143212583333333,0,0x0000,0x0000
3.143241666666666,0,0x6004,0xFFFF
3.143262541666667,0,0x0000,0x0000
3.143276791666667,0,0x2005,0xFFFF
3.143295833333333,0,0xA0A0,0xFFFF
3.143308166666666,0,0x2006,0xFFFF
3.143328916666666,0,0x0000,0xFFFF
3.143342791666667,0,0x2007,0xFFFF
3.143361541666667,0,0x5050,0xFFFF
3.143373625000000,0,0x2008,0xFFFF
3.143394208333333,0,0xC6C6,0xFFFF
3.143407916666667,0,0x2009,0xFFFF
3.143426750000000,0,0x2929,0xFFFF
3.143438708333333,0,0x200A,0xFFFF
3.143459291666667,0,0x4F4F,0xFFFF
3.143473166666667,0,0x6004,0xFFFF
3.143491708333333,0,0x0000,0x0000
3.143520791666667,0,0x6004,0xFFFF
3.143541500000000,0,0x0000,0x0000
3.143555875000000,0,0x2005,0xFFFF
3.143574958333333,0,0xA0A0,0xFFFF
3.143587250000000,0,0x2006,0xFFFF
3.143608041666667,0,0x0000,0xFFFF
3.143621958333333,0,0x2007,0xFFFF
3.143640750000000,0,0x5050,0xFFFF
3.143653041666667,0,0x2008,0xFFFF
3.143673750000000,0,0xA4A4,0xFFFF
3.143687875000000,0,0x2009,0xFFFF
3.143706625000000,0,0x2929,0xFFFF
3.143718750000000,0,0x200A,0xFFFF
3.143739500000000,0,0x4F4F,0xFFFF
3.143753416666667,0,0x6004,0xFFFF
3.143771958333333,0,0x0000,0x0000
3.143800833333333,0,0x6004,0xFFFF
3.143821750000000,0,0x0000,0x0000
3.143836041666667,0,0x2005,0xFFFF
3.143855041666667,0,0xA0A0,0xFFFF
3.143867333333333,0,0x2006,0xFFFF
3.143888041666667,0,0x0000,0xFFFF
3.143901875000000,0,0x2007,0xFFFF
3.143920583333333,0,0x5050,0xFFFF
3.143932541666667,0,0x2008,0xFFFF
3.143953125000000,0,0x8E8E,0xFFFF
3.143967041666667,0,0x2009,0xFFFF
3.143985750000000,0,0x2222,0xFFFF
3.143997791666667,0,0x200A,0xFFFF
3.144018500000000,0,0x4F4F,0xFFFF
3.144032458333333,0,0x6004,0xFFFF
3.144051000000000,0,0x0000,0x0000
3.144079958333333,0,0x6004,0xFFFF
3.144100750000000,0,0x0000,0x0000
3.144115041666667,0,0x2005,0xFFFF
3.144134041666667,0,0xA0A0,0xFFFF
3.144146250000000,0,0x2006,0xFFFF
3.144166958333333,0,0x0000,0xFFFF
3.144181000000000,0,0x2007,0xFFFF
3.144199875000000,0,0x0000,0xFFFF
3.144211916666667,0,0x2008,0xFFFF
3.144232666666666,0,0x4C4C,0xFFFF
3.144246625000000,0,0x2009,0xFFFF
3.144265500000000,0,0xEBEB,0xFFFF
3.144277625000000,0,0x200A,0xFFFF
3.144298083333333,0,0x4F4F,0xFFFF
3.144312041666667,0,0x6004,0xFFFF
3.144330666666667,0,0x0000,0x0000
3.144359708333333,0,0x6004,0xFFFF
3.144380500000000,0,0x0000,0x0000
3.144394875000000,0,0x2005,0xFFFF
3.144413875000000,0,0xA0A0,0xFFFF
3.144426041666667,0,0x2006,0xFFFF
3.144446625000000,0,0x0000,0xFFFF
3.144460500000000,0,0x2007,0xFFFF
3.144479250000000,0,0x3030,0xFFFF
3.144491416666667,0,0x2008,0xFFFF
3.144512208333333,0,0x0000,0xFFFF
3.144526041666666,0,0x2009,0xFFFF
3.144544833333333,0,0x8080,0xFFFF
3.144556958333333,0,0x200A,0xFFFF
3.144577583333333,0,0x4F4F,0xFFFF
3.144591583333333,0,0x6004,0xFFFF
3.144610333333334,0,0x0000,0x0000
3.144639166666667,0,0x6004,0xFFFF
3.144660083333333,0,0x0000,0x0000
3.144674416666667,0,0x2005,0xFFFF
3.144693333333333,0,0xA0A0,0xFFFF
3.144705583333333,0,0x2006,0xFFFF
3.144726250000000,0,0x0000,0xFFFF
3.144740166666667,0,0x2007,0xFFFF
3.144758958333334,0,0x5050,0xFFFF
3.144771125000000,0,0x2008,0xFFFF
3.144791791666667,0,0x4E4E,0xFFFF
3.144805708333333,0,0x2009,0xFFFF
3.144824541666666,0,0x2323,0xFFFF
3.144836625000000,0,0x200A,0xFFFF
3.144857208333333,0,0x4F4F,0xFFFF
3.144871083333333,0,0x6004,0xFFFF
3.144889666666667,0,0x0000,0x0000
3.144918708333333,0,0x6004,0xFFFF
3.144939375000000,0,0x0000,0x0000
3.144953583333333,0,0x2005,0xFFFF
3.144972583333333,0,0xA0A0,0xFFFF
3.144984875000000,0,0x2006,0xFFFF
3.145005541666666,0,0x0000,0xFFFF
3.145019458333334,0,0x2007,0xFFFF
3.145038375000000,0,0x3030,0xFFFF
3.145050500000000,0,0x2008,0xFFFF
3.145071083333333,0,0x8C8C,0xFFFF
3.145085000000000,0,0x2009,0xFFFF
3.145103750000000,0,0x8B8B,0xFFFF
3.145115791666667,0,0x200A,0xFFFF
3.145136500000000,0,0x4F4F,0xFFFF
3.145152541666667,0,0x6004,0xFFFF
3.145191375000000,0,0x0000,0x0000
3.145222458333333,0,0x6004,0xFFFF
3.145243291666667,0,0x0000,0x0000
3.145257708333333,0,0x2005,0xFFFF
3.145282625000000,0,0xA0A0,0xFFFF
3.145295416666666,0,0x2006,0xFFFF
3.145316875000000,0,0x0000,0xFFFF
3.145332875000000,0,0x2007,0xFFFF
3.145351791666667,0,0x5050,0xFFFF
3.145364541666666,0,0x2008,0xFFFF
3.145384666666667,0,0xC0C0,0xFFFF
3.145397750000000,0,0x2009,0xFFFF
3.145416583333333,0,0x3030,0xFFFF
3.145428583333334,0,0x200A,0xFFFF
3.145448416666667,0,0x4F4F,0xFFFF
3.145461375000000,0,0x6004,0xFFFF
3.145479916666666,0,0x0000,0x0000
3.145509208333333,0,0x6004,0xFFFF
3.145529083333333,0,0x0000,0x0000
3.145542458333333,0,0x2005,0xFFFF
3.145561625000000,0,0xA0A0,0xFFFF
3.145573916666667,0,0x2006,0xFFFF
3.145593708333333,0,0x0000,0xFFFF
3.145606583333334,0,0x2007,0xFFFF
3.145625500000000,0,0x5050,0xFFFF
3.145637666666667,0,0x2008,0xFFFF
3.145657416666667,0,0xEEEE,0xFFFF
3.145670291666667,0,0x2009,0xFFFF
3.145689083333334,0,0xA2A2,0xFFFF
3.145701083333333,0,0x200A,0xFFFF
3.145720791666667,0,0x4F4F,0xFFFF
3.145733583333334,0,0x6004,0xFFFF
3.145752125000000,0,0x0000,0x0000
3.145781666666667,0,0x6004,0xFFFF
3.145801541666667,0,0x0000,0x0000
3.145814708333333,0,0x2005,0xFFFF
3.145833791666667,0,0xA0A0,0xFFFF
3.145846166666667,0,0x2006,0xFFFF
3.145865875000000,0,0x0000,0xFFFF
3.145878791666667,0,0x2007,0xFFFF
3.145897583333333,0,0x3030,0xFFFF
3.145909750000000,0,0x2008,0xFFFF
3.145929541666667,0,0x4C4C,0xFFFF
3.145942375000000,0,0x2009,0xFFFF
3.145961291666667,0,0x8C8C,0xFFFF
3.145973375000000,0,0x200A,0xFFFF
3.145993041666667,0,0x4F4F,0xFFFF
3.146005916666667,0,0x6004,0xFFFF
3.146024500000000,0,0x0000,0x0000
3.146053583333333,0,0x6004,0xFFFF
3.146073416666667,0,0x0000,0x0000
3.146086583333333,0,0x2005,0xFFFF
3.146105583333333,0,0xA0A0,0xFFFF
3.146117750000000,0,0x2006,0xFFFF
3.146137541666667,0,0x0000,0xFFFF
3.146150416666667,0,0x2007,0xFFFF
3.146169208333333,0,0x5050,0xFFFF
3.146181500000000,0,0x2008,0xFFFF
3.146201291666667,0,0x6666,0xFFFF
3.146214041666667,0,0x2009,0xFFFF
3.146232875000000,0,0x6969,0xFFFF
3.146244958333333,0,0x200A,0xFFFF
3.146264625000000,0,0x4F4F,0xFFFF
3.146277458333333,0,0x6004,0xFFFF
3.146296000000000,0,0x0000,0x0000
3.146325541666667,0,0x6004,0xFFFF
3.146345291666667,0,0x0000,0x0000
3.146358583333333,0,0x2005,0xFFFF
3.146377750000000,0,0xA0A0,0xFFFF
3.146390125000000,0,0x2006,0xFFFF
3.146409791666667,0,0x0000,0xFFFF
3.146422583333333,0,0x2007,0xFFFF
3.146441333333333,0,0x5050,0xFFFF
3.146453375000000,0,0x2008,0xFFFF
3.146473125000000,0,0x2424,0xFFFF
3.146485916666667,0,0x2009,0xFFFF
3.146504666666667,0,0x3030,0xFFFF
3.146516791666667,0,0x200A,0xFFFF
3.146536458333333,0,0x4F4F,0xFFFF
3.146549333333333,0,0x6004,0xFFFF
3.146568041666667,0,0x0000,0x0000
3.146596958333333,0,0x6004,0xFFFF
3.146616708333333,0,0x0000,0x0000
3.146629916666666,0,0x2005,0xFFFF
3.146648916666666,0,0xA0A0,0xFFFF
3.146661291666667,0,0x2006,0xFFFF
3.146680958333333,0,0x0000,0xFFFF
3.146693708333333,0,0x2007,0xFFFF
3.146712416666666,0,0x5050,0xFFFF
3.146724500000000,0,0x2008,0xFFFF
3.146744041666667,0,0x6666,0xFFFF
3.146756833333333,0,0x2009,0xFFFF
3.146775583333334,0,0x2121,0xFFFF
3.146787791666667,0,0x200A,0xFFFF
3.146807416666667,0,0x4F4F,0xFFFF
3.146820208333333,0,0x6004,0xFFFF
3.146838750000000,0,0x0000,0x0000
3.146867875000000,0,0x6004,0xFFFF
3.146887708333333,0,0x0000,0x0000
3.146900916666667,0,0x2005,0xFFFF
3.146919958333333,0,0xA0A0,0xFFFF
3.146932250000000,0,0x2006,0xFFFF
3.146951958333333,0,0x0000,0xFFFF
3.146964708333333,0,0x2007,0xFFFF
3.146983583333333,0,0x5050,0xFFFF
3.146995666666667,0,0x2008,0xFFFF
3.147015125000000,0,0x8484,0xFFFF
3.147027916666667,0,0x2009,0xFFFF
3.147046666666667,0,0x3030,0xFFFF
3.147058708333333,0,0x200A,0xFFFF
3.147078333333333,0,0x4F4F,0xFFFF
3.147091291666666,0,0x6004,0xFFFF
3.147109875000000,0,0x0000,0x0000
3.147139416666667,0,0x6004,0xFFFF
3.147159291666667,0,0x0000,0x0000
3.147172416666667,0,0x2005,0xFFFF
3.147191416666667,0,0xA0A0,0xFFFF
3.147203791666667,0,0x2006,0xFFFF
3.147223458333333,0,0x0000,0xFFFF
3.147236083333333,0,0x2007,0xFFFF
3.147254916666667,0,0x5050,0xFFFF
3.147267208333334,0,0x2008,0xFFFF
3.147286875000000,0,0xA6A6,0xFFFF
3.147299625000000,0,0x2009,0xFFFF
3.147318500000000,0,0x2929,0xFFFF
3.147330625000000,0,0x200A,0xFFFF
3.147350291666667,0,0x4F4F,0xFFFF
3.147362958333333,0,0x6004,0xFFFF
3.147381583333333,0,0x0000,0x0000
3.147410375000000,0,0x6004,0xFFFF
3.147430125000000,0,0x0000,0x0000
3.147443333333333,0,0x2005,0xFFFF
3.147462333333333,0,0xA0A0,0xFFFF
3.147474583333334,0,0x2006,0xFFFF
3.147494333333333,0,0x0000,0xFFFF
3.147507125000000,0,0x2007,0xFFFF
3.147525833333333,0,0x2020,0xFFFF
3.147537958333333,0,0x2008,0xFFFF
3.147557541666667,0,0x0606,0xFFFF
3.147570291666667,0,0x2009,0xFFFF
3.147589125000000,0,0x4040,0xFFFF
3.147601291666667,0,0x200A,0xFFFF
3.147620916666667,0,0x4F4F,0xFFFF
3.147633750000000,0,0x6004,0xFFFF
3.147652333333333,0,0x0000,0x0000
3.147681250000000,0,0x6004,0xFFFF
3.147701000000000,0,0x0000,0x0000
3.147714125000000,0,0x2005,0xFFFF
3.147733208333333,0,0xA0A0,0xFFFF
3.147745500000000,0,0x2006,0xFFFF
3.147765166666667,0,0x0000,0xFFFF
3.147778000000000,0,0x2007,0xFFFF
3.147796708333333,0,0x3030,0xFFFF
3.147808833333333,0,0x2008,0xFFFF
3.147828625000000,0,0x0000,0xFFFF
3.147841458333333,0,0x2009,0xFFFF
3.147860208333333,0,0x8080,0xFFFF
3.147872250000000,0,0x200A,0xFFFF
3.147891916666667,0,0x4F4F,0xFFFF
3.147904708333333,0,0x6004,0xFFFF
3.147923166666667,0,0x0000,0x0000
3.147952041666667,0,0x6004,0xFFFF
3.147971708333333,0,0x0000,0x0000
3.147984958333333,0,0x2005,0xFFFF
3.148004125000000,0,0xA0A0,0xFFFF
3.148016458333333,0,0x2006,0xFFFF
3.148036208333334,0,0x0000,0xFFFF
3.148049083333333,0,0x2007,0xFFFF
3.148067791666667,0,0x5050,0xFFFF
3.148079875000000,0,0x2008,0xFFFF
3.148099458333333,0,0x4E4E,0xFFFF
3.148112250000000,0,0x2009,0xFFFF
3.148131083333333,0,0x2323,0xFFFF
3.148143250000000,0,0x200A,0xFFFF
3.148162833333333,0,0x4F4F,0xFFFF
3.148175666666666,0,0x6004,0xFFFF
3.148194208333333,0,0x0000,0x0000
3.148223041666667,0,0x6004,0xFFFF
3.148242833333333,0,0x0000,0x0000
3.148256083333334,0,0x2005,0xFFFF
3.148275208333333,0,0xA0A0,0xFFFF
3.148287583333333,0,0x2006,0xFFFF
3.148307166666667,0,0x0000,0xFFFF
3.148320083333333,0,0x2007,0xFFFF
3.148338916666667,0,0x3030,0xFFFF
3.148351041666666,0,0x2008,0xFFFF
3.148370666666667,0,0x0C0C,0xFFFF
3.148383583333333,0,0x2009,0xFFFF
3.148402458333333,0,0x8D8D,0xFFFF
3.148414625000000,0,0x200A,0xFFFF
3.148434333333333,0,0x4F4F,0xFFFF
3.148447291666667,0,0x6004,0xFFFF
3.148465791666667,0,0x0000,0x0000
3.148494791666667,0,0x6004,0xFFFF
3.148514458333334,0,0x0000,0x0000
3.148527583333333,0,0x2005,0xFFFF
3.148546666666667,0,0xA0A0,0xFFFF
3.148558791666667,0,0x2006,0xFFFF
3.148578541666667,0,0x0000,0xFFFF
3.148591416666667,0,0x2007,0xFFFF
3.148610125000000,0,0x5050,0xFFFF
3.148622250000000,0,0x2008,0xFFFF
3.148641958333333,0,0xA0A0,0xFFFF
3.148654708333333,0,0x2009,0xFFFF
3.148673583333333,0,0x2929,0xFFFF
3.148685541666667,0,0x200A,0xFFFF
3.148705125000000,0,0x4F4F,0xFFFF
3.148717958333333,0,0x6004,0xFFFF
3.148736625000000,0,0x0000,0x0000
3.148765625000000,0,0x6004,0xFFFF
3.148785333333334,0,0x0000,0x0000
3.148798541666667,0,0x2005,0xFFFF
3.148817500000000,0,0xA0A0,0xFFFF
3.148829750000000,0,0x2006,0xFFFF
3.148849458333333,0,0x0000,0xFFFF
3.148862333333333,0,0x2007,0xFFFF
3.148881000000000,0,0x5050,0xFFFF
3.148893208333333,0,0x2008,0xFFFF
3.148912958333333,0,0xEEEE,0xFFFF
3.148925708333334,0,0x2009,0xFFFF
3.148944500000000,0,0xA2A2,0xFFFF
3.148956666666667,0,0x200A,0xFFFF
3.148976375000000,0,0x4F4F,0xFFFF
3.148989208333334,0,0x6004,0xFFFF
3.149007791666667,0,0x0000,0x0000
3.149036875000000,0,0x6004,0xFFFF
3.149056625000000,0,0x0000,0x0000
3.149069791666667,0,0x2005,0xFFFF
3.149088791666667,0,0xA0A0,0xFFFF
3.149101041666666,0,0x2006,0xFFFF
3.149120625000000,0,0x0000,0xFFFF
3.149133416666666,0,0x2007,0xFFFF
3.149152125000000,0,0x0000,0xFFFF
3.149164166666667,0,0x2008,0xFFFF
3.149183750000000,0,0x6C6C,0xFFFF
3.149196541666667,0,0x2009,0xFFFF
3.149215250000000,0,0xD8D8,0xFFFF
3.149227250000000,0,0x200A,0xFFFF
3.149246750000000,0,0x4F4F,0xFFFF
3.149259541666667,0,0x6004,0xFFFF
3.149278125000000,0,0x0000,0x0000
3.149307041666667,0,0x6004,0xFFFF
3.149326833333333,0,0x0000,0x0000
3.149340041666667,0,0x2005,0xFFFF
3.149359125000000,0,0xA0A0,0xFFFF
3.149371375000000,0,0x2006,0xFFFF
3.149390833333333,0,0x0000,0xFFFF
3.149403583333333,0,0x2007,0xFFFF
3.149422291666667,0,0x5050,0xFFFF
3.149434333333333,0,0x2008,0xFFFF
3.149454000000000,0,0x6666,0xFFFF
3.149466875000000,0,0x2009,0xFFFF
3.149485625000000,0,0x2121,0xFFFF
3.149497708333334,0,0x200A,0xFFFF
3.149517416666667,0,0x4F4F,0xFFFF
3.149530291666667,0,0x6004,0xFFFF
3.149548833333333,0,0x0000,0x0000
3.149578250000000,0,0x6004,0xFFFF
3.149598208333333,0,0x0000,0x0000
3.149611458333333,0,0x2005,0xFFFF
3.149630416666667,0,0xA0A0,0xFFFF
3.149642833333334,0,0x2006,0xFFFF
3.149662375000000,0,0x0000,0xFFFF
3.149675083333333,0,0x2007,0xFFFF
3.149693833333334,0,0x5050,0xFFFF
3.149706083333333,0,0x2008,0xFFFF
3.149725625000000,0,0x0404,0xFFFF
3.149738416666667,0,0x2009,0xFFFF
3.149757166666667,0,0x2C2C,0xFFFF
3.149769333333333,0,0x200A,0xFFFF
3.149788958333333,0,0x4F4F,0xFFFF
3.149801791666667,0,0x6004,0xFFFF
3.149820291666667,0,0x0000,0x0000
3.149849250000000,0,0x6004,0xFFFF
3.149868833333333,0,0x0000,0x0000
3.149881916666667,0,0x2005,0xFFFF
3.149901166666667,0,0xA0A0,0xFFFF
3.149913416666667,0,0x2006,0xFFFF
3.149933083333333,0,0x0000,0xFFFF
3.149946000000000,0,0x2007,0xFFFF
3.149964958333333,0,0x5050,0xFFFF
3.149977166666666,0,0x2008,0xFFFF
3.149996875000000,0,0x8E8E,0xFFFF
3.150009583333333,0,0x2009,0xFFFF
3.150028416666667,0,0x2222,0xFFFF
3.150040500000000,0,0x200A,0xFFFF
3.150060208333333,0,0x4F4F,0xFFFF
3.150073041666666,0,0x6004,0xFFFF
3.150091666666667,0,0x0000,0x0000
3.150120666666667,0,0x6004,0xFFFF
3.150140333333333,0,0x0000,0x0000
3.150153458333333,0,0x2005,0xFFFF
3.150172541666667,0,0xA0A0,0xFFFF
3.150184791666667,0,0x2006,0xFFFF
3.150204541666667,0,0x0000,0xFFFF
3.150217375000000,0,0x2007,0xFFFF
3.150236166666667,0,0x0000,0xFFFF
3.150248291666667,0,0x2008,0xFFFF
3.150268125000000,0,0x6C6C,0xFFFF
3.150280916666667,0,0x2009,0xFFFF
3.150299666666667,0,0xD8D8,0xFFFF
3.150311708333333,0,0x200A,0xFFFF
3.150331375000000,0,0x4F4F,0xFFFF
3.150344208333333,0,0x6004,0xFFFF
3.150362833333333,0,0x0000,0x0000
3.150391583333333,0,0x6004,0xFFFF
3.150411375000000,0,0x0000,0x0000
3.150424541666667,0,0x2005,0xFFFF
3.150443625000000,0,0xA0A0,0xFFFF
3.150455958333333,0,0x2006,0xFFFF
3.150475708333333,0,0x0000,0xFFFF
3.150488500000000,0,0x2007,0xFFFF
3.150507416666667,0,0x5050,0xFFFF
3.150519416666667,0,0x2008,0xFFFF
3.150539000000000,0,0x6060,0xFFFF
3.150551875000000,0,0x2009,0xFFFF
3.150570916666667,0,0x0202,0xFFFF
3.150583000000000,0,0x200A,0xFFFF
3.150602708333333,0,0x4F4F,0xFFFF
3.150615583333333,0,0x6004,0xFFFF
3.150634208333333,0,0x0000,0x0000
3.150663166666666,0,0x6004,0xFFFF
3.150682958333333,0,0x0000,0x0000
3.150696291666667,0,0x2005,0xFFFF
3.150715333333333,0,0xA0A0,0xFFFF
3.150727666666667,0,0x2006,0xFFFF
3.150747375000000,0,0x0000,0xFFFF
3.150760125000000,0,0x2007,0xFFFF
3.150778791666667,0,0x5050,0xFFFF
3.150791000000000,0,0x2008,0xFFFF
3.150810500000000,0,0x6666,0xFFFF
3.150823166666667,0,0x2009,0xFFFF
3.150842041666666,0,0x2121,0xFFFF
3.150854041666667,0,0x200A,0xFFFF
3.150873625000000,0,0x4F4F,0xFFFF
3.150886333333333,0,0x6004,0xFFFF
3.150904916666667,0,0x0000,0x0000
3.150934416666667,0,0x6004,0xFFFF
3.150954083333333,0,0x0000,0x0000
3.150967291666666,0,0x2005,0xFFFF
3.150986291666667,0,0xA0A0,0xFFFF
3.150998541666667,0,0x2006,0xFFFF
3.151018083333333,0,0x0000,0xFFFF
3.151030833333333,0,0x2007,0xFFFF
3.151049625000000,0,0x2020,0xFFFF
3.151061625000000,0,0x2008,0xFFFF
3.151081333333333,0,0x5A5A,0xFFFF
3.151094166666667,0,0x2009,0xFFFF
3.151112875000000,0,0x1C1C,0xFFFF
3.151125000000000,0,0x200A,0xFFFF
3.151144583333333,0,0x4F4F,0xFFFF
3.151157416666666,0,0x6004,0xFFFF
3.151175916666667,0,0x0000,0x0000
3.151204958333333,0,0x6004,0xFFFF
3.151224708333333,0,0x0000,0x0000
3.151237958333333,0,0x2005,0xFFFF
3.151256916666667,0,0xA0A0,0xFFFF
3.151269125000000,0,0x2006,0xFFFF
3.151288791666667,0,0x0000,0xFFFF
3.151301625000000,0,0x2007,0xFFFF
3.151320500000000,0,0x0000,0xFFFF
3.151332625000000,0,0x2008,0xFFFF
3.151352208333333,0,0x0101,0xFFFF
3.151364916666667,0,0x2009,0xFFFF
3.151383666666667,0,0x8080,0xFFFF
3.151395750000000,0,0x200A,0xFFFF
3.151415375000000,0,0x4F4F,0xFFFF
3.151428416666667,0,0x6004,0xFFFF
3.151446958333334,0,0x0000,0x0000
3.151476250000000,0,0x6004,0xFFFF
3.151496083333333,0,0x0000,0x0000
3.151509416666667,0,0x2005,0xFFFF
3.151528583333334,0,0xA0A0,0xFFFF
3.151540791666667,0,0x2006,0xFFFF
3.151560583333334,0,0x0000,0xFFFF
3.151573458333333,0,0x2007,0xFFFF
3.151592208333333,0,0x5050,0xFFFF
3.151604333333333,0,0x2008,0xFFFF
3.151623958333333,0,0x2626,0xFFFF
3.151636833333333,0,0x2009,0xFFFF
3.151655541666667,0,0xA1A1,0xFFFF
3.151667458333333,0,0x200A,0xFFFF
3.151687125000000,0,0x4F4F,0xFFFF
3.151699958333333,0,0x6004,0xFFFF
3.151718458333333,0,0x0000,0x0000
3.151747375000000,0,0x6004,0xFFFF
3.151767083333334,0,0x0000,0x0000
3.151780291666667,0,0x2005,0xFFFF
3.151799375000000,0,0xA0A0,0xFFFF
3.151811666666667,0,0x2006,0xFFFF
3.151831458333333,0,0x0000,0xFFFF
3.151844291666666,0,0x2007,0xFFFF
3.151863041666667,0,0x8080,0xFFFF
3.151875291666667,0,0x2008,0xFFFF
3.151895000000000,0,0x8686,0xFFFF
3.151907791666666,0,0x2009,0xFFFF
3.151926541666667,0,0x6B6B,0xFFFF
3.151938708333333,0,0x200A,0xFFFF
3.151958291666667,0,0x4F4F,0xFFFF
3.151971208333333,0,0x6004,0xFFFF
3.151989666666667,0,0x0000,0x0000
3.152018625000000,0,0x6004,0xFFFF
3.152038416666667,0,0x0000,0x0000
3.152051750000000,0,0x2005,0xFFFF
3.152070875000000,0,0xA0A0,0xFFFF
3.152083125000000,0,0x2006,0xFFFF
3.152102833333333,0,0x0000,0xFFFF
3.152115666666667,0,0x2007,0xFFFF
3.152134458333333,0,0x3030,0xFFFF
3.152146583333333,0,0x2008,0xFFFF
3.152166291666667,0,0x6666,0xFFFF
3.152179125000000,0,0x2009,0xFFFF
3.152197875000000,0,0x0202,0xFFFF
3.152209916666667,0,0x200A,0xFFFF
3.152229583333333,0,0x4F4F,0xFFFF
3.152242625000000,0,0x6004,0xFFFF
3.152261125000000,0,0x0000,0x0000
3.152290625000000,0,0x6004,0xFFFF
3.152310458333333,0,0x0000,0x0000
3.152323666666667,0,0x2005,0xFFFF
3.152342625000000,0,0xA0A0,0xFFFF
3.152355000000000,0,0x2006,0xFFFF
3.152374708333333,0,0x0000,0xFFFF
3.152387708333333,0,0x2007,0xFFFF
3.152406416666667,0,0x2020,0xFFFF
3.152418625000000,0,0x2008,0xFFFF
3.152438208333333,0,0x2626,0xFFFF
3.152451000000000,0,0x2009,0xFFFF
3.152469875000000,0,0xA1A1,0xFFFF
3.152481916666667,0,0x200A,0xFFFF
3.152501708333333,0,0x4F4F,0xFFFF
3.152514625000000,0,0x6004,0xFFFF
3.152533083333333,0,0x0000,0x0000
3.152561833333333,0,0x6004,0xFFFF
3.152581583333333,0,0x0000,0x0000
3.152594833333333,0,0x2005,0xFFFF
3.152613875000000,0,0xA0A0,0xFFFF
3.152626208333333,0,0x2006,0xFFFF
3.152645875000000,0,0x0000,0xFFFF
3.152658916666667,0,0x2007,0xFFFF
3.152677833333333,0,0xB0B0,0xFFFF
3.152689958333333,0,0x2008,0xFFFF
3.152709541666667,0,0x0101,0xFFFF
3.152722083333333,0,0x2009,0xFFFF
3.152740833333334,0,0x8080,0xFFFF
3.152752916666667,0,0x200A,0xFFFF
3.152772666666666,0,0x4F4F,0xFFFF
3.152785416666667,0,0x6004,0xFFFF
3.152803958333333,0,0x0000,0x0000
3.152833416666667,0,0x6004,0xFFFF
3.152853125000000,0,0x0000,0x0000
3.152866416666666,0,0x2005,0xFFFF
3.152885458333333,0,0xA0A0,0xFFFF
3.152897708333333,0,0x2006,0xFFFF
3.152917458333333,0,0x0000,0xFFFF
3.152930250000000,0,0x2007,0xFFFF
3.152949041666667,0,0x5050,0xFFFF
3.152961125000000,0,0x2008,0xFFFF
3.152980666666667,0,0x8E8E,0xFFFF
3.152993500000000,0,0x2009,0xFFFF
3.153012291666667,0,0x2222,0xFFFF
3.153024375000000,0,0x200A,0xFFFF
3.153043833333333,0,0x4F4F,0xFFFF
3.153056666666667,0,0x6004,0xFFFF
3.153075375000000,0,0x0000,0x0000
3.153104458333333,0,0x6004,0xFFFF
3.153124166666667,0,0x0000,0x0000
3.153137458333333,0,0x2005,0xFFFF
3.153156500000000,0,0xA0A0,0xFFFF
3.153168791666667,0,0x2006,0xFFFF
3.153188375000000,0,0x0000,0xFFFF
3.153201291666667,0,0x2007,0xFFFF
3.153220083333333,0,0x0000,0xFFFF
3.153232125000000,0,0x2008,0xFFFF
3.153251750000000,0,0x8C8C,0xFFFF
3.153264541666667,0,0x2009,0xFFFF
3.153283333333333,0,0xA4A4,0xFFFF
3.153295416666666,0,0x200A,0xFFFF
3.153315125000000,0,0x4F4F,0xFFFF
3.153328000000000,0,0x6004,0xFFFF
3.153346458333333,0,0x0000,0x0000
3.153375291666667,0,0x6004,0xFFFF
3.153395083333333,0,0x0000,0x0000
3.153408333333333,0,0x2005,0xFFFF
3.153427416666667,0,0xA0A0,0xFFFF
3.153439708333333,0,0x2006,0xFFFF
3.153459458333333,0,0x0000,0xFFFF
3.153472250000000,0,0x2007,0xFFFF
3.153490958333333,0,0x5050,0xFFFF
3.153503083333333,0,0x2008,0xFFFF
3.153522625000000,0,0x0606,0xFFFF
3.153535500000000,0,0x2009,0xFFFF
3.153554208333333,0,0x8080,0xFFFF
3.153566250000000,0,0x200A,0xFFFF
3.153585833333334,0,0x4F4F,0xFFFF
3.153598750000000,0,0x6004,0xFFFF
3.153617291666666,0,0x0000,0x0000
3.153646250000000,0,0x6004,0xFFFF
3.153665916666667,0,0x0000,0x0000
3.153679166666667,0,0x2005,0xFFFF
3.153698166666667,0,0xA0A0,0xFFFF
3.153710583333333,0,0x2006,0xFFFF
3.153730333333333,0,0x0000,0xFFFF
3.153743125000000,0,0x2007,0xFFFF
3.153761916666667,0,0x2020,0xFFFF
3.153774125000000,0,0x2008,0xFFFF
3.153793833333333,0,0xC8C8,0xFFFF
3.153806458333333,0,0x2009,0xFFFF
3.153825291666667,0,0x1C1C,0xFFFF
3.153837500000000,0,0x200A,0xFFFF
3.153857166666667,0,0x4F4F,0xFFFF
3.153870083333334,0,0x6004,0xFFFF
3.153888625000000,0,0x0000,0x0000
3.153917458333333,0,0x6004,0xFFFF
3.153937125000000,0,0x0000,0x0000
3.153950333333333,0,0x2005,0xFFFF
3.153969500000000,0,0xA0A0,0xFFFF
3.153981833333333,0,0x2006,0xFFFF
3.154001458333333,0,0x0000,0xFFFF
3.154014083333333,0,0x2007,0xFFFF
3.154032875000000,0,0x5050,0xFFFF
3.154045041666667,0,0x2008,0xFFFF
3.154066083333333,0,0x0909,0xFFFF
3.154080291666667,0,0x2009,0xFFFF
3.154099041666667,0,0x4444,0xFFFF
3.154111000000000,0,0x200A,0xFFFF
3.154131791666666,0,0x4F4F,0xFFFF
3.154146000000000,0,0x6004,0xFFFF
3.154164625000000,0,0x0000,0x0000
3.154194041666667,0,0x6004,0xFFFF
3.154214791666667,0,0x0000,0x0000
3.154229166666667,0,0x2005,0xFFFF
3.154248208333333,0,0xA0A0,0xFFFF
3.154260333333333,0,0x2006,0xFFFF
3.154281083333333,0,0x0000,0xFFFF
3.154295000000000,0,0x2007,0xFFFF
3.154313833333333,0,0x5050,0xFFFF
3.154326000000000,0,0x2008,0xFFFF
3.154346666666667,0,0xEEEE,0xFFFF
3.154360541666667,0,0x2009,0xFFFF
3.154379291666667,0,0x2222,0xFFFF
3.154391291666667,0,0x200A,0xFFFF
3.154412041666667,0,0x4F4F,0xFFFF
3.154425791666667,0,0x6004,0xFFFF
3.154444416666667,0,0x0000,0x0000
3.154473458333333,0,0x6004,0xFFFF
3.154494333333334,0,0x0000,0x0000
3.154508541666666,0,0x2005,0xFFFF
3.154527541666666,0,0xA0A0,0xFFFF
3.154539791666667,0,0x2006,0xFFFF
3.154560375000000,0,0x0000,0xFFFF
3.154574458333333,0,0x2007,0xFFFF
3.154593166666666,0,0x3030,0xFFFF
3.154605166666667,0,0x2008,0xFFFF
3.154625708333333,0,0xECEC,0xFFFF
3.154639458333333,0,0x2009,0xFFFF
3.154658208333333,0,0x8F8F,0xFFFF
3.154670208333333,0,0x200A,0xFFFF
3.154690833333333,0,0x4F4F,0xFFFF
3.154704791666667,0,0x6004,0xFFFF
3.154723375000000,0,0x0000,0x0000
3.154752333333333,0,0x6004,0xFFFF
3.154773041666667,0,0x0000,0x0000
3.154787291666667,0,0x2005,0xFFFF
3.154806291666667,0,0xA0A0,0xFFFF
3.154818583333333,0,0x2006,0xFFFF
3.154839125000000,0,0x0000,0xFFFF
3.154852958333333,0,0x2007,0xFFFF
3.154871666666667,0,0x0000,0xFFFF
3.154883791666667,0,0x2008,0xFFFF
3.154904375000000,0,0xA8A8,0xFFFF
3.154918208333333,0,0x2009,0xFFFF
3.154936916666667,0,0x1B1B,0xFFFF
3.154949000000000,0,0x200A,0xFFFF
3.154969583333334,0,0x4F4F,0xFFFF
3.154983291666666,0,0x6004,0xFFFF
3.155001750000000,0,0x0000,0x0000
3.155031000000000,0,0x6004,0xFFFF
3.155051708333333,0,0x0000,0x0000
3.155066000000000,0,0x2005,0xFFFF
3.155085041666667,0,0xA0A0,0xFFFF
3.155097333333333,0,0x2006,0xFFFF
3.155118000000000,0,0x0000,0xFFFF
3.155131875000000,0,0x2007,0xFFFF
3.155150708333333,0,0x1010,0xFFFF
3.155173375000000,0,0x2008,0xFFFF
3.155194208333334,0,0xA0A0,0xFFFF
3.155208291666667,0,0x2009,0xFFFF
3.155228458333333,0,0xA9A9,0xFFFF
3.155242291666667,0,0x200A,0xFFFF
3.155263041666667,0,0x4F4F,0xFFFF
3.155277041666666,0,0x6004,0xFFFF
3.155296791666667,0,0x0000,0x0000
3.155327916666667,0,0x6004,0xFFFF
3.155348791666666,0,0x0000,0x0000
3.155363166666667,0,0x2005,0xFFFF
3.155383291666667,0,0xA0A0,0xFFFF
3.155397500000000,0,0x2006,0xFFFF
3.155418166666667,0,0x0000,0xFFFF
3.155432208333333,0,0x2007,0xFFFF
3.155452083333333,0,0x6060,0xFFFF
3.155465833333333,0,0x2008,0xFFFF
3.155486666666667,0,0x8888,0xFFFF
3.155500625000000,0,0x2009,0xFFFF
3.155520500000000,0,0x4242,0xFFFF
3.155534041666667,0,0x200A,0xFFFF
3.155554833333333,0,0x4F4F,0xFFFF
3.155568750000000,0,0x6004,0xFFFF
3.155588333333333,0,0x0000,0x0000
3.155618916666667,0,0x6004,0xFFFF
3.155639625000000,0,0x0000,0x0000
3.155654041666667,0,0x2005,0xFFFF
3.155674333333333,0,0xA0A0,0xFFFF
3.155688333333333,0,0x2006,0xFFFF
3.155708958333333,0,0x0000,0xFFFF
3.155722833333333,0,0x2007,0xFFFF
3.155742666666667,0,0x5050,0xFFFF
3.155756375000000,0,0x2008,0xFFFF
3.155777000000000,0,0x0101,0xFFFF
3.155791083333333,0,0x2009,0xFFFF
3.155810833333333,0,0x8080,0xFFFF
3.155824500000000,0,0x200A,0xFFFF
3.155845208333333,0,0x4F4F,0xFFFF
3.155859250000000,0,0x6004,0xFFFF
3.155878916666667,0,0x0000,0x0000
3.155909500000000,0,0x6004,0xFFFF
3.155930375000000,0,0x0000,0x0000
3.155944750000000,0,0x2005,0xFFFF
3.155964791666667,0,0xA0A0,0xFFFF
3.155978791666667,0,0x2006,0xFFFF
3.155999500000000,0,0x0000,0xFFFF
3.156013458333333,0,0x2007,0xFFFF
3.156033291666667,0,0x1010,0xFFFF
3.156046958333333,0,0x2008,0xFFFF
3.156067666666666,0,0x8080,0xFFFF
3.156081583333334,0,0x2009,0xFFFF
3.156101458333334,0,0xCACA,0xFFFF
3.156115125000000,0,0x200A,0xFFFF
3.156135958333333,0,0x4F4F,0xFFFF
3.156149916666667,0,0x6004,0xFFFF
3.156169625000000,0,0x0000,0x0000
3.156200125000000,0,0x6004,0xFFFF
3.156220958333333,0,0x0000,0x0000
3.156235291666666,0,0x2005,0xFFFF
3.156255458333333,0,0xA0A0,0xFFFF
3.156269250000000,0,0x2006,0xFFFF
3.156289916666667,0,0x0000,0xFFFF
3.156303916666667,0,0x2007,0xFFFF
3.156323791666667,0,0x5050,0xFFFF
3.156337541666667,0,0x2008,0xFFFF
3.156358208333333,0,0x6060,0xFFFF
3.156372166666667,0,0x2009,0xFFFF
3.156392125000000,0,0xCACA,0xFFFF
3.156405791666667,0,0x200A,0xFFFF
3.156426583333333,0,0x4F4F,0xFFFF
3.156440458333333,0,0x6004,0xFFFF
3.156460166666667,0,0x0000,0x0000
3.156490791666667,0,0x6004,0xFFFF
3.156511666666667,0,0x0000,0x0000
3.156525958333333,0,0x2005,0xFFFF
3.156546125000000,0,0xA0A0,0xFFFF
3.156560000000000,0,0x2006,0xFFFF
3.156580583333333,0,0x0000,0xFFFF
3.156594458333333,0,0x2007,0xFFFF
3.156614333333333,0,0x5050,0xFFFF
3.156627958333333,0,0x2008,0xFFFF
3.156648583333333,0,0xA0A0,0xFFFF
3.156662458333333,0,0x2009,0xFFFF
3.156682208333333,0,0xA9A9,0xFFFF
3.156695666666667,0,0x200A,0xFFFF
3.156716458333333,0,0x4F4F,0xFFFF
3.156730458333334,0,0x6004,0xFFFF
3.156750208333333,0,0x0000,0x0000
3.156780833333333,0,0x6004,0xFFFF
3.156801666666667,0,0x0000,0x0000
3.156815916666666,0,0x2005,0xFFFF
3.156836000000000,0,0xA0A0,0xFFFF
3.156849958333333,0,0x2006,0xFFFF
3.156870625000000,0,0x0000,0xFFFF
3.156884625000000,0,0x2007,0xFFFF
3.156904416666667,0,0x5050,0xFFFF
3.156918000000000,0,0x2008,0xFFFF
3.156938750000000,0,0xC6C6,0xFFFF
3.156952708333333,0,0x2009,0xFFFF
3.156972625000000,0,0x3434,0xFFFF
3.156986291666667,0,0x200A,0xFFFF
3.157007041666667,0,0x4F4F,0xFFFF
3.157021083333333,0,0x6004,0xFFFF
3.157040791666667,0,0x0000,0x0000
3.157071208333333,0,0x6004,0xFFFF
3.157092000000000,0,0x0000,0x0000
3.157106291666667,0,0x2005,0xFFFF
3.157126375000000,0,0xA0A0,0xFFFF
3.157140250000000,0,0x2006,0xFFFF
3.157161000000000,0,0x0000,0xFFFF
3.157174958333334,0,0x2007,0xFFFF
3.157194791666667,0,0x5050,0xFFFF
3.157208333333333,0,0x2008,0xFFFF
3.157228958333334,0,0x8E8E,0xFFFF
3.157242833333334,0,0x2009,0xFFFF
3.157262583333333,0,0x2222,0xFFFF
3.157276375000000,0,0x200A,0xFFFF
3.157297041666667,0,0x4F4F,0xFFFF
3.157311000000000,0,0x6004,0xFFFF
3.157330625000000,0,0x0000,0x0000
3.157361791666667,0,0x6004,0xFFFF
3.157382708333333,0,0x0000,0x0000
3.157397125000000,0,0x2005,0xFFFF
3.157417250000000,0,0xA0A0,0xFFFF
3.157431083333333,0,0x2006,0xFFFF
3.157451833333333,0,0x0000,0xFFFF
3.157465791666667,0,0x2007,0xFFFF
3.157485583333334,0,0x2020,0xFFFF
3.157499208333333,0,0x2008,0xFFFF
3.157519875000000,0,0x0C0C,0xFFFF
3.157533750000000,0,0x2009,0xFFFF
3.157553416666667,0,0x3535,0xFFFF
3.157567166666666,0,0x200A,0xFFFF
3.157587791666667,0,0x4F4F,0xFFFF
3.157601708333333,0,0x6004,0xFFFF
3.157621375000000,0,0x0000,0x0000
3.157651875000000,0,0x6004,0xFFFF
3.157672666666667,0,0x0000,0x0000
3.157687000000000,0,0x2005,0xFFFF
3.157707083333333,0,0xA0A0,0xFFFF
3.157721125000000,0,0x2006,0xFFFF
3.157741875000000,0,0x0000,0xFFFF
3.157755916666667,0,0x2007,0xFFFF
3.157775708333333,0,0x5050,0xFFFF
3.157789291666667,0,0x2008,0xFFFF
3.157810250000000,0,0x6666,0xFFFF
3.157824291666667,0,0x2009,0xFFFF
3.157844041666667,0,0x0101,0xFFFF
3.157857625000000,0,0x200A,0xFFFF
3.157878291666667,0,0x4F4F,0xFFFF
3.157892291666667,0,0x6004,0xFFFF
3.157912000000000,0,0x0000,0x0000
3.157942791666667,0,0x6004,0xFFFF
3.157963750000000,0,0x0000,0x0000
3.157978083333334,0,0x2005,0xFFFF
3.157998208333333,0,0xA0A0,0xFFFF
3.158012166666667,0,0x2006,0xFFFF
3.158032916666667,0,0x0000,0xFFFF
3.158046916666667,0,0x2007,0xFFFF
3.158066916666667,0,0x2020,0xFFFF
3.158080625000000,0,0x2008,0xFFFF
3.158101291666667,0,0x0000,0xFFFF
3.158115250000000,0,0x2009,0xFFFF
3.158135000000000,0,0x8080,0xFFFF
3.158148541666667,0,0x200A,0xFFFF
3.158169250000000,0,0x4F4F,0xFFFF
3.158183250000000,0,0x6004,0xFFFF
3.158202875000000,0,0x0000,0x0000
3.158233958333333,0,0x6004,0xFFFF
3.158254750000000,0,0x0000,0x0000
3.158269000000000,0,0x2005,0xFFFF
3.158289125000000,0,0xA0A0,0xFFFF
3.158303166666667,0,0x2006,0xFFFF
3.158323958333333,0,0x0000,0xFFFF
3.158337875000000,0,0x2007,0xFFFF
3.158357708333333,0,0x5050,0xFFFF
3.158371291666667,0,0x2008,0xFFFF
3.158392291666666,0,0xCECE,0xFFFF
3.158406250000000,0,0x2009,0xFFFF
3.158426041666667,0,0x2222,0xFFFF
3.158439625000000,0,0x200A,0xFFFF
3.158460416666667,0,0x4F4F,0xFFFF
3.158474416666667,0,0x6004,0xFFFF
3.158493916666667,0,0x0000,0x0000
3.158524458333333,0,0x6004,0xFFFF
3.158545208333333,0,0x0000,0x0000
3.158559583333334,0,0x2005,0xFFFF
3.158579750000000,0,0xA0A0,0xFFFF
3.158593666666667,0,0x2006,0xFFFF
3.158614333333333,0,0x0000,0xFFFF
3.158628291666667,0,0x2007,0xFFFF
3.158648125000000,0,0x3030,0xFFFF
3.158661791666667,0,0x2008,0xFFFF
3.158682500000000,0,0xACAC,0xFFFF
3.158696416666666,0,0x2009,0xFFFF
3.158716291666666,0,0x9292,0xFFFF
3.158729916666667,0,0x200A,0xFFFF
3.158750541666667,0,0x4F4F,0xFFFF
3.158764500000000,0,0x6004,0xFFFF
3.158784166666667,0,0x0000,0x0000
3.158815125000000,0,0x6004,0xFFFF
3.158836208333333,0,0x0000,0x0000
3.158850500000000,0,0x2005,0xFFFF
3.158870666666667,0,0xA0A0,0xFFFF
3.158884625000000,0,0x2006,0xFFFF
3.158905375000000,0,0x0000,0xFFFF
3.158919333333333,0,0x2007,0xFFFF
3.158939083333333,0,0x5050,0xFFFF
3.158952750000000,0,0x2008,0xFFFF
3.158973333333333,0,0xE6E6,0xFFFF
3.158987250000000,0,0x2009,0xFFFF
3.159007250000000,0,0x0000,0xFFFF
3.159020791666667,0,0x200A,0xFFFF
3.159041500000000,0,0x4F4F,0xFFFF
3.159055458333333,0,0x6004,0xFFFF
3.159075041666667,0,0x0000,0x0000
3.159105500000000,0,0x6004,0xFFFF
3.159126416666667,0,0x0000,0x0000
3.159140708333333,0,0x2005,0xFFFF
3.159160833333333,0,0xA0A0,0xFFFF
3.159174958333333,0,0x2006,0xFFFF
3.159195541666667,0,0x0000,0xFFFF
3.159209416666667,0,0x2007,0xFFFF
3.159229166666667,0,0x2020,0xFFFF
3.159242833333333,0,0x2008,0xFFFF
3.159263333333334,0,0xC6C6,0xFFFF
3.159277166666667,0,0x2009,0xFFFF
3.159297041666667,0,0x7E7E,0xFFFF
3.159310583333333,0,0x200A,0xFFFF
3.159331250000000,0,0x4F4F,0xFFFF
3.159345250000000,0,0x6004,0xFFFF
3.159364791666667,0,0x0000,0x0000
3.159395375000000,0,0x6004,0xFFFF
3.159416208333333,0,0x0000,0x0000
3.159430583333333,0,0x2005,0xFFFF
3.159450708333333,0,0xA0A0,0xFFFF
3.159464625000000,0,0x2006,0xFFFF
3.159485291666666,0,0x0000,0xFFFF
3.159499250000000,0,0x2007,0xFFFF
3.159519166666667,0,0x4040,0xFFFF
3.159532833333333,0,0x2008,0xFFFF
3.159553500000000,0,0x4646,0xFFFF
3.159567416666667,0,0x2009,0xFFFF
3.159587291666667,0,0x0101,0xFFFF
3.159600875000000,0,0x200A,0xFFFF
3.159621625000000,0,0x4F4F,0xFFFF
3.159635708333334,0,0x6004,0xFFFF
3.159655375000000,0,0x0000,0x0000
3.159685875000000,0,0x6004,0xFFFF
3.159707166666667,0,0x0000,0x0000
3.159721500000000,0,0x2005,0xFFFF
3.159741583333334,0,0xA0A0,0xFFFF
3.159755500000000,0,0x2006,0xFFFF
3.159776333333333,0,0x0000,0xFFFF
3.159790333333333,0,0x2007,0xFFFF
3.159810250000000,0,0x2020,0xFFFF
3.159823916666667,0,0x2008,0xFFFF
3.159844625000000,0,0x2E2E,0xFFFF
3.159858458333333,0,0x2009,0xFFFF
3.159878250000000,0,0x2323,0xFFFF
3.159891791666666,0,0x200A,0xFFFF
3.159912458333333,0,0x4F4F,0xFFFF
3.159926583333333,0,0x6004,0xFFFF
3.159946125000000,0,0x0000,0x0000
3.159976666666667,0,0x6004,0xFFFF
3.159997583333333,0,0x0000,0x0000
3.160012000000000,0,0x2005,0xFFFF
3.160032291666667,0,0xA0A0,0xFFFF
3.160046333333333,0,0x2006,0xFFFF
3.160066916666667,0,0x0000,0xFFFF
3.160080916666667,0,0x2007,0xFFFF
3.160100833333333,0,0x3030,0xFFFF
3.160114583333333,0,0x2008,0xFFFF
3.160135291666667,0,0xACAC,0xFFFF
3.160149083333333,0,0x2009,0xFFFF
3.160168875000000,0,0x9292,0xFFFF
3.160182583333333,0,0x200A,0xFFFF
3.160203375000000,0,0x4F4F,0xFFFF
3.160217166666667,0,0x6004,0xFFFF
3.160236833333333,0,0x0000,0x0000
3.160267708333333,0,0x6004,0xFFFF
3.160288583333333,0,0x0000,0x0000
3.160303041666667,0,0x2005,0xFFFF
3.160323250000000,0,0xA0A0,0xFFFF
3.160337166666667,0,0x2006,0xFFFF
3.160357750000000,0,0x0000,0xFFFF
3.160371666666667,0,0x2007,0xFFFF
3.160391500000000,0,0x5050,0xFFFF
3.160405208333333,0,0x2008,0xFFFF
3.160426208333333,0,0xE6E6,0xFFFF
3.160440166666667,0,0x2009,0xFFFF
3.160459916666666,0,0x0000,0xFFFF
3.160473541666667,0,0x200A,0xFFFF
3.160494208333333,0,0x4F4F,0xFFFF
3.160508125000000,0,0x6004,0xFFFF
3.160527833333334,0,0x0000,0x0000
3.160558416666666,0,0x6004,0xFFFF
3.160579333333333,0,0x0000,0x0000
3.160593791666667,0,0x2005,0xFFFF
3.160614041666667,0,0xA0A0,0xFFFF
3.160627916666667,0,0x2006,0xFFFF
3.160648708333333,0,0x0000,0xFFFF
3.160662750000000,0,0x2007,0xFFFF
3.160682625000000,0,0x3030,0xFFFF
3.160696416666667,0,0x2008,0xFFFF
3.160717166666667,0,0x0000,0xFFFF
3.160731166666667,0,0x2009,0xFFFF
3.160751000000000,0,0x8080,0xFFFF
3.160764666666667,0,0x200A,0xFFFF
3.160785333333333,0,0x4F4F,0xFFFF
3.160799333333333,0,0x6004,0xFFFF
3.160819000000000,0,0x0000,0x0000
3.160849541666667,0,0x6004,0xFFFF
3.160870416666667,0,0x0000,0x0000
3.160884791666667,0,0x2005,0xFFFF
3.160905041666667,0,0xA0A0,0xFFFF
3.160919125000000,0,0x2006,0xFFFF
3.160939833333333,0,0x0000,0xFFFF
3.160953875000000,0,0x2007,0xFFFF
3.160973791666667,0,0x5050,0xFFFF
3.160987416666666,0,0x2008,0xFFFF
3.161008208333334,0,0x8E8E,0xFFFF
3.161022083333333,0,0x2009,0xFFFF
3.161041833333333,0,0x2222,0xFFFF
3.161055458333333,0,0x200A,0xFFFF
3.161076208333333,0,0x4F4F,0xFFFF
3.161090291666667,0,0x6004,0xFFFF
3.161109916666667,0,0x0000,0x0000
3.161140541666667,0,0x6004,0xFFFF
3.161161333333333,0,0x0000,0x0000
3.161175583333333,0,0x2005,0xFFFF
3.161195708333334,0,0xA0A0,0xFFFF
3.161209750000000,0,0x2006,0xFFFF
3.161230708333334,0,0x0000,0xFFFF
3.161244750000000,0,0x2007,0xFFFF
3.161264833333334,0,0x3030,0xFFFF
3.161278541666667,0,0x2008,0xFFFF
3.161299208333333,0,0x0C0C,0xFFFF
3.161313166666667,0,0x2009,0xFFFF
3.161333041666667,0,0x9393,0xFFFF
3.161346625000000,0,0x200A,0xFFFF
3.161367291666667,0,0x4F4F,0xFFFF
3.161381125000000,0,0x6004,0xFFFF
3.161400833333333,0,0x0000,0x0000
3.161431416666667,0,0x6004,0xFFFF
3.161452208333333,0,0x0000,0x0000
3.161466625000000,0,0x2005,0xFFFF
3.161486875000000,0,0xA0A0,0xFFFF
3.161500916666667,0,0x2006,0xFFFF
3.161521666666667,0,0x0000,0xFFFF
3.161535666666667,0,0x2007,0xFFFF
3.161555541666667,0,0x5050,0xFFFF
3.161569208333333,0,0x2008,0xFFFF
3.161590041666666,0,0x4646,0xFFFF
3.161604125000000,0,0x2009,0xFFFF
3.161623875000000,0,0x0101,0xFFFF
3.161637708333333,0,0x200A,0xFFFF
3.161658166666667,0,0x4F4F,0xFFFF
3.161672250000000,0,0x6004,0xFFFF
3.161691875000000,0,0x0000,0x0000
3.161722458333333,0,0x6004,0xFFFF
3.161743333333333,0,0x0000,0x0000
3.161757666666666,0,0x2005,0xFFFF
3.161777666666667,0,0xA0A0,0xFFFF
3.161791541666667,0,0x2006,0xFFFF
3.161812291666667,0,0x0000,0xFFFF
3.161826333333333,0,0x2007,0xFFFF
3.161846333333334,0,0x2020,0xFFFF
3.161860041666666,0,0x2008,0xFFFF
3.161880958333333,0,0xE6E6,0xFFFF
3.161894833333333,0,0x2009,0xFFFF
3.161914708333333,0,0x0000,0xFFFF
3.161928333333333,0,0x200A,0xFFFF
3.161948958333333,0,0x4F4F,0xFFFF
3.161962833333333,0,0x6004,0xFFFF
3.161982500000000,0,0x0000,0x0000
3.162013166666667,0,0x6004,0xFFFF
3.162034041666667,0,0x0000,0x0000
3.162048416666666,0,0x2005,0xFFFF
3.162068625000000,0,0xA0A0,0xFFFF
3.162082541666666,0,0x2006,0xFFFF
3.162103166666667,0,0x0000,0xFFFF
3.162117208333334,0,0x2007,0xFFFF
3.162137125000000,0,0x4040,0xFFFF
3.162150666666667,0,0x2008,0xFFFF
3.162171458333333,0,0x0000,0xFFFF
3.162185333333333,0,0x2009,0xFFFF
3.162205125000000,0,0x8080,0xFFFF
3.162218625000000,0,0x200A,0xFFFF
3.162239500000000,0,0x4F4F,0xFFFF
3.162253500000000,0,0x6004,0xFFFF
3.162273000000000,0,0x0000,0x0000
3.162303416666667,0,0x6004,0xFFFF
3.162324541666667,0,0x0000,0x0000
3.162338791666667,0,0x2005,0xFFFF
3.162358833333333,0,0xA0A0,0xFFFF
3.162372750000000,0,0x2006,0xFFFF
3.162393500000000,0,0x0000,0xFFFF
3.162407500000000,0,0x2007,0xFFFF
3.162427458333333,0,0x5050,0xFFFF
3.162441166666667,0,0x2008,0xFFFF
3.162461833333333,0,0x0000,0xFFFF
3.162475916666667,0,0x2009,0xFFFF
3.162495750000000,0,0x0000,0xFFFF
3.162509375000000,0,0x200A,0xFFFF
3.162530083333333,0,0x4F4F,0xFFFF
3.162544083333333,0,0x6004,0xFFFF
3.162563666666667,0,0x0000,0x0000
3.162594416666667,0,0x6004,0xFFFF
3.162615333333333,0,0x0000,0x0000
3.162629541666667,0,0x2005,0xFFFF
3.162649666666667,0,0xA0A0,0xFFFF
3.162663500000000,0,0x2006,0xFFFF
3.162684250000000,0,0x0000,0xFFFF
3.162698166666666,0,0x2007,0xFFFF
3.162718000000000,0,0x5050,0xFFFF
3.162731500000000,0,0x2008,0xFFFF
3.162752125000000,0,0x8E8E,0xFFFF
3.162766250000000,0,0x2009,0xFFFF
3.162786166666667,0,0x2222,0xFFFF
3.162799916666667,0,0x200A,0xFFFF
3.162820500000000,0,0x4F4F,0xFFFF
3.162834458333333,0,0x6004,0xFFFF
3.162854250000000,0,0x0000,0x0000
3.162885666666666,0,0x6004,0xFFFF
3.162906500000000,0,0x0000,0x0000
3.162920791666667,0,0x2005,0xFFFF
3.162940916666667,0,0xA0A0,0xFFFF
3.162954916666667,0,0x2006,0xFFFF
3.162975583333334,0,0x0000,0xFFFF
3.162989541666667,0,0x2007,0xFFFF
3.163009416666667,0,0x2020,0xFFFF
3.163023208333333,0,0x2008,0xFFFF
3.163044041666667,0,0x0C0C,0xFFFF
3.163057958333333,0,0x2009,0xFFFF
3.163077750000000,0,0x2121,0xFFFF
3.163091500000000,0,0x200A,0xFFFF
3.163112291666667,0,0x4F4F,0xFFFF
3.163126416666667,0,0x6004,0xFFFF
3.163145958333333,0,0x0000,0x0000
3.163176458333333,0,0x6004,0xFFFF
3.163197333333333,0,0x0000,0x0000
3.163211625000000,0,0x2005,0xFFFF
3.163231791666667,0,0xA0A0,0xFFFF
3.163245666666667,0,0x2006,0xFFFF
3.163266416666667,0,0x0000,0xFFFF
3.163280458333333,0,0x2007,0xFFFF
3.163300333333333,0,0x5050,0xFFFF
3.163313958333333,0,0x2008,0xFFFF
3.163334708333333,0,0x6666,0xFFFF
3.163348750000000,0,0x2009,0xFFFF
3.163368583333333,0,0x2A2A,0xFFFF
3.163382125000000,0,0x200A,0xFFFF
3.163402916666667,0,0x4F4F,0xFFFF
3.163416791666667,0,0x6004,0xFFFF
3.163436500000000,0,0x0000,0x0000
3.163467250000000,0,0x6004,0xFFFF
3.163488125000000,0,0x0000,0x0000
3.163502375000000,0,0x2005,0xFFFF
3.163522500000000,0,0xA0A0,0xFFFF
3.163536500000000,0,0x2006,0xFFFF
3.163557208333333,0,0x0000,0xFFFF
3.163571208333333,0,0x2007,0xFFFF
3.163591333333333,0,0x5050,0xFFFF
3.163604958333333,0,0x2008,0xFFFF
3.163625708333333,0,0xE4E4,0xFFFF
3.163639666666667,0,0x2009,0xFFFF
3.163659500000000,0,0x7F7F,0xFFFF
3.163673208333333,0,0x200A,0xFFFF
3.163693916666667,0,0x4F4F,0xFFFF
3.163707916666667,0,0x6004,0xFFFF
3.163727541666667,0,0x0000,0x0000
3.163758166666667,0,0x6004,0xFFFF
3.163779041666666,0,0x0000,0x0000
3.163793416666667,0,0x2005,0xFFFF
3.163813458333333,0,0xA0A0,0xFFFF
3.163827291666667,0,0x2006,0xFFFF
3.163848000000000,0,0x0000,0xFFFF
3.163861958333333,0,0x2007,0xFFFF
3.163881875000000,0,0x5050,0xFFFF
3.163895583333333,0,0x2008,0xFFFF
3.163916250000000,0,0x8E8E,0xFFFF
3.163930166666667,0,0x2009,0xFFFF
3.163949958333333,0,0x2222,0xFFFF
3.163963666666667,0,0x200A,0xFFFF
3.163984708333333,0,0x4F4F,0xFFFF
3.163998791666667,0,0x6004,0xFFFF
3.164018333333333,0,0x0000,0x0000
3.164048875000000,0,0x6004,0xFFFF
3.164069708333333,0,0x0000,0x0000
3.164084000000000,0,0x2005,0xFFFF
3.164104208333333,0,0xA0A0,0xFFFF
3.164118250000000,0,0x2006,0xFFFF
3.164138875000000,0,0x0000,0xFFFF
3.164152750000000,0,0x2007,0xFFFF
3.164172708333334,0,0x0000,0xFFFF
3.164186458333333,0,0x2008,0xFFFF
3.164207291666667,0,0x4C4C,0xFFFF
3.164221250000000,0,0x2009,0xFFFF
3.164241250000000,0,0xB2B2,0xFFFF
3.164254875000000,0,0x200A,0xFFFF
3.164275541666667,0,0x4F4F,0xFFFF
3.164289541666667,0,0x6004,0xFFFF
3.164309083333333,0,0x0000,0x0000
3.164339666666667,0,0x6004,0xFFFF
3.164360625000000,0,0x0000,0x0000
3.164375041666667,0,0x2005,0xFFFF
3.164395333333333,0,0xA0A0,0xFFFF
3.164409250000000,0,0x2006,0xFFFF
3.164430000000000,0,0x0000,0xFFFF
3.164443958333333,0,0x2007,0xFFFF
3.164463625000000,0,0x5050,0xFFFF
3.164477291666667,0,0x2008,0xFFFF
3.164498041666667,0,0xE6E6,0xFFFF
3.164512000000000,0,0x2009,0xFFFF
3.164531958333333,0,0x7F7F,0xFFFF
3.164545666666667,0,0x200A,0xFFFF
3.164566375000000,0,0x4F4F,0xFFFF
3.164580166666667,0,0x6004,0xFFFF
3.164599916666667,0,0x0000,0x0000
3.164630583333333,0,0x6004,0xFFFF
3.164651333333333,0,0x0000,0x0000
3.164665625000000,0,0x2005,0xFFFF
3.164685750000000,0,0xA0A0,0xFFFF
3.164699666666666,0,0x2006,0xFFFF
3.164720375000000,0,0x0000,0xFFFF
3.164734291666667,0,0x2007,0xFFFF
3.164754250000000,0,0x5050,0xFFFF
3.164768166666667,0,0x2008,0xFFFF
3.164788958333333,0,0x8E8E,0xFFFF
3.164803083333333,0,0x2009,0xFFFF
3.164822916666667,0,0x2222,0xFFFF
3.164836458333333,0,0x200A,0xFFFF
3.164857208333333,0,0x4F4F,0xFFFF
3.164871291666667,0,0x6004,0xFFFF
3.164890958333333,0,0x0000,0x0000
3.164921708333333,0,0x6004,0xFFFF
3.164942666666667,0,0x0000,0x0000
3.164957125000000,0,0x2005,0xFFFF
3.164977333333333,0,0xA0A0,0xFFFF
3.164991291666666,0,0x2006,0xFFFF
3.165011958333333,0,0x0000,0xFFFF
3.165025958333333,0,0x2007,0xFFFF
3.165045833333333,0,0x0000,0xFFFF
3.165059416666667,0,0x2008,0xFFFF
3.165080041666667,0,0x8C8C,0xFFFF
3.165093916666667,0,0x2009,0xFFFF
3.165113708333333,0,0xA8A8,0xFFFF
3.165127333333333,0,0x200A,0xFFFF
3.165155208333333,0,0x4F4F,0xFFFF
3.165169500000000,0,0x6004,0xFFFF
3.165189500000000,0,0x0000,0x0000
3.165221125000000,0,0x6004,0xFFFF
3.165242166666667,0,0x0000,0x0000
3.165256500000000,0,0x2005,0xFFFF
3.165276833333333,0,0xA0A0,0xFFFF
3.165290666666666,0,0x2006,0xFFFF
3.165311541666667,0,0x0000,0xFFFF
3.165325625000000,0,0x2007,0xFFFF
3.165345500000000,0,0x5050,0xFFFF
3.165359125000000,0,0x2008,0xFFFF
3.165380041666667,0,0x8686,0xFFFF
3.165394000000000,0,0x2009,0xFFFF
3.165413791666666,0,0xA0A0,0xFFFF
3.165427333333333,0,0x200A,0xFFFF
3.165448250000000,0,0x4F4F,0xFFFF
3.165462333333333,0,0x6004,0xFFFF
3.165482125000000,0,0x0000,0x0000
3.165512791666667,0,0x6004,0xFFFF
3.165533625000000,0,0x0000,0x0000
3.165547875000000,0,0x2005,0xFFFF
3.165568000000000,0,0xA0A0,0xFFFF
3.165582000000000,0,0x2006,0xFFFF
3.165602708333333,0,0x0000,0xFFFF
3.165616708333333,0,0x2007,0xFFFF
3.165636500000000,0,0x5050,0xFFFF
3.165650291666667,0,0x2008,0xFFFF
3.165671125000000,0,0xE4E4,0xFFFF
3.165685166666667,0,0x2009,0xFFFF
3.165704875000000,0,0x0101,0xFFFF
3.165718458333334,0,0x200A,0xFFFF
3.165739125000000,0,0x4F4F,0xFFFF
3.165753041666667,0,0x6004,0xFFFF
3.165772583333333,0,0x0000,0x0000
3.165803125000000,0,0x6004,0xFFFF
3.165823958333333,0,0x0000,0x0000
3.165838333333333,0,0x2005,0xFFFF
3.165858500000000,0,0xA0A0,0xFFFF
3.165872541666667,0,0x2006,0xFFFF
3.165893208333333,0,0x0000,0xFFFF
3.165907041666667,0,0x2007,0xFFFF
3.165926875000000,0,0x5050,0xFFFF
3.165940666666667,0,0x2008,0xFFFF
3.165961291666667,0,0x8E8E,0xFFFF
3.165975166666667,0,0x2009,0xFFFF
3.165994916666667,0,0x2222,0xFFFF
3.166008500000000,0,0x200A,0xFFFF
3.166029125000000,0,0x4F4F,0xFFFF
3.166043166666667,0,0x6004,0xFFFF
3.166062750000000,0,0x0000,0x0000
3.166093750000000,0,0x6004,0xFFFF
3.166114541666667,0,0x0000,0x0000
3.166128958333333,0,0x2005,0xFFFF
3.166149125000000,0,0xA0A0,0xFFFF
3.166163083333333,0,0x2006,0xFFFF
3.166183833333333,0,0x0000,0xFFFF
3.166197708333333,0,0x2007,0xFFFF
3.166217666666667,0,0x0000,0xFFFF
3.166231250000000,0,0x2008,0xFFFF
3.166252083333333,0,0xACAC,0xFFFF
3.166266041666667,0,0x2009,0xFFFF
3.166285958333333,0,0x0000,0xFFFF
3.166299666666667,0,0x200A,0xFFFF
3.166320500000000,0,0x4F4F,0xFFFF
3.166334500000000,0,0x6004,0xFFFF
3.166354083333333,0,0x0000,0x0000
3.166384583333334,0,0x6004,0xFFFF
3.166405416666667,0,0x0000,0x0000
3.166419708333333,0,0x2005,0xFFFF
3.166439875000000,0,0xA0A0,0xFFFF
3.166453958333333,0,0x2006,0xFFFF
3.166474708333333,0,0x0000,0xFFFF
3.166488708333334,0,0x2007,0xFFFF
3.166508500000000,0,0x5050,0xFFFF
3.166522000000000,0,0x2008,0xFFFF
3.166542791666667,0,0xE6E6,0xFFFF
3.166556833333333,0,0x2009,0xFFFF
3.166576541666667,0,0x0101,0xFFFF
3.166590083333333,0,0x200A,0xFFFF
3.166611000000000,0,0x4F4F,0xFFFF
3.166625000000000,0,0x6004,0xFFFF
3.166644708333333,0,0x0000,0x0000
3.166675291666667,0,0x6004,0xFFFF
3.166696041666667,0,0x0000,0x0000
3.166710333333334,0,0x2005,0xFFFF
3.166730458333333,0,0xA0A0,0xFFFF
3.166744375000000,0,0x2006,0xFFFF
3.166765083333333,0,0x0000,0xFFFF
3.166779041666667,0,0x2007,0xFFFF
3.166798875000000,0,0x5050,0xFFFF
3.166812500000000,0,0x2008,0xFFFF
3.166833291666667,0,0x8E8E,0xFFFF
3.166847291666667,0,0x2009,0xFFFF
3.166867083333333,0,0x2222,0xFFFF
3.166880750000000,0,0x200A,0xFFFF
3.166901500000000,0,0x4F4F,0xFFFF
3.166915458333333,0,0x6004,0xFFFF
3.166935041666667,0,0x0000,0x0000
3.166965750000000,0,0x6004,0xFFFF
3.166986625000000,0,0x0000,0x0000
3.167000916666667,0,0x2005,0xFFFF
3.167021041666667,0,0xA0A0,0xFFFF
3.167034875000000,0,0x2006,0xFFFF
3.167055500000000,0,0x0000,0xFFFF
3.167069416666667,0,0x2007,0xFFFF
3.167089208333334,0,0x0000,0xFFFF
3.167102791666667,0,0x2008,0xFFFF
3.167123583333333,0,0xACAC,0xFFFF
3.167137625000000,0,0x2009,0xFFFF
3.167157375000000,0,0x0101,0xFFFF
3.167170958333333,0,0x200A,0xFFFF
3.167191750000000,0,0x4F4F,0xFFFF
3.167205833333333,0,0x6004,0xFFFF
3.167225541666667,0,0x0000,0x0000
3.167256250000000,0,0x6004,0xFFFF
3.167277083333333,0,0x0000,0x0000
3.167291500000000,0,0x2005,0xFFFF
3.167311500000000,0,0xA0A0,0xFFFF
3.167325416666666,0,0x2006,0xFFFF
3.167346125000000,0,0x0000,0xFFFF
3.167360291666667,0,0x2007,0xFFFF
3.167380250000000,0,0x5050,0xFFFF
3.167394000000000,0,0x2008,0xFFFF
3.167414875000000,0,0x0606,0xFFFF
3.167428958333333,0,0x2009,0xFFFF
3.167448625000000,0,0x8080,0xFFFF
3.167462375000000,0,0x200A,0xFFFF
3.167483125000000,0,0x4F4F,0xFFFF
3.167497041666667,0,0x6004,0xFFFF
3.167516625000000,0,0x0000,0x0000
3.167547291666667,0,0x6004,0xFFFF
3.167568125000000,0,0x0000,0x0000
3.167582541666667,0,0x2005,0xFFFF
3.167602625000000,0,0xA0A0,0xFFFF
3.167616541666667,0,0x2006,0xFFFF
3.167637375000000,0,0x0000,0xFFFF
3.167651375000000,0,0x2007,0xFFFF
3.167671333333333,0,0x5050,0xFFFF
3.167684875000000,0,0x2008,0xFFFF
3.167705583333333,0,0xCECE,0xFFFF
3.167719583333333,0,0x2009,0xFFFF
3.167739458333333,0,0x0E0E,0xFFFF
3.167753125000000,0,0x200A,0xFFFF
3.167773750000000,0,0x4F4F,0xFFFF
3.167787833333333,0,0x6004,0xFFFF
3.167807500000000,0,0x0000,0x0000
3.167838250000000,0,0x6004,0xFFFF
3.167859083333334,0,0x0000,0x0000
3.167873375000000,0,0x2005,0xFFFF
3.167893500000000,0,0xA0A0,0xFFFF
3.167907416666667,0,0x2006,0xFFFF
3.167928083333333,0,0x0000,0xFFFF
3.167942083333333,0,0x2007,0xFFFF
3.167962000000000,0,0x3030,0xFFFF
3.167975708333334,0,0x2008,0xFFFF
3.167996333333333,0,0xCCCC,0xFFFF
3.168010291666667,0,0x2009,0xFFFF
3.168030125000000,0,0xAEAE,0xFFFF
3.168043666666667,0,0x200A,0xFFFF
3.168064208333333,0,0x4F4F,0xFFFF
3.168078333333333,0,0x6004,0xFFFF
3.168097833333333,0,0x0000,0x0000
3.168128250000000,0,0x6004,0xFFFF
3.168149000000000,0,0x0000,0x0000
3.168163333333333,0,0x2005,0xFFFF
3.168183375000000,0,0xA0A0,0xFFFF
3.168197250000000,0,0x2006,0xFFFF
3.168218041666667,0,0x0000,0xFFFF
3.168232125000000,0,0x2007,0xFFFF
3.168252000000000,0,0x5050,0xFFFF
3.168265750000000,0,0x2008,0xFFFF
3.168286416666667,0,0x6E6E,0xFFFF
3.168300375000000,0,0x2009,0xFFFF
3.168320208333333,0,0x0B0B,0xFFFF
3.168334333333333,0,0x200A,0xFFFF
3.168355208333333,0,0x4F4F,0xFFFF
3.168369166666666,0,0x6004,0xFFFF
3.168388791666667,0,0x0000,0x0000
3.168419458333333,0,0x6004,0xFFFF
3.168440166666667,0,0x0000,0x0000
3.168454583333333,0,0x2005,0xFFFF
3.168474708333333,0,0xA0A0,0xFFFF
3.168488708333333,0,0x2006,0xFFFF
3.168509291666667,0,0x0000,0xFFFF
3.168523166666667,0,0x2007,0xFFFF
3.168543041666667,0,0x3030,0xFFFF
3.168556708333333,0,0x2008,0xFFFF
3.168577458333333,0,0xCCCC,0xFFFF
3.168591333333334,0,0x2009,0xFFFF
3.168611041666667,0,0xAEAE,0xFFFF
3.168624666666667,0,0x200A,0xFFFF
3.168645458333333,0,0x4F4F,0xFFFF
3.168659333333333,0,0x6004,0xFFFF
3.168678875000000,0,0x0000,0x0000
3.168709500000000,0,0x6004,0xFFFF
3.168730583333333,0,0x0000,0x0000
3.168744916666667,0,0x2005,0xFFFF
3.168765083333333,0,0xA0A0,0xFFFF
3.168778916666667,0,0x2006,0xFFFF
3.168799750000000,0,0x0000,0xFFFF
3.168813708333333,0,0x2007,0xFFFF
3.168833625000000,0,0x5050,0xFFFF
3.168847208333333,0,0x2008,0xFFFF
3.168867916666667,0,0x4646,0xFFFF
3.168881916666667,0,0x2009,0xFFFF
3.168901708333333,0,0x8888,0xFFFF
3.168915375000000,0,0x200A,0xFFFF
3.168936166666667,0,0x4F4F,0xFFFF
3.168950083333333,0,0x6004,0xFFFF
3.168969833333333,0,0x0000,0x0000
3.169000333333333,0,0x6004,0xFFFF
3.169021166666667,0,0x0000,0x0000
3.169035458333334,0,0x2005,0xFFFF
3.169055583333333,0,0xA0A0,0xFFFF
3.169069625000000,0,0x2006,0xFFFF
3.169090500000000,0,0x0000,0xFFFF
3.169104416666667,0,0x2007,0xFFFF
3.169124208333333,0,0x2020,0xFFFF
3.169137791666667,0,0x2008,0xFFFF
3.169158458333333,0,0x1A1A,0xFFFF
3.169172500000000,0,0x2009,0xFFFF
3.169192458333333,0,0x6464,0xFFFF
3.169205958333333,0,0x200A,0xFFFF
3.169226666666667,0,0x4F4F,0xFFFF
3.169240750000000,0,0x6004,0xFFFF
3.169260416666666,0,0x0000,0x0000
3.169290875000000,0,0x6004,0xFFFF
3.169311708333333,0,0x0000,0x0000
3.169326166666667,0,0x2005,0xFFFF
3.169346291666667,0,0xA0A0,0xFFFF
3.169360166666667,0,0x2006,0xFFFF
3.169381000000000,0,0x0000,0xFFFF
3.169394875000000,0,0x2007,0xFFFF
3.169414750000000,0,0x5050,0xFFFF
3.169428291666667,0,0x2008,0xFFFF
3.169448958333333,0,0x0707,0xFFFF
3.169462958333333,0,0x2009,0xFFFF
3.169482791666667,0,0x8080,0xFFFF
3.169496416666667,0,0x200A,0xFFFF
3.169517041666666,0,0x4F4F,0xFFFF
3.169531083333333,0,0x6004,0xFFFF
3.169550583333333,0,0x0000,0x0000
3.169581166666667,0,0x6004,0xFFFF
3.169601916666667,0,0x0000,0x0000
3.169616291666667,0,0x2005,0xFFFF
3.169636291666666,0,0xA0A0,0xFFFF
3.169650250000000,0,0x2006,0xFFFF
3.169671000000000,0,0x0000,0xFFFF
3.169685041666667,0,0x2007,0xFFFF
3.169704833333333,0,0x5050,0xFFFF
3.169718416666667,0,0x2008,0xFFFF
3.169739000000000,0,0x0E0E,0xFFFF
3.169752916666666,0,0x2009,0xFFFF
3.169772791666666,0,0x2323,0xFFFF
3.169786500000000,0,0x200A,0xFFFF
3.169807000000000,0,0x4F4F,0xFFFF
3.169820958333333,0,0x6004,0xFFFF
3.169840541666667,0,0x0000,0x0000
3.169871250000000,0,0x6004,0xFFFF
3.169892000000000,0,0x0000,0x0000
3.169906291666666,0,0x2005,0xFFFF
3.169926208333333,0,0xA0A0,0xFFFF
3.169940166666667,0,0x2006,0xFFFF
3.169960916666667,0,0x0000,0xFFFF
3.169974958333333,0,0x2007,0xFFFF
3.169994916666667,0,0x1010,0xFFFF
3.170008625000000,0,0x2008,0xFFFF
3.170029333333333,0,0x4C4C,0xFFFF
3.170043208333333,0,0x2009,0xFFFF
3.170063041666667,0,0xFEFE,0xFFFF
3.170076708333333,0,0x200A,0xFFFF
3.170097208333333,0,0x4F4F,0xFFFF
3.170111208333333,0,0x6004,0xFFFF
3.170130791666667,0,0x0000,0x0000
3.170161250000000,0,0x6004,0xFFFF
3.170182041666667,0,0x0000,0x0000
3.170196333333333,0,0x2005,0xFFFF
3.170216541666667,0,0xA0A0,0xFFFF
3.170230625000000,0,0x2006,0xFFFF
3.170251500000000,0,0x0000,0xFFFF
3.170265416666667,0,0x2007,0xFFFF
3.170285291666667,0,0x2020,0xFFFF
3.170298708333333,0,0x2008,0xFFFF
3.170319291666666,0,0xA8A8,0xFFFF
3.170333291666667,0,0x2009,0xFFFF
3.170352958333333,0,0x3B3B,0xFFFF
3.170366708333333,0,0x200A,0xFFFF
3.170387416666667,0,0x4F4F,0xFFFF
3.170401333333333,0,0x6004,0xFFFF
3.170420875000000,0,0x0000,0x0000
3.170451166666667,0,0x6004,0xFFFF
3.170472083333333,0,0x0000,0x0000
3.170486375000000,0,0x2005,0xFFFF
3.170506500000000,0,0xA0A0,0xFFFF
3.170520500000000,0,0x2006,0xFFFF
3.170541375000000,0,0x0000,0xFFFF
3.170555416666667,0,0x2007,0xFFFF
3.170575291666667,0,0x5050,0xFFFF
3.170589000000000,0,0x2008,0xFFFF
3.170609791666667,0,0x4949,0xFFFF
3.170623833333333,0,0x2009,0xFFFF
3.170643666666667,0,0x3F3F,0xFFFF
3.170657333333333,0,0x200A,0xFFFF
3.170678000000000,0,0x4F4F,0xFFFF
3.170691958333333,0,0x6004,0xFFFF
3.170711583333333,0,0x0000,0x0000
3.170742125000000,0,0x6004,0xFFFF
3.170762875000000,0,0x0000,0x0000
3.170777208333333,0,0x2005,0xFFFF
3.170797291666667,0,0xA0A0,0xFFFF
3.170811250000000,0,0x2006,0xFFFF
3.170832000000000,0,0x0000,0xFFFF
3.170846041666667,0,0x2007,0xFFFF
3.170865916666667,0,0x6060,0xFFFF
3.170879625000000,0,0x2008,0xFFFF
3.170900208333333,0,0x0000,0xFFFF
3.170914250000000,0,0x2009,0xFFFF
3.170933958333333,0,0x8080,0xFFFF
3.170947458333333,0,0x200A,0xFFFF
3.170968083333333,0,0x4F4F,0xFFFF
3.170982125000000,0,0x6004,0xFFFF
3.171001625000000,0,0x0000,0x0000
3.171032125000000,0,0x6004,0xFFFF
3.171052916666667,0,0x0000,0x0000
3.171067291666667,0,0x2005,0xFFFF
3.171087375000000,0,0xA0A0,0xFFFF
3.171101166666667,0,0x2006,0xFFFF
3.171121916666667,0,0x0000,0xFFFF
3.171135916666667,0,0x2007,0xFFFF
3.171155791666667,0,0x6060,0xFFFF
3.171169375000000,0,0x2008,0xFFFF
3.171189875000000,0,0x0000,0xFFFF
3.171203875000000,0,0x2009,0xFFFF
3.171223875000000,0,0x8080,0xFFFF
3.171237416666667,0,0x200A,0xFFFF
3.171258041666666,0,0x4F4F,0xFFFF
3.171272000000000,0,0x6004,0xFFFF
3.171291666666667,0,0x0000,0x0000
3.171322208333333,0,0x6004,0xFFFF
3.171343291666667,0,0x0000,0x0000
3.171357708333333,0,0x2005,0xFFFF
3.171377791666667,0,0xA0A0,0xFFFF
3.171391833333333,0,0x2006,0xFFFF
3.171412666666667,0,0x0000,0xFFFF
3.171426625000000,0,0x2007,0xFFFF
3.171446291666667,0,0x7070,0xFFFF
3.171459833333333,0,0x2008,0xFFFF
3.171480625000000,0,0x2727,0xFFFF
3.171494708333333,0,0x2009,0xFFFF
3.171514541666667,0,0xA1A1,0xFFFF
3.171528083333333,0,0x200A,0xFFFF
3.171548791666666,0,0x4F4F,0xFFFF
3.171562916666667,0,0x6004,0xFFFF
3.171582583333334,0,0x0000,0x0000
3.171613166666666,0,0x6004,0xFFFF
3.171633958333334,0,0x0000,0x0000
3.171648375000000,0,0x2005,0xFFFF
3.171668500000000,0,0xA0A0,0xFFFF
3.171682291666666,0,0x2006,0xFFFF
3.171702958333333,0,0x0000,0xFFFF
3.171716833333333,0,0x2007,0xFFFF
3.171736583333333,0,0x5050,0xFFFF
3.171750166666667,0,0x2008,0xFFFF
3.171770916666667,0,0xEEEE,0xFFFF
3.171784875000000,0,0x2009,0xFFFF
3.171804625000000,0,0x2222,0xFFFF
3.171818250000000,0,0x200A,0xFFFF
3.171839083333333,0,0x4F4F,0xFFFF
3.171853041666667,0,0x6004,0xFFFF
3.171872750000000,0,0x0000,0x0000
3.171903291666667,0,0x6004,0xFFFF
3.171924166666667,0,0x0000,0x0000
3.171938583333333,0,0x2005,0xFFFF
3.171958875000000,0,0xA0A0,0xFFFF
3.171973083333333,0,0x2006,0xFFFF
3.171993750000000,0,0x0000,0xFFFF
3.172007708333333,0,0x2007,0xFFFF
3.172027625000000,0,0x3030,0xFFFF
3.172041250000000,0,0x2008,0xFFFF
3.172061791666667,0,0xCCCC,0xFFFF
3.172075708333333,0,0x2009,0xFFFF
3.172095541666667,0,0x9797,0xFFFF
3.172109041666667,0,0x200A,0xFFFF
3.172129708333333,0,0x4F4F,0xFFFF
3.172143666666666,0,0x6004,0xFFFF
3.172163291666667,0,0x0000,0x0000
3.172193958333333,0,0x6004,0xFFFF
3.172214666666667,0,0x0000,0x0000
3.172229041666667,0,0x2005,0xFFFF
3.172249083333333,0,0xA0A0,0xFFFF
3.172263000000000,0,0x2006,0xFFFF
3.172283625000000,0,0x0000,0xFFFF
3.172297708333333,0,0x2007,0xFFFF
3.172317666666667,0,0x2020,0xFFFF
3.172331166666666,0,0x2008,0xFFFF
3.172351791666667,0,0x6868,0xFFFF
3.172365666666667,0,0x2009,0xFFFF
3.172385458333333,0,0x4040,0xFFFF
3.172398958333333,0,0x200A,0xFFFF
3.172419500000000,0,0x4F4F,0xFFFF
3.172433583333333,0,0x6004,0xFFFF
3.172453125000000,0,0x0000,0x0000
3.172483208333333,0,0x6004,0xFFFF
3.172504083333333,0,0x0000,0x0000
3.172518458333333,0,0x2005,0xFFFF
3.172538583333333,0,0xA0A0,0xFFFF
3.172552583333333,0,0x2006,0xFFFF
3.172573416666667,0,0x0000,0xFFFF
3.172587458333334,0,0x2007,0xFFFF
3.172607375000000,0,0x7070,0xFFFF
3.172621041666666,0,0x2008,0xFFFF
3.172641750000000,0,0x0101,0xFFFF
3.172655708333334,0,0x2009,0xFFFF
3.172675416666667,0,0x8080,0xFFFF
3.172689000000000,0,0x200A,0xFFFF
3.172709583333333,0,0x4F4F,0xFFFF
3.172723416666666,0,0x6004,0xFFFF
3.172743041666667,0,0x0000,0x0000
3.172773541666666,0,0x6004,0xFFFF
3.172794375000000,0,0x0000,0x0000
3.172808750000000,0,0x2005,0xFFFF
3.172828958333333,0,0xA0A0,0xFFFF
3.172842666666666,0,0x2006,0xFFFF
3.172863375000000,0,0x0000,0xFFFF
3.172877208333333,0,0x2007,0xFFFF
3.172897000000000,0,0x0000,0xFFFF
3.172910708333333,0,0x2008,0xFFFF
3.172931416666667,0,0x0E0E,0xFFFF
3.172945208333333,0,0x2009,0xFFFF
3.172965000000000,0,0x2323,0xFFFF
3.172978583333333,0,0x200A,0xFFFF
3.172999291666667,0,0x4F4F,0xFFFF
3.173013166666667,0,0x6004,0xFFFF
3.173032958333333,0,0x0000,0x0000
3.173063250000000,0,0x6004,0xFFFF
3.173084125000000,0,0x0000,0x0000
3.173098375000000,0,0x2005,0xFFFF
3.173118458333333,0,0xA0A0,0xFFFF
3.173132291666667,0,0x2006,0xFFFF
3.173152958333334,0,0x0000,0xFFFF
3.173166833333333,0,0x2007,0xFFFF
3.173186875000000,0,0x1010,0xFFFF
3.173200416666667,0,0x2008,0xFFFF
3.173221083333333,0,0x4C4C,0xFFFF
3.173235000000000,0,0x2009,0xFFFF
3.173254750000000,0,0xFEFE,0xFFFF
3.173268333333333,0,0x200A,0xFFFF
3.173288916666666,0,0x4F4F,0xFFFF
3.173303000000000,0,0x6004,0xFFFF
3.173322666666667,0,0x0000,0x0000
3.173353333333333,0,0x6004,0xFFFF
3.173374166666667,0,0x0000,0x0000
3.173388458333333,0,0x2005,0xFFFF
3.173408583333333,0,0xA0A0,0xFFFF
3.173422458333333,0,0x2006,0xFFFF
3.173443166666666,0,0x0000,0xFFFF
3.173457125000000,0,0x2007,0xFFFF
3.173477000000000,0,0x5050,0xFFFF
3.173490541666667,0,0x2008,0xFFFF
3.173511208333333,0,0xEEEE,0xFFFF
3.173525125000000,0,0x2009,0xFFFF
3.173544958333333,0,0x8282,0xFFFF
3.173558833333333,0,0x200A,0xFFFF
3.173579333333334,0,0x4F4F,0xFFFF
3.173593375000000,0,0x6004,0xFFFF
3.173613000000000,0,0x0000,0x0000
3.173643458333333,0,0x6004,0xFFFF
3.173664333333333,0,0x0000,0x0000
3.173678750000000,0,0x2005,0xFFFF
3.173698958333333,0,0xA0A0,0xFFFF
3.173712916666667,0,0x2006,0xFFFF
3.173733541666667,0,0x0000,0xFFFF
3.173747416666667,0,0x2007,0xFFFF
3.173767333333333,0,0x3030,0xFFFF
3.173781375000000,0,0x2008,0xFFFF
3.173802083333333,0,0x8C8C,0xFFFF
3.173815958333333,0,0x2009,0xFFFF
3.173834875000000,0,0x9999,0xFFFF
3.173847000000000,0,0x200A,0xFFFF
3.173867666666667,0,0x4F4F,0xFFFF
3.173881500000000,0,0x6004,0xFFFF
3.173900041666667,0,0x0000,0x0000
3.173929208333333,0,0x6004,0xFFFF
3.173949958333333,0,0x0000,0x0000
3.173964500000000,0,0x2005,0xFFFF
3.173983583333333,0,0xA0A0,0xFFFF
3.173995958333333,0,0x2006,0xFFFF
3.174016583333333,0,0x0000,0xFFFF
3.174030458333333,0,0x2007,0xFFFF
3.174049250000000,0,0x5050,0xFFFF
3.174061541666667,0,0x2008,0xFFFF
3.174082333333333,0,0xE0E0,0xFFFF
3.174096208333333,0,0x2009,0xFFFF
3.174114875000000,0,0xA6A6,0xFFFF
3.174126958333333,0,0x200A,0xFFFF
3.174147666666667,0,0x4F4F,0xFFFF
3.174161666666667,0,0x6004,0xFFFF
3.174180291666667,0,0x0000,0x0000
3.174209333333333,0,0x6004,0xFFFF
3.174230416666667,0,0x0000,0x0000
3.174244916666667,0,0x2005,0xFFFF
3.174263875000000,0,0xA0A0,0xFFFF
3.174276208333333,0,0x2006,0xFFFF
3.174296833333333,0,0x0000,0xFFFF
3.174310708333334,0,0x2007,0xFFFF
3.174329416666667,0,0x5050,0xFFFF
3.174341458333333,0,0x2008,0xFFFF
3.174362208333333,0,0x8E8E,0xFFFF
3.174376083333333,0,0x2009,0xFFFF
3.174394875000000,0,0x8C8C,0xFFFF
3.174406958333333,0,0x200A,0xFFFF
3.174427708333333,0,0x4F4F,0xFFFF
3.174441541666666,0,0x6004,0xFFFF
3.174460041666667,0,0x0000,0x0000
3.174489375000000,0,0x6004,0xFFFF
3.174510083333333,0,0x0000,0x0000
3.174524375000000,0,0x2005,0xFFFF
3.174543416666667,0,0xA0A0,0xFFFF
3.174555666666667,0,0x2006,0xFFFF
3.174576416666667,0,0x0000,0xFFFF
3.174590333333333,0,0x2007,0xFFFF
3.174609166666666,0,0x3030,0xFFFF
3.174621250000000,0,0x2008,0xFFFF
3.174641916666667,0,0xCCCC,0xFFFF
3.174655833333333,0,0x2009,0xFFFF
3.174674500000000,0,0x9999,0xFFFF
3.174686500000000,0,0x200A,0xFFFF
3.174707166666667,0,0x4F4F,0xFFFF
3.174721208333333,0,0x6004,0xFFFF
3.174739833333333,0,0x0000,0x0000
3.174768791666667,0,0x6004,0xFFFF
3.174789666666667,0,0x0000,0x0000
3.174803958333333,0,0x2005,0xFFFF
3.174823083333334,0,0xA0A0,0xFFFF
3.174835291666667,0,0x2006,0xFFFF
3.174855958333333,0,0x0000,0xFFFF
3.174869833333333,0,0x2007,0xFFFF
3.174888583333333,0,0x5050,0xFFFF
3.174900708333333,0,0x2008,0xFFFF
3.174921333333333,0,0x6868,0xFFFF
3.174935125000000,0,0x2009,0xFFFF
3.174953875000000,0,0x4040,0xFFFF
3.174966000000000,0,0x200A,0xFFFF
3.174986833333334,0,0x4F4F,0xFFFF
3.175000791666667,0,0x6004,0xFFFF
3.175019458333333,0,0x0000,0x0000
3.175048458333333,0,0x6004,0xFFFF
3.175069291666667,0,0x0000,0x0000
3.175083458333333,0,0x2005,0xFFFF
3.175102500000000,0,0xA0A0,0xFFFF
3.175114666666667,0,0x2006,0xFFFF
3.175135541666667,0,0x0000,0xFFFF
3.175149416666667,0,0x2007,0xFFFF
3.175172583333334,0,0x1010,0xFFFF
3.175185958333334,0,0x2008,0xFFFF
3.175205250000000,0,0x0000,0xFFFF
3.175217666666667,0,0x2009,0xFFFF
3.175237291666666,0,0x8080,0xFFFF
3.175250291666667,0,0x200A,0xFFFF
3.175269125000000,0,0x4F4F,0xFFFF
3.175281416666667,0,0x6004,0xFFFF
3.175300791666666,0,0x0000,0x0000
3.175333416666667,0,0x6004,0xFFFF
3.175351958333333,0,0x0000,0x0000
3.175364333333333,0,0x2005,0xFFFF
3.175384666666667,0,0xA0A0,0xFFFF
3.175397958333333,0,0x2006,0xFFFF
3.175416750000000,0,0x0000,0xFFFF
3.175428875000000,0,0x2007,0xFFFF
3.175448500000000,0,0x5050,0xFFFF
3.175461458333333,0,0x2008,0xFFFF
3.175480208333334,0,0xA0A0,0xFFFF
3.175492250000000,0,0x2009,0xFFFF
3.175511833333333,0,0x3636,0xFFFF
3.175524666666667,0,0x200A,0xFFFF
3.175543416666667,0,0x4F4F,0xFFFF
3.175555625000000,0,0x6004,0xFFFF
3.175575208333334,0,0x0000,0x0000
3.175605083333333,0,0x6004,0xFFFF
3.175623750000000,0,0x0000,0x0000
3.175636083333333,0,0x2005,0xFFFF
3.175656291666667,0,0xA0A0,0xFFFF
3.175669583333333,0,0x2006,0xFFFF
3.175688375000000,0,0x0000,0xFFFF
3.175700291666667,0,0x2007,0xFFFF
3.175721041666667,0,0x5050,0xFFFF
3.175732958333333,0,0x2008,0xFFFF
3.175752708333333,0,0xA6A6,0xFFFF
3.175765666666666,0,0x2009,0xFFFF
3.175784458333333,0,0x3333,0xFFFF
3.175796666666667,0,0x200A,0xFFFF
3.175816250000000,0,0x4F4F,0xFFFF
3.175829208333333,0,0x6004,0xFFFF
3.175847791666667,0,0x0000,0x0000
3.175877708333333,0,0x6004,0xFFFF
3.175897416666666,0,0x0000,0x0000
3.175910583333333,0,0x2005,0xFFFF
3.175929750000000,0,0xA0A0,0xFFFF
3.175942083333333,0,0x2006,0xFFFF
3.175961750000000,0,0x0000,0xFFFF
3.175974583333333,0,0x2007,0xFFFF
3.175993416666667,0,0x2020,0xFFFF
3.176005583333333,0,0x2008,0xFFFF
3.176025208333333,0,0x0000,0xFFFF
3.176038166666667,0,0x2009,0xFFFF
3.176057041666667,0,0x8080,0xFFFF
3.176069208333333,0,0x200A,0xFFFF
3.176089000000000,0,0x4F4F,0xFFFF
3.176101916666667,0,0x6004,0xFFFF
3.176120541666667,0,0x0000,0x0000
3.176149875000000,0,0x6004,0xFFFF
3.176169625000000,0,0x0000,0x0000
3.176182958333333,0,0x2005,0xFFFF
3.176202041666667,0,0xA0A0,0xFFFF
3.176214375000000,0,0x2006,0xFFFF
3.176234166666667,0,0x0000,0xFFFF
3.176247125000000,0,0x2007,0xFFFF
3.176265875000000,0,0x5050,0xFFFF
3.176278000000000,0,0x2008,0xFFFF
3.176297666666667,0,0xAEAE,0xFFFF
3.176310583333333,0,0x2009,0xFFFF
3.176329375000000,0,0x2222,0xFFFF
3.176341416666667,0,0x200A,0xFFFF
3.176361000000000,0,0x4F4F,0xFFFF
3.176374000000000,0,0x6004,0xFFFF
3.176392583333334,0,0x0000,0x0000
3.176421708333333,0,0x6004,0xFFFF
3.176441541666667,0,0x0000,0x0000
3.176454791666667,0,0x2005,0xFFFF
3.176473916666667,0,0xA0A0,0xFFFF
3.176486083333333,0,0x2006,0xFFFF
3.176505750000000,0,0x0000,0xFFFF
3.176518583333333,0,0x2007,0xFFFF
3.176537375000000,0,0x3030,0xFFFF
3.176549500000000,0,0x2008,0xFFFF
3.176569166666667,0,0x8C8C,0xFFFF
3.176582000000000,0,0x2009,0xFFFF
3.176600708333333,0,0x9A9A,0xFFFF
3.176612750000000,0,0x200A,0xFFFF
3.176632333333334,0,0x4F4F,0xFFFF
3.176645208333333,0,0x6004,0xFFFF
3.176663750000000,0,0x0000,0x0000
3.176692833333334,0,0x6004,0xFFFF
3.176712708333334,0,0x0000,0x0000
3.176726000000000,0,0x2005,0xFFFF
3.176745000000000,0,0xA0A0,0xFFFF
3.176757291666667,0,0x2006,0xFFFF
3.176776958333333,0,0x0000,0xFFFF
3.176789708333333,0,0x2007,0xFFFF
3.176808458333333,0,0x5050,0xFFFF
3.176820708333334,0,0x2008,0xFFFF
3.176840375000000,0,0x8E8E,0xFFFF
3.176853291666667,0,0x2009,0xFFFF
3.176872000000000,0,0x2222,0xFFFF
3.176884041666667,0,0x200A,0xFFFF
3.176903625000000,0,0x4F4F,0xFFFF
3.176916708333333,0,0x6004,0xFFFF
3.176935208333334,0,0x0000,0x0000
3.176964125000000,0,0x6004,0xFFFF
3.176983958333333,0,0x0000,0x0000
3.176997291666666,0,0x2005,0xFFFF
3.177016416666667,0,0xA0A0,0xFFFF
3.177028666666667,0,0x2006,0xFFFF
3.177048458333333,0,0x0000,0xFFFF
3.177061291666667,0,0x2007,0xFFFF
3.177080041666667,0,0x3030,0xFFFF
3.177092208333333,0,0x2008,0xFFFF
3.177111791666666,0,0x8C8C,0xFFFF
3.177124625000000,0,0x2009,0xFFFF
3.177143375000000,0,0xA1A1,0xFFFF
3.177155375000000,0,0x200A,0xFFFF
3.177175000000000,0,0x4F4F,0xFFFF
3.177187875000000,0,0x6004,0xFFFF
3.177206291666667,0,0x0000,0x0000
3.177235041666667,0,0x6004,0xFFFF
3.177254875000000,0,0x0000,0x0000
3.177268208333333,0,0x2005,0xFFFF
3.177287333333333,0,0xA0A0,0xFFFF
3.177299625000000,0,0x2006,0xFFFF
3.177319333333333,0,0x0000,0xFFFF
3.177332291666667,0,0x2007,0xFFFF
3.177351125000000,0,0x0000,0xFFFF
3.177363333333334,0,0x2008,0xFFFF
3.177382958333333,0,0xCECE,0xFFFF
3.177395875000000,0,0x2009,0xFFFF
3.177414625000000,0,0x0202,0xFFFF
3.177426791666667,0,0x200A,0xFFFF
3.177446458333333,0,0x4F4F,0xFFFF
3.177459458333333,0,0x6004,0xFFFF
3.177477875000000,0,0x0000,0x0000
3.177506708333333,0,0x6004,0xFFFF
3.177526583333333,0,0x0000,0x0000
3.177539791666667,0,0x2005,0xFFFF
3.177558791666667,0,0xA0A0,0xFFFF
3.177571250000000,0,0x2006,0xFFFF
3.177590958333333,0,0x0000,0xFFFF
3.177603916666667,0,0x2007,0xFFFF
3.177622833333333,0,0x3030,0xFFFF
3.177634958333333,0,0x2008,0xFFFF
3.177654625000000,0,0x2C2C,0xFFFF
3.177667500000000,0,0x2009,0xFFFF
3.177686291666667,0,0xA0A0,0xFFFF
3.177698291666667,0,0x200A,0xFFFF
3.177717958333333,0,0x4F4F,0xFFFF
3.177730833333333,0,0x6004,0xFFFF
3.177749416666667,0,0x0000,0x0000
3.177778625000000,0,0x6004,0xFFFF
3.177798458333333,0,0x0000,0x0000
3.177811666666666,0,0x2005,0xFFFF
3.177830833333333,0,0xA0A0,0xFFFF
3.177843083333333,0,0x2006,0xFFFF
3.177862833333333,0,0x0000,0xFFFF
3.177875791666667,0,0x2007,0xFFFF
3.177894833333333,0,0x0000,0xFFFF
3.177907000000000,0,0x2008,0xFFFF
3.177926708333333,0,0xA6A6,0xFFFF
3.177939625000000,0,0x2009,0xFFFF
3.177958375000000,0,0x3636,0xFFFF
3.177970500000000,0,0x200A,0xFFFF
3.177990166666667,0,0x4F4F,0xFFFF
3.178003083333333,0,0x6004,0xFFFF
3.178021625000000,0,0x0000,0x0000
3.178050375000000,0,0x6004,0xFFFF
3.178070250000000,0,0x0000,0x0000
3.178083416666666,0,0x2005,0xFFFF
3.178102500000000,0,0xA0A0,0xFFFF
3.178114750000000,0,0x2006,0xFFFF
3.178134625000000,0,0x0000,0xFFFF
3.178147541666667,0,0x2007,0xFFFF
3.178166458333334,0,0x5050,0xFFFF
3.178178583333333,0,0x2008,0xFFFF
3.178198333333333,0,0x6868,0xFFFF
3.178211000000000,0,0x2009,0xFFFF
3.178229791666667,0,0x4040,0xFFFF
3.178241958333333,0,0x200A,0xFFFF
3.178261708333333,0,0x4F4F,0xFFFF
3.178274583333333,0,0x6004,0xFFFF
3.178293166666667,0,0x0000,0x0000
3.178322000000000,0,0x6004,0xFFFF
3.178341750000000,0,0x0000,0x0000
3.178354958333333,0,0x2005,0xFFFF
3.178374125000000,0,0xA0A0,0xFFFF
3.178386375000000,0,0x2006,0xFFFF
3.178405958333333,0,0x0000,0xFFFF
3.178418750000000,0,0x2007,0xFFFF
3.178437500000000,0,0x1010,0xFFFF
3.178449541666667,0,0x2008,0xFFFF
3.178469250000000,0,0x0000,0xFFFF
3.178482083333333,0,0x2009,0xFFFF
3.178500875000000,0,0x8080,0xFFFF
3.178513000000000,0,0x200A,0xFFFF
3.178532541666667,0,0x4F4F,0xFFFF
3.178545500000000,0,0x6004,0xFFFF
3.178564083333333,0,0x0000,0x0000
3.178592916666667,0,0x6004,0xFFFF
3.178612625000000,0,0x0000,0x0000
3.178625833333333,0,0x2005,0xFFFF
3.178644875000000,0,0xA0A0,0xFFFF
3.178657083333333,0,0x2006,0xFFFF
3.178676875000000,0,0x0000,0xFFFF
3.178689750000000,0,0x2007,0xFFFF
3.178708500000000,0,0x4040,0xFFFF
3.178720708333334,0,0x2008,0xFFFF
3.178740458333333,0,0x0000,0xFFFF
3.178753333333333,0,0x2009,0xFFFF
3.178772291666667,0,0x8080,0xFFFF
3.178784500000000,0,0x200A,0xFFFF
3.178804166666667,0,0x4F4F,0xFFFF
3.178817125000000,0,0x6004,0xFFFF
3.178835958333333,0,0x0000,0x0000
3.178864958333333,0,0x6004,0xFFFF
3.178884666666667,0,0x0000,0x0000
3.178897958333333,0,0x2005,0xFFFF
3.178916916666667,0,0xA0A0,0xFFFF
3.178929166666667,0,0x2006,0xFFFF
3.178948916666667,0,0x0000,0xFFFF
3.178961625000000,0,0x2007,0xFFFF
3.178980375000000,0,0x5050,0xFFFF
3.178992541666667,0,0x2008,0xFFFF
3.179012250000000,0,0x0E0E,0xFFFF
3.179025166666666,0,0x2009,0xFFFF
3.179043916666667,0,0x2323,0xFFFF
3.179056000000000,0,0x200A,0xFFFF
3.179075625000000,0,0x4F4F,0xFFFF
3.179088500000000,0,0x6004,0xFFFF
3.179107125000000,0,0x0000,0x0000
3.179136208333333,0,0x6004,0xFFFF
3.179155958333333,0,0x0000,0x0000
3.179169250000000,0,0x2005,0xFFFF
3.179188291666667,0,0xA0A0,0xFFFF
3.179200416666667,0,0x2006,0xFFFF
3.179220083333334,0,0x0000,0xFFFF
3.179233000000000,0,0x2007,0xFFFF
3.179251666666667,0,0x3030,0xFFFF
3.179263708333333,0,0x2008,0xFFFF
3.179283375000000,0,0xECEC,0xFFFF
3.179296291666667,0,0x2009,0xFFFF
3.179315041666666,0,0x9F9F,0xFFFF
3.179327083333333,0,0x200A,0xFFFF
3.179346791666667,0,0x4F4F,0xFFFF
3.179359708333333,0,0x6004,0xFFFF
3.179378333333333,0,0x0000,0x0000
3.179407416666667,0,0x6004,0xFFFF
3.179427083333333,0,0x0000,0x0000
3.179440375000000,0,0x2005,0xFFFF
3.179459458333334,0,0xA0A0,0xFFFF
3.179471666666667,0,0x2006,0xFFFF
3.179491250000000,0,0x0000,0xFFFF
3.179504166666667,0,0x2007,0xFFFF
3.179523166666667,0,0x5050,0xFFFF
3.179535291666667,0,0x2008,0xFFFF
3.179555041666667,0,0x6E6E,0xFFFF
3.179567875000000,0,0x2009,0xFFFF
3.179586666666667,0,0x2020,0xFFFF
3.179598791666667,0,0x200A,0xFFFF
3.179618375000000,0,0x4F4F,0xFFFF
3.179631333333333,0,0x6004,0xFFFF
3.179649875000000,0,0x0000,0x0000
3.179678958333333,0,0x6004,0xFFFF
3.179698833333333,0,0x0000,0x0000
3.179712125000000,0,0x2005,0xFFFF
3.179731166666667,0,0xA0A0,0xFFFF
3.179743291666667,0,0x2006,0xFFFF
3.179763125000000,0,0x0000,0xFFFF
3.179775875000000,0,0x2007,0xFFFF
3.179794666666667,0,0x3030,0xFFFF
3.179806791666667,0,0x2008,0xFFFF
3.179826458333333,0,0x8C8C,0xFFFF
3.179839291666667,0,0x2009,0xFFFF
3.179858166666667,0,0x9C9C,0xFFFF
3.179870208333333,0,0x200A,0xFFFF
3.179889916666667,0,0x4F4F,0xFFFF
3.179902791666667,0,0x6004,0xFFFF
3.179921416666667,0,0x0000,0x0000
3.179950958333333,0,0x6004,0xFFFF
3.179970791666667,0,0x0000,0x0000
3.179984083333333,0,0x2005,0xFFFF
3.180003000000000,0,0xA0A0,0xFFFF
3.180015291666667,0,0x2006,0xFFFF
3.180035041666667,0,0x0000,0xFFFF
3.180048041666667,0,0x2007,0xFFFF
3.180066833333334,0,0x5050,0xFFFF
3.180079000000000,0,0x2008,0xFFFF
3.180098583333333,0,0xA8A8,0xFFFF
3.180111500000000,0,0x2009,0xFFFF
3.180130333333334,0,0x4141,0xFFFF
3.180142416666667,0,0x200A,0xFFFF
3.180162083333333,0,0x4F4F,0xFFFF
3.180174958333333,0,0x6004,0xFFFF
3.180193500000000,0,0x0000,0x0000
3.180222541666667,0,0x6004,0xFFFF
3.180242375000000,0,0x0000,0x0000
3.180255750000000,0,0x2005,0xFFFF
3.180274833333333,0,0xA0A0,0xFFFF
3.180287125000000,0,0x2006,0xFFFF
3.180306750000000,0,0x0000,0xFFFF
3.180319708333333,0,0x2007,0xFFFF
3.180338625000000,0,0x5050,0xFFFF
3.180350708333334,0,0x2008,0xFFFF
3.180370333333333,0,0xA0A0,0xFFFF
3.180383208333333,0,0x2009,0xFFFF
3.180401916666667,0,0xA9A9,0xFFFF
3.180414041666667,0,0x200A,0xFFFF
3.180433708333333,0,0x4F4F,0xFFFF
3.180446625000000,0,0x6004,0xFFFF
3.180465125000000,0,0x0000,0x0000
3.180494208333333,0,0x6004,0xFFFF
3.180513875000000,0,0x0000,0x0000
3.180527250000000,0,0x2005,0xFFFF
3.180546166666667,0,0xA0A0,0xFFFF
3.180558583333333,0,0x2006,0xFFFF
3.180578208333333,0,0x0000,0xFFFF
3.180591041666667,0,0x2007,0xFFFF
3.180609875000000,0,0x5050,0xFFFF
3.180622000000000,0,0x2008,0xFFFF
3.180641833333334,0,0xA0A0,0xFFFF
3.180654625000000,0,0x2009,0xFFFF
3.180673333333333,0,0xA4A4,0xFFFF
3.180685458333333,0,0x200A,0xFFFF
3.180705125000000,0,0x4F4F,0xFFFF
3.180717958333333,0,0x6004,0xFFFF
3.180736541666667,0,0x0000,0x0000
3.180765375000000,0,0x6004,0xFFFF
3.180785208333333,0,0x0000,0x0000
3.180798333333333,0,0x2005,0xFFFF
3.180817333333333,0,0xA0A0,0xFFFF
3.180829750000000,0,0x2006,0xFFFF
3.180849500000000,0,0x0000,0xFFFF
3.180862166666667,0,0x2007,0xFFFF
3.180881125000000,0,0x5050,0xFFFF
3.180893291666667,0,0x2008,0xFFFF
3.180912791666667,0,0x4646,0xFFFF
3.180925708333334,0,0x2009,0xFFFF
3.180944500000000,0,0x3636,0xFFFF
3.180956625000000,0,0x200A,0xFFFF
3.180976291666667,0,0x4F4F,0xFFFF
3.180989166666667,0,0x6004,0xFFFF
3.181007791666667,0,0x0000,0x0000
3.181036791666667,0,0x6004,0xFFFF
3.181056625000000,0,0x0000,0x0000
3.181069833333333,0,0x2005,0xFFFF
3.181088875000000,0,0xA0A0,0xFFFF
3.181101083333334,0,0x2006,0xFFFF
3.181120625000000,0,0x0000,0xFFFF
3.181133625000000,0,0x2007,0xFFFF
3.181152500000000,0,0x5050,0xFFFF
3.181164583333334,0,0x2008,0xFFFF
3.181184166666667,0,0xA0A0,0xFFFF
3.181196958333333,0,0x2009,0xFFFF
3.181215791666667,0,0xA4A4,0xFFFF
3.181227875000000,0,0x200A,0xFFFF
3.181247666666667,0,0x4F4F,0xFFFF
3.181260583333333,0,0x6004,0xFFFF
3.181279125000000,0,0x0000,0x0000
3.181307833333333,0,0x6004,0xFFFF
3.181327541666667,0,0x0000,0x0000
3.181340750000000,0,0x2005,0xFFFF
3.181359833333333,0,0xA0A0,0xFFFF
3.181372166666667,0,0x2006,0xFFFF
3.181391708333333,0,0x0000,0xFFFF
3.181404583333333,0,0x2007,0xFFFF
3.181423458333333,0,0x1010,0xFFFF
3.181435541666667,0,0x2008,0xFFFF
3.181455166666667,0,0xA0A0,0xFFFF
3.181468083333333,0,0x2009,0xFFFF
3.181486875000000,0,0xA9A9,0xFFFF
3.181499041666667,0,0x200A,0xFFFF
3.181518666666667,0,0x4F4F,0xFFFF
3.181531500000000,0,0x6004,0xFFFF
3.181550041666667,0,0x0000,0x0000
3.181579125000000,0,0x6004,0xFFFF
3.181598791666667,0,0x0000,0x0000
3.181611916666667,0,0x2005,0xFFFF
3.181631083333333,0,0xA0A0,0xFFFF
3.181643333333333,0,0x2006,0xFFFF
3.181663166666667,0,0x0000,0xFFFF
3.181676000000000,0,0x2007,0xFFFF
3.181694833333333,0,0x3030,0xFFFF
3.181706875000000,0,0x2008,0xFFFF
3.181726416666667,0,0x0606,0xFFFF
3.181739333333333,0,0x2009,0xFFFF
3.181757958333333,0,0x3636,0xFFFF
3.181770083333333,0,0x200A,0xFFFF
3.181789708333334,0,0x4F4F,0xFFFF
3.181802583333333,0,0x6004,0xFFFF
3.181821083333333,0,0x0000,0x0000
3.181850166666667,0,0x6004,0xFFFF
3.181869958333333,0,0x0000,0x0000
3.181883208333333,0,0x2005,0xFFFF
3.181902333333333,0,0xA0A0,0xFFFF
3.181914583333334,0,0x2006,0xFFFF
3.181934166666667,0,0x0000,0xFFFF
3.181946875000000,0,0x2007,0xFFFF
3.181965708333333,0,0x4040,0xFFFF
3.181977833333333,0,0x2008,0xFFFF
3.181997416666666,0,0x0000,0xFFFF
3.182010208333333,0,0x2009,0xFFFF
3.182029000000000,0,0x8080,0xFFFF
3.182041083333333,0,0x200A,0xFFFF
3.182060750000000,0,0x4F4F,0xFFFF
3.182073583333333,0,0x6004,0xFFFF
3.182092250000000,0,0x0000,0x0000
3.182121375000000,0,0x6004,0xFFFF
3.182141166666667,0,0x0000,0x0000
3.182154375000000,0,0x2005,0xFFFF
3.182173500000000,0,0xA0A0,0xFFFF
3.182185916666667,0,0x2006,0xFFFF
3.182205583333333,0,0x0000,0xFFFF
3.182218500000000,0,0x2007,0xFFFF
3.182237333333333,0,0x5050,0xFFFF
3.182249375000000,0,0x2008,0xFFFF
3.182268958333333,0,0xEEEE,0xFFFF
3.182281958333333,0,0x2009,0xFFFF
3.182300833333333,0,0x2222,0xFFFF
3.182313000000000,0,0x200A,0xFFFF
3.182332458333333,0,0x4F4F,0xFFFF
3.182345333333333,0,0x6004,0xFFFF
3.182363958333333,0,0x0000,0x0000
3.182393083333333,0,0x6004,0xFFFF
3.182413041666666,0,0x0000,0x0000
3.182426375000000,0,0x2005,0xFFFF
3.182445416666666,0,0xA0A0,0xFFFF
3.182457791666667,0,0x2006,0xFFFF
3.182477541666667,0,0x0000,0xFFFF
3.182490375000000,0,0x2007,0xFFFF
3.182509041666667,0,0x3030,0xFFFF
3.182521125000000,0,0x2008,0xFFFF
3.182540916666666,0,0x6C6C,0xFFFF
3.182553750000000,0,0x2009,0xFFFF
3.182572541666667,0,0x9E9E,0xFFFF
3.182584583333333,0,0x200A,0xFFFF
3.182604250000000,0,0x4F4F,0xFFFF
3.182617166666667,0,0x6004,0xFFFF
3.182635708333333,0,0x0000,0x0000
3.182664416666667,0,0x6004,0xFFFF
3.182684250000000,0,0x0000,0x0000
3.182697500000000,0,0x2005,0xFFFF
3.182716500000000,0,0xA0A0,0xFFFF
3.182728750000000,0,0x2006,0xFFFF
3.182748291666667,0,0x0000,0xFFFF
3.182761083333333,0,0x2007,0xFFFF
3.182779916666667,0,0x5050,0xFFFF
3.182792083333333,0,0x2008,0xFFFF
3.182811875000000,0,0x6868,0xFFFF
3.182824625000000,0,0x2009,0xFFFF
3.182843458333333,0,0x4040,0xFFFF
3.182855458333333,0,0x200A,0xFFFF
3.182875000000000,0,0x4F4F,0xFFFF
3.182887875000000,0,0x6004,0xFFFF
3.182906541666667,0,0x0000,0x0000
3.182935500000000,0,0x6004,0xFFFF
3.182955375000000,0,0x0000,0x0000
3.182968666666667,0,0x2005,0xFFFF
3.182987791666667,0,0xA0A0,0xFFFF
3.183000083333333,0,0x2006,0xFFFF
3.183019875000000,0,0x0000,0xFFFF
3.183032833333333,0,0x2007,0xFFFF
3.183051625000000,0,0x1010,0xFFFF
3.183063791666667,0,0x2008,0xFFFF
3.183083458333333,0,0x0000,0xFFFF
3.183096250000000,0,0x2009,0xFFFF
3.183115125000000,0,0x8080,0xFFFF
3.183127125000000,0,0x200A,0xFFFF
3.183146666666667,0,0x4F4F,0xFFFF
3.183159583333333,0,0x6004,0xFFFF
3.183178125000000,0,0x0000,0x0000
3.183207166666667,0,0x6004,0xFFFF
3.183227000000000,0,0x0000,0x0000
3.183240333333333,0,0x2005,0xFFFF
3.183259375000000,0,0xA0A0,0xFFFF
3.183271708333333,0,0x2006,0xFFFF
3.183291416666667,0,0x0000,0xFFFF
3.183304291666667,0,0x2007,0xFFFF
3.183323041666667,0,0x5050,0xFFFF
3.183335125000000,0,0x2008,0xFFFF
3.183354750000000,0,0x8E8E,0xFFFF
3.183367666666667,0,0x2009,0xFFFF
3.183386500000000,0,0x2222,0xFFFF
3.183398500000000,0,0x200A,0xFFFF
3.183418208333333,0,0x4F4F,0xFFFF
3.183431166666667,0,0x6004,0xFFFF
3.183449791666667,0,0x0000,0x0000
3.183478708333333,0,0x6004,0xFFFF
3.183498500000000,0,0x0000,0x0000
3.183511750000000,0,0x2005,0xFFFF
3.183530833333333,0,0xA0A0,0xFFFF
3.183543041666667,0,0x2006,0xFFFF
3.183562750000000,0,0x0000,0xFFFF
3.183575708333333,0,0x2007,0xFFFF
3.183594541666667,0,0x3030,0xFFFF
3.183606666666666,0,0x2008,0xFFFF
3.183626333333333,0,0x8C8C,0xFFFF
3.183639166666667,0,0x2009,0xFFFF
3.183658000000000,0,0x9F9F,0xFFFF
3.183670083333333,0,0x200A,0xFFFF
3.183689875000000,0,0x4F4F,0xFFFF
3.183702791666667,0,0x6004,0xFFFF
3.183721333333333,0,0x0000,0x0000
3.183750250000000,0,0x6004,0xFFFF
3.183770000000000,0,0x0000,0x0000
3.183783125000000,0,0x2005,0xFFFF
3.183802125000000,0,0xA0A0,0xFFFF
3.183814375000000,0,0x2006,0xFFFF
3.183834041666667,0,0x0000,0xFFFF
3.183846958333334,0,0x2007,0xFFFF
3.183865791666667,0,0x5050,0xFFFF
3.183878000000000,0,0x2008,0xFFFF
3.183897458333333,0,0xA8A8,0xFFFF
3.183910166666667,0,0x2009,0xFFFF
3.183928958333333,0,0x4141,0xFFFF
3.183940916666667,0,0x200A,0xFFFF
3.183960500000000,0,0x4F4F,0xFFFF
3.183973375000000,0,0x6004,0xFFFF
3.183992041666666,0,0x0000,0x0000
3.184020875000000,0,0x6004,0xFFFF
3.184040708333333,0,0x0000,0x0000
3.184053958333333,0,0x2005,0xFFFF
3.184073083333333,0,0xA0A0,0xFFFF
3.184085333333333,0,0x2006,0xFFFF
3.184105083333333,0,0x0000,0xFFFF
3.184117958333333,0,0x2007,0xFFFF
3.184136791666667,0,0x5050,0xFFFF
3.184148916666667,0,0x2008,0xFFFF
3.184168708333333,0,0xA0A0,0xFFFF
3.184181625000000,0,0x2009,0xFFFF
3.184200500000000,0,0xA9A9,0xFFFF
3.184212458333334,0,0x200A,0xFFFF
3.184232125000000,0,0x4F4F,0xFFFF
3.184245083333333,0,0x6004,0xFFFF
3.184263666666667,0,0x0000,0x0000
3.184292750000000,0,0x6004,0xFFFF
3.184312541666667,0,0x0000,0x0000
3.184325958333333,0,0x2005,0xFFFF
3.184345083333334,0,0xA0A0,0xFFFF
3.184357416666667,0,0x2006,0xFFFF
3.184377125000000,0,0x0000,0xFFFF
3.184390000000000,0,0x2007,0xFFFF
3.184408750000000,0,0x5050,0xFFFF
3.184420833333333,0,0x2008,0xFFFF
3.184440500000000,0,0xA0A0,0xFFFF
3.184453291666667,0,0x2009,0xFFFF
3.184472041666667,0,0xA4A4,0xFFFF
3.184484125000000,0,0x200A,0xFFFF
3.184503750000000,0,0x4F4F,0xFFFF
3.184516750000000,0,0x6004,0xFFFF
3.184535291666667,0,0x0000,0x0000
3.184564166666667,0,0x6004,0xFFFF
3.184584041666667,0,0x0000,0x0000
3.184597291666666,0,0x2005,0xFFFF
3.184616375000000,0,0xA0A0,0xFFFF
3.184628750000000,0,0x2006,0xFFFF
3.184648541666667,0,0x0000,0xFFFF
3.184661416666667,0,0x2007,0xFFFF
3.184680250000000,0,0x5050,0xFFFF
3.184692458333333,0,0x2008,0xFFFF
3.184712250000000,0,0x4646,0xFFFF
3.184725125000000,0,0x2009,0xFFFF
3.184743833333334,0,0x3636,0xFFFF
3.184755958333333,0,0x200A,0xFFFF
3.184775625000000,0,0x4F4F,0xFFFF
3.184788500000000,0,0x6004,0xFFFF
3.184807041666667,0,0x0000,0x0000
3.184835875000000,0,0x6004,0xFFFF
3.184855625000000,0,0x0000,0x0000
3.184868708333333,0,0x2005,0xFFFF
3.184887666666667,0,0xA0A0,0xFFFF
3.184899958333333,0,0x2006,0xFFFF
3.184919583333333,0,0x0000,0xFFFF
3.184932500000000,0,0x2007,0xFFFF
3.184951250000000,0,0x5050,0xFFFF
3.184963375000000,0,0x2008,0xFFFF
3.184983166666667,0,0xA0A0,0xFFFF
3.184996041666666,0,0x2009,0xFFFF
3.185014750000000,0,0xA4A4,0xFFFF
3.185026833333333,0,0x200A,0xFFFF
3.185046458333333,0,0x4F4F,0xFFFF
3.185059375000000,0,0x6004,0xFFFF
3.185078125000000,0,0x0000,0x0000
3.185106916666667,0,0x6004,0xFFFF
3.185126833333333,0,0x0000,0x0000
3.185140083333333,0,0x2005,0xFFFF
3.185159166666667,0,0xA0A0,0xFFFF
3.185176791666667,0,0x2006,0xFFFF
3.185197166666667,0,0x0000,0xFFFF
3.185211291666667,0,0x2007,0xFFFF
3.185230583333333,0,0x1010,0xFFFF
3.185242916666667,0,0x2008,0xFFFF
3.185262666666667,0,0xA0A0,0xFFFF
3.185275916666667,0,0x2009,0xFFFF
3.185294916666667,0,0xA9A9,0xFFFF
3.185307291666667,0,0x200A,0xFFFF
3.185327416666667,0,0x4F4F,0xFFFF
3.185341041666667,0,0x6004,0xFFFF
3.185359916666667,0,0x0000,0x0000
3.185390916666667,0,0x6004,0xFFFF
3.185410833333334,0,0x0000,0x0000
3.185424291666667,0,0x2005,0xFFFF
3.185443500000000,0,0xA0A0,0xFFFF
3.185455916666667,0,0x2006,0xFFFF
3.185475791666667,0,0x0000,0xFFFF
3.185488666666667,0,0x2007,0xFFFF
3.185507416666667,0,0x3030,0xFFFF
3.185519666666667,0,0x2008,0xFFFF
3.185539166666667,0,0x0606,0xFFFF
3.185552000000000,0,0x2009,0xFFFF
3.185570750000000,0,0x3636,0xFFFF
3.185582875000000,0,0x200A,0xFFFF
3.185602583333333,0,0x4F4F,0xFFFF
3.185615541666666,0,0x6004,0xFFFF
3.185634166666667,0,0x0000,0x0000
3.185663416666667,0,0x6004,0xFFFF
3.185683250000000,0,0x0000,0x0000
3.185696666666667,0,0x2005,0xFFFF
3.185715708333333,0,0xA0A0,0xFFFF
3.185728041666667,0,0x2006,0xFFFF
3.185747750000000,0,0x0000,0xFFFF
3.185760666666666,0,0x2007,0xFFFF
3.185779583333333,0,0x3030,0xFFFF
3.185791750000000,0,0x2008,0xFFFF
3.185811333333334,0,0x2626,0xFFFF
3.185824166666666,0,0x2009,0xFFFF
3.185843041666667,0,0x3636,0xFFFF
3.185855250000000,0,0x200A,0xFFFF
3.185874833333334,0,0x4F4F,0xFFFF
3.185887791666667,0,0x6004,0xFFFF
3.185906375000000,0,0x0000,0x0000
3.185935541666667,0,0x6004,0xFFFF
3.185955291666667,0,0x0000,0x0000
3.185968666666667,0,0x2005,0xFFFF
3.185987833333333,0,0xA0A0,0xFFFF
3.186000250000000,0,0x2006,0xFFFF
3.186019958333334,0,0x0000,0xFFFF
3.186032875000000,0,0x2007,0xFFFF
3.186051708333333,0,0x4040,0xFFFF
3.186063875000000,0,0x2008,0xFFFF
3.186083500000000,0,0x0000,0xFFFF
3.186096291666667,0,0x2009,0xFFFF
3.186115000000000,0,0x8080,0xFFFF
3.186127125000000,0,0x200A,0xFFFF
3.186146833333333,0,0x4F4F,0xFFFF
3.186159666666667,0,0x6004,0xFFFF
3.186178250000000,0,0x0000,0x0000
3.186207000000000,0,0x6004,0xFFFF
3.186226791666666,0,0x0000,0x0000
3.186240000000000,0,0x2005,0xFFFF
3.186259041666667,0,0xA0A0,0xFFFF
3.186271458333333,0,0x2006,0xFFFF
3.186291250000000,0,0x0000,0xFFFF
3.186304208333333,0,0x2007,0xFFFF
3.186322833333334,0,0x5050,0xFFFF
3.186335125000000,0,0x2008,0xFFFF
3.186354791666667,0,0xEEEE,0xFFFF
3.186367625000000,0,0x2009,0xFFFF
3.186386416666667,0,0x2222,0xFFFF
3.186398458333333,0,0x200A,0xFFFF
3.186418208333333,0,0x4F4F,0xFFFF
3.186431125000000,0,0x6004,0xFFFF
3.186449791666667,0,0x0000,0x0000
3.186478750000000,0,0x6004,0xFFFF
3.186498541666666,0,0x0000,0x0000
3.186511833333333,0,0x2005,0xFFFF
3.186530916666667,0,0xA0A0,0xFFFF
3.186543208333333,0,0x2006,0xFFFF
3.186562791666667,0,0x0000,0xFFFF
3.186575541666667,0,0x2007,0xFFFF
3.186594250000000,0,0x3030,0xFFFF
3.186606375000000,0,0x2008,0xFFFF
3.186625875000000,0,0x6C6C,0xFFFF
3.186638708333333,0,0x2009,0xFFFF
3.186657416666667,0,0x9E9E,0xFFFF
3.186669500000000,0,0x200A,0xFFFF
3.186688958333333,0,0x4F4F,0xFFFF
3.186701916666667,0,0x6004,0xFFFF
3.186720416666667,0,0x0000,0x0000
3.186749375000000,0,0x6004,0xFFFF
3.186769208333333,0,0x0000,0x0000
3.186782333333333,0,0x2005,0xFFFF
3.186801416666666,0,0xA0A0,0xFFFF
3.186813666666667,0,0x2006,0xFFFF
3.186833333333333,0,0x0000,0xFFFF
3.186846125000000,0,0x2007,0xFFFF
3.186864875000000,0,0x5050,0xFFFF
3.186876916666667,0,0x2008,0xFFFF
3.186896500000000,0,0x6868,0xFFFF
3.186909333333333,0,0x2009,0xFFFF
3.186928125000000,0,0x4040,0xFFFF
3.186940333333333,0,0x200A,0xFFFF
3.186959875000000,0,0x4F4F,0xFFFF
3.186972750000000,0,0x6004,0xFFFF
3.186991333333333,0,0x0000,0x0000
3.187020416666666,0,0x6004,0xFFFF
3.187040083333333,0,0x0000,0x0000
3.187053291666667,0,0x2005,0xFFFF
3.187072291666667,0,0xA0A0,0xFFFF
3.187084500000000,0,0x2006,0xFFFF
3.187104041666667,0,0x0000,0xFFFF
3.187116958333333,0,0x2007,0xFFFF
3.187135833333334,0,0x1010,0xFFFF
3.187148041666667,0,0x2008,0xFFFF
3.187167791666667,0,0x0000,0xFFFF
3.187180541666667,0,0x2009,0xFFFF
3.187199333333333,0,0x8080,0xFFFF
3.187211541666667,0,0x200A,0xFFFF
3.187231208333333,0,0x4F4F,0xFFFF
3.187244000000000,0,0x6004,0xFFFF
3.187262666666667,0,0x0000,0x0000
3.187291875000000,0,0x6004,0xFFFF
3.187311750000000,0,0x0000,0x0000
3.187325208333333,0,0x2005,0xFFFF
3.187344291666667,0,0xA0A0,0xFFFF
3.187356666666667,0,0x2006,0xFFFF
3.187376458333333,0,0x0000,0xFFFF
3.187389458333334,0,0x2007,0xFFFF
3.187408250000000,0,0x5050,0xFFFF
3.187420291666667,0,0x2008,0xFFFF
3.187439750000000,0,0x8E8E,0xFFFF
3.187452625000000,0,0x2009,0xFFFF
3.187471416666666,0,0x2222,0xFFFF
3.187483541666666,0,0x200A,0xFFFF
3.187503083333334,0,0x4F4F,0xFFFF
3.187516000000000,0,0x6004,0xFFFF
3.187534541666666,0,0x0000,0x0000
3.187563291666667,0,0x6004,0xFFFF
3.187583000000000,0,0x0000,0x0000
3.187596125000000,0,0x2005,0xFFFF
3.187615333333333,0,0xA0A0,0xFFFF
3.187627583333333,0,0x2006,0xFFFF
3.187647166666667,0,0x0000,0xFFFF
3.187659875000000,0,0x2007,0xFFFF
3.187678625000000,0,0x3030,0xFFFF
3.187690666666667,0,0x2008,0xFFFF
3.187710250000000,0,0x8C8C,0xFFFF
3.187723166666667,0,0x2009,0xFFFF
3.187741875000000,0,0x9F9F,0xFFFF
3.187754041666667,0,0x200A,0xFFFF
3.187773666666667,0,0x4F4F,0xFFFF
3.187786541666667,0,0x6004,0xFFFF
3.187805083333333,0,0x0000,0x0000
3.187833791666667,0,0x6004,0xFFFF
3.187853583333333,0,0x0000,0x0000
3.187866791666667,0,0x2005,0xFFFF
3.187885791666667,0,0xA0A0,0xFFFF
3.187898083333333,0,0x2006,0xFFFF
3.187917791666667,0,0x0000,0xFFFF
3.187930583333333,0,0x2007,0xFFFF
3.187949333333334,0,0x5050,0xFFFF
3.187961541666667,0,0x2008,0xFFFF
3.187981208333333,0,0xA8A8,0xFFFF
3.187994000000000,0,0x2009,0xFFFF
3.188012750000000,0,0x2F2F,0xFFFF
3.188024791666667,0,0x200A,0xFFFF
3.188044583333333,0,0x4F4F,0xFFFF
3.188057416666667,0,0x6004,0xFFFF
3.188075958333333,0,0x0000,0x0000
3.188105083333333,0,0x6004,0xFFFF
3.188124875000000,0,0x0000,0x0000
3.188138125000000,0,0x2005,0xFFFF
3.188157208333333,0,0xA0A0,0xFFFF
3.188169625000000,0,0x2006,0xFFFF
3.188189208333333,0,0x0000,0xFFFF
3.188202083333334,0,0x2007,0xFFFF
3.188220958333333,0,0x1010,0xFFFF
3.188233041666667,0,0x2008,0xFFFF
3.188252666666667,0,0x0000,0xFFFF
3.188265541666667,0,0x2009,0xFFFF
3.188284250000000,0,0x8080,0xFFFF
3.188296416666667,0,0x200A,0xFFFF
3.188316125000000,0,0x4F4F,0xFFFF
3.188329000000000,0,0x6004,0xFFFF
3.188347583333333,0,0x0000,0x0000
3.188376541666667,0,0x6004,0xFFFF
3.188396250000000,0,0x0000,0x0000
3.188409583333333,0,0x2005,0xFFFF
3.188428708333333,0,0xA0A0,0xFFFF
3.188441000000000,0,0x2006,0xFFFF
3.188460500000000,0,0x0000,0xFFFF
3.188473416666667,0,0x2007,0xFFFF
3.188492166666667,0,0x5050,0xFFFF
3.188504250000000,0,0x2008,0xFFFF
3.188524083333333,0,0xA0A0,0xFFFF
3.188536916666667,0,0x2009,0xFFFF
3.188555708333333,0,0xA9A9,0xFFFF
3.188567750000000,0,0x200A,0xFFFF
3.188587333333333,0,0x4F4F,0xFFFF
3.188600250000000,0,0x6004,0xFFFF
3.188618833333333,0,0x0000,0x0000
3.188647666666667,0,0x6004,0xFFFF
3.188667416666667,0,0x0000,0x0000
3.188680625000000,0,0x2005,0xFFFF
3.188699625000000,0,0xA0A0,0xFFFF
3.188711916666667,0,0x2006,0xFFFF
3.188731708333334,0,0x0000,0xFFFF
3.188744458333333,0,0x2007,0xFFFF
3.188763291666667,0,0x5050,0xFFFF
3.188775416666667,0,0x2008,0xFFFF
3.188795208333334,0,0xA0A0,0xFFFF
3.188807875000000,0,0x2009,0xFFFF
3.188826666666666,0,0xA4A4,0xFFFF
3.188838666666667,0,0x200A,0xFFFF
3.188858375000000,0,0x4F4F,0xFFFF
3.188871291666667,0,0x6004,0xFFFF
3.188889875000000,0,0x0000,0x0000
3.188918666666666,0,0x6004,0xFFFF
3.188938750000000,0,0x0000,0x0000
3.188952000000000,0,0x2005,0xFFFF
3.188971041666667,0,0xA0A0,0xFFFF
3.188983291666667,0,0x2006,0xFFFF
3.189002958333333,0,0x0000,0xFFFF
3.189015791666667,0,0x2007,0xFFFF
3.189034583333333,0,0x5050,0xFFFF
3.189046708333333,0,0x2008,0xFFFF
3.189066333333333,0,0x6060,0xFFFF
3.189079208333333,0,0x2009,0xFFFF
3.189097833333333,0,0x1C1C,0xFFFF
3.189109958333333,0,0x200A,0xFFFF
3.189129666666667,0,0x4F4F,0xFFFF
3.189142500000000,0,0x6004,0xFFFF
3.189161125000000,0,0x0000,0x0000
3.189189958333333,0,0x6004,0xFFFF
3.189209791666667,0,0x0000,0x0000
3.189223000000000,0,0x2005,0xFFFF
3.189242083333333,0,0xA0A0,0xFFFF
3.189254333333333,0,0x2006,0xFFFF
3.189273958333333,0,0x0000,0xFFFF
3.189286875000000,0,0x2007,0xFFFF
3.189305750000000,0,0x5050,0xFFFF
3.189317916666667,0,0x2008,0xFFFF
3.189337583333333,0,0xA0A0,0xFFFF
3.189350500000000,0,0x2009,0xFFFF
3.189369250000000,0,0xA4A4,0xFFFF
3.189381375000000,0,0x200A,0xFFFF
3.189400875000000,0,0x4F4F,0xFFFF
3.189413791666666,0,0x6004,0xFFFF
3.189432416666667,0,0x0000,0x0000
3.189461166666667,0,0x6004,0xFFFF
3.189481000000000,0,0x0000,0x0000
3.189494375000000,0,0x2005,0xFFFF
3.189513458333333,0,0xA0A0,0xFFFF
3.189525666666666,0,0x2006,0xFFFF
3.189545208333334,0,0x0000,0xFFFF
3.189558000000000,0,0x2007,0xFFFF
3.189576875000000,0,0x0000,0xFFFF
3.189589041666667,0,0x2008,0xFFFF
3.189608708333334,0,0xA0A0,0xFFFF
3.189621583333333,0,0x2009,0xFFFF
3.189640458333333,0,0xA9A9,0xFFFF
3.189652500000000,0,0x200A,0xFFFF
3.189672125000000,0,0x4F4F,0xFFFF
3.189684958333333,0,0x6004,0xFFFF
3.189703541666667,0,0x0000,0x0000
3.189732541666667,0,0x6004,0xFFFF
3.189752500000000,0,0x0000,0x0000
3.189765875000000,0,0x2005,0xFFFF
3.189785000000000,0,0xA0A0,0xFFFF
3.189797291666667,0,0x2006,0xFFFF
3.189817000000000,0,0x0000,0xFFFF
3.189829875000000,0,0x2007,0xFFFF
3.189848791666666,0,0x5050,0xFFFF
3.189860875000000,0,0x2008,0xFFFF
3.189880541666667,0,0x4040,0xFFFF
3.189893375000000,0,0x2009,0xFFFF
3.189912166666667,0,0x3636,0xFFFF
3.189924166666667,0,0x200A,0xFFFF
3.189943833333333,0,0x4F4F,0xFFFF
3.189956958333333,0,0x6004,0xFFFF
3.189975458333334,0,0x0000,0x0000
3.190004083333333,0,0x6004,0xFFFF
3.190023916666667,0,0x0000,0x0000
3.190037125000000,0,0x2005,0xFFFF
3.190056250000000,0,0xA0A0,0xFFFF
3.190068583333333,0,0x2006,0xFFFF
3.190088250000000,0,0x0000,0xFFFF
3.190101041666667,0,0x2007,0xFFFF
3.190119833333333,0,0x5050,0xFFFF
3.190131875000000,0,0x2008,0xFFFF
3.190151500000000,0,0xC0C0,0xFFFF
3.190164291666667,0,0x2009,0xFFFF
3.190183083333333,0,0xCDCD,0xFFFF
3.190195083333333,0,0x200A,0xFFFF
3.190214750000000,0,0x4F4F,0xFFFF
3.190227750000000,0,0x6004,0xFFFF
3.190246250000000,0,0x0000,0x0000
3.190275250000000,0,0x6004,0xFFFF
3.190294958333333,0,0x0000,0x0000
3.190308333333333,0,0x2005,0xFFFF
3.190327333333333,0,0xA0A0,0xFFFF
3.190339708333333,0,0x2006,0xFFFF
3.190359500000000,0,0x0000,0xFFFF
3.190372208333333,0,0x2007,0xFFFF
3.190390958333333,0,0x5050,0xFFFF
3.190403083333333,0,0x2008,0xFFFF
3.190422708333333,0,0xA0A0,0xFFFF
3.190437666666667,0,0x2009,0xFFFF
3.190456833333333,0,0x3636,0xFFFF
3.190469000000000,0,0x200A,0xFFFF
3.190488875000000,0,0x4F4F,0xFFFF
3.190501833333333,0,0x6004,0xFFFF
3.190520500000000,0,0x0000,0x0000
3.190551125000000,0,0x6004,0xFFFF
3.190571041666667,0,0x0000,0x0000
3.190584500000000,0,0x2005,0xFFFF
3.190603500000000,0,0xA0A0,0xFFFF
3.190615875000000,0,0x2006,0xFFFF
3.190635583333334,0,0x0000,0xFFFF
3.190648500000000,0,0x2007,0xFFFF
3.190667375000000,0,0x5050,0xFFFF
3.190679458333333,0,0x2008,0xFFFF
3.190699041666667,0,0x8E8E,0xFFFF
3.190711916666667,0,0x2009,0xFFFF
3.190730750000000,0,0x2222,0xFFFF
3.190742833333333,0,0x200A,0xFFFF
3.190762458333333,0,0x4F4F,0xFFFF
3.190775375000000,0,0x6004,0xFFFF
3.190794041666666,0,0x0000,0x0000
3.190823833333333,0,0x6004,0xFFFF
3.190843708333333,0,0x0000,0x0000
3.190857000000000,0,0x2005,0xFFFF
3.190876166666667,0,0xA0A0,0xFFFF
3.190888541666667,0,0x2006,0xFFFF
3.190908208333334,0,0x0000,0xFFFF
3.190921083333333,0,0x2007,0xFFFF
3.190939916666667,0,0x3030,0xFFFF
3.190952041666667,0,0x2008,0xFFFF
3.190971625000000,0,0x6C6C,0xFFFF
3.190984458333333,0,0x2009,0xFFFF
3.191003166666667,0,0xA8A8,0xFFFF
3.191015250000000,0,0x200A,0xFFFF
3.191034875000000,0,0x4F4F,0xFFFF
3.191047708333334,0,0x6004,0xFFFF
3.191066291666667,0,0x0000,0x0000
3.191095166666666,0,0x6004,0xFFFF
3.191115041666666,0,0x0000,0x0000
3.191128375000000,0,0x2005,0xFFFF
3.191147500000000,0,0xA0A0,0xFFFF
3.191159791666667,0,0x2006,0xFFFF
3.191179458333333,0,0x0000,0xFFFF
3.191192250000000,0,0x2007,0xFFFF
3.191211000000000,0,0x0000,0xFFFF
3.191223250000000,0,0x2008,0xFFFF
3.191242875000000,0,0xEEEE,0xFFFF
